!Agilent Technologies,E5071C,MY46100305,A.07.02
!Date: Fri Jan 01 00:24:25 1988
!Data & Calibration Information:
!Freq	S11:SOLT1(ON)
# Hz S MA R 50
300000	9.783389e-001	-2.274577e+000
303500	9.791287e-001	-2.417972e+000
307000	9.830349e-001	-2.617839e+000
310500	9.848589e-001	-2.865196e+000
314000	9.838177e-001	-2.984984e+000
317500	9.803970e-001	-3.173640e+000
321000	9.786745e-001	-3.113707e+000
324500	9.793982e-001	-2.990910e+000
328000	9.829900e-001	-3.018968e+000
331500	9.839200e-001	-3.202042e+000
335000	9.845649e-001	-3.466961e+000
338500	9.833033e-001	-3.766425e+000
342000	9.815050e-001	-3.908486e+000
345500	9.757965e-001	-3.927555e+000
349000	9.714048e-001	-3.770247e+000
352500	9.701714e-001	-3.533323e+000
356000	9.723505e-001	-3.293495e+000
359500	9.771450e-001	-3.180794e+000
363000	9.818001e-001	-3.212356e+000
366500	9.835674e-001	-3.338571e+000
370000	9.836410e-001	-3.435467e+000
373500	9.852143e-001	-3.522091e+000
377000	9.856781e-001	-3.633045e+000
380500	9.852236e-001	-3.588971e+000
384000	9.874965e-001	-3.669782e+000
387500	9.891675e-001	-3.764116e+000
391000	9.906787e-001	-3.798789e+000
394500	9.913805e-001	-3.886348e+000
398000	9.924085e-001	-3.977920e+000
401500	9.928450e-001	-4.027706e+000
405000	9.926753e-001	-4.222194e+000
408500	9.922892e-001	-4.292032e+000
412000	9.932956e-001	-4.417325e+000
415500	9.940762e-001	-4.491266e+000
419000	9.947464e-001	-4.548226e+000
422500	9.943195e-001	-4.653423e+000
426000	9.951607e-001	-4.744454e+000
429500	9.951315e-001	-4.863851e+000
433000	9.938431e-001	-4.905860e+000
436500	9.946258e-001	-5.007687e+000
440000	9.944886e-001	-5.159882e+000
443500	9.930622e-001	-5.206905e+000
447000	9.927491e-001	-5.305668e+000
450500	9.906557e-001	-5.348141e+000
454000	9.900907e-001	-5.279355e+000
457500	9.911775e-001	-5.279720e+000
461000	9.927802e-001	-5.369495e+000
464500	9.925300e-001	-5.500029e+000
468000	9.922703e-001	-5.548468e+000
471500	9.932530e-001	-5.569449e+000
475000	9.924391e-001	-5.585433e+000
478500	9.936210e-001	-5.727416e+000
482000	9.939580e-001	-5.830765e+000
485500	9.947880e-001	-5.875264e+000
489000	9.944998e-001	-6.074972e+000
492500	9.934647e-001	-6.087039e+000
496000	9.936758e-001	-6.225705e+000
499500	9.916403e-001	-6.285760e+000
503000	9.918503e-001	-6.304664e+000
506500	9.909926e-001	-6.431466e+000
510000	9.920875e-001	-6.485545e+000
513500	9.905515e-001	-6.441455e+000
517000	9.909364e-001	-6.519127e+000
520500	9.910842e-001	-6.664951e+000
524000	9.899275e-001	-6.663707e+000
527500	9.903466e-001	-6.772125e+000
531000	9.896503e-001	-6.825326e+000
534500	9.898948e-001	-6.961250e+000
538000	9.892873e-001	-6.930474e+000
541500	9.893790e-001	-7.044645e+000
545000	9.897039e-001	-7.114253e+000
548500	9.895768e-001	-7.204927e+000
552000	9.865807e-001	-7.370619e+000
555500	9.875206e-001	-7.423799e+000
559000	9.876742e-001	-7.523741e+000
562500	9.874871e-001	-7.686299e+000
566000	9.855926e-001	-7.847806e+000
569500	9.841561e-001	-8.076562e+000
573000	9.808250e-001	-8.251876e+000
576500	9.750877e-001	-8.447488e+000
580000	9.691687e-001	-8.478969e+000
583500	9.609802e-001	-8.498174e+000
587000	9.541755e-001	-8.275200e+000
590500	9.474628e-001	-7.787290e+000
594000	9.459863e-001	-7.055205e+000
597500	9.495043e-001	-6.480921e+000
601000	9.569595e-001	-6.290995e+000
604500	9.635581e-001	-6.309722e+000
608000	9.648126e-001	-6.273607e+000
611500	9.693655e-001	-6.223327e+000
615000	9.728448e-001	-6.354468e+000
618500	9.758151e-001	-6.443496e+000
622000	9.780950e-001	-6.513118e+000
625500	9.785477e-001	-6.641514e+000
629000	9.799718e-001	-6.675865e+000
632500	9.814703e-001	-6.724555e+000
636000	9.809509e-001	-6.823179e+000
639500	9.823609e-001	-6.862030e+000
643000	9.832480e-001	-6.899469e+000
646500	9.843601e-001	-6.829941e+000
650000	9.873190e-001	-6.979290e+000
653500	9.887336e-001	-7.121857e+000
657000	9.893157e-001	-7.141402e+000
660500	9.899334e-001	-7.191198e+000
664000	9.919154e-001	-7.327814e+000
667500	9.930865e-001	-7.479608e+000
671000	9.926790e-001	-7.563845e+000
674500	9.907949e-001	-7.627138e+000
678000	9.913904e-001	-7.670916e+000
681500	9.911690e-001	-7.746418e+000
685000	9.914956e-001	-7.870262e+000
688500	9.917989e-001	-7.915632e+000
692000	9.911105e-001	-7.978076e+000
695500	9.919132e-001	-8.027708e+000
699000	9.922574e-001	-8.021913e+000
702500	9.927084e-001	-8.108860e+000
706000	9.924497e-001	-8.146830e+000
709500	9.933181e-001	-8.215306e+000
713000	9.923115e-001	-8.335171e+000
716500	9.922598e-001	-8.371163e+000
720000	9.929358e-001	-8.476356e+000
723500	9.934113e-001	-8.443817e+000
727000	9.936545e-001	-8.613632e+000
730500	9.925601e-001	-8.573843e+000
734000	9.933344e-001	-8.705165e+000
737500	9.940601e-001	-8.727095e+000
741000	9.932193e-001	-8.828338e+000
744500	9.938746e-001	-8.916924e+000
748000	9.937458e-001	-8.901299e+000
751500	9.943817e-001	-8.954433e+000
755000	9.945176e-001	-9.009624e+000
758500	9.941225e-001	-9.140419e+000
762000	9.942179e-001	-9.193886e+000
765500	9.944853e-001	-9.220843e+000
769000	9.946787e-001	-9.296203e+000
772500	9.940271e-001	-9.426345e+000
776000	9.929063e-001	-9.399778e+000
779500	9.935498e-001	-9.427770e+000
783000	9.941606e-001	-9.534615e+000
786500	9.940936e-001	-9.564185e+000
790000	9.939376e-001	-9.658687e+000
793500	9.930542e-001	-9.737233e+000
797000	9.927481e-001	-9.768962e+000
800500	9.932339e-001	-9.886495e+000
804000	9.930283e-001	-9.933436e+000
807500	9.919375e-001	-1.002121e+001
811000	9.897313e-001	-1.008578e+001
814500	9.897799e-001	-1.008303e+001
818000	9.895591e-001	-1.005159e+001
821500	9.900283e-001	-1.004818e+001
825000	9.905347e-001	-1.010812e+001
828500	9.906378e-001	-1.013601e+001
832000	9.905770e-001	-1.012596e+001
835500	9.909096e-001	-1.016877e+001
839000	9.912820e-001	-1.023235e+001
842500	9.906164e-001	-1.033322e+001
846000	9.916919e-001	-1.037138e+001
849500	9.917412e-001	-1.038281e+001
853000	9.918737e-001	-1.041970e+001
856500	9.918288e-001	-1.041233e+001
860000	9.907645e-001	-1.046885e+001
863500	9.911551e-001	-1.061335e+001
867000	9.905537e-001	-1.064075e+001
870500	9.899226e-001	-1.071174e+001
874000	9.904948e-001	-1.066336e+001
877500	9.901415e-001	-1.072137e+001
881000	9.915564e-001	-1.077367e+001
884500	9.908000e-001	-1.079269e+001
888000	9.915424e-001	-1.082462e+001
891500	9.917520e-001	-1.091609e+001
895000	9.922352e-001	-1.092826e+001
898500	9.912727e-001	-1.092769e+001
902000	9.927013e-001	-1.100694e+001
905500	9.923902e-001	-1.105526e+001
909000	9.921339e-001	-1.106505e+001
912500	9.928086e-001	-1.111186e+001
916000	9.945724e-001	-1.119551e+001
919500	9.947573e-001	-1.134418e+001
923000	9.947695e-001	-1.143106e+001
926500	9.937985e-001	-1.137245e+001
930000	9.939001e-001	-1.145855e+001
933500	9.938346e-001	-1.151223e+001
937000	9.941930e-001	-1.163281e+001
940500	9.937303e-001	-1.163547e+001
944000	9.936870e-001	-1.168908e+001
947500	9.932098e-001	-1.169620e+001
951000	9.931490e-001	-1.182030e+001
954500	9.946939e-001	-1.179120e+001
958000	9.940192e-001	-1.180050e+001
961500	9.947212e-001	-1.185086e+001
965000	9.937560e-001	-1.193654e+001
968500	9.951225e-001	-1.194626e+001
972000	9.952678e-001	-1.202620e+001
975500	9.953935e-001	-1.216260e+001
979000	9.943526e-001	-1.222295e+001
982500	9.935734e-001	-1.225545e+001
986000	9.948654e-001	-1.231810e+001
989500	9.945484e-001	-1.237624e+001
993000	9.951925e-001	-1.241601e+001
996500	9.946337e-001	-1.247478e+001
1000000	9.932160e-001	-1.248529e+001
