!Agilent Technologies,E5071C,MY46100305,A.07.02
!Date: Fri Jan 01 00:23:27 1988
!Data & Calibration Information:
!Freq	S11:SOLT1(ON)
# Hz S MA R 50
300000	9.701183e-001	-3.413077e+000
303500	9.707641e-001	-3.638692e+000
307000	9.755036e-001	-3.918061e+000
310500	9.766297e-001	-4.274185e+000
314000	9.743630e-001	-4.572630e+000
317500	9.696245e-001	-4.832065e+000
321000	9.655069e-001	-4.832805e+000
324500	9.667059e-001	-4.598960e+000
328000	9.714215e-001	-4.680397e+000
331500	9.743598e-001	-5.104310e+000
335000	9.741048e-001	-5.556847e+000
338500	9.713542e-001	-5.937873e+000
342000	9.646857e-001	-6.275219e+000
345500	9.567043e-001	-6.280400e+000
349000	9.482999e-001	-5.993313e+000
352500	9.475461e-001	-5.469772e+000
356000	9.538885e-001	-5.074845e+000
359500	9.618259e-001	-5.101698e+000
363000	9.680744e-001	-5.374038e+000
366500	9.692887e-001	-5.639667e+000
370000	9.696377e-001	-5.869479e+000
373500	9.693536e-001	-6.011023e+000
377000	9.703506e-001	-6.185829e+000
380500	9.712405e-001	-6.263734e+000
384000	9.740914e-001	-6.461584e+000
387500	9.759395e-001	-6.671584e+000
391000	9.783374e-001	-6.828390e+000
394500	9.801456e-001	-7.111076e+000
398000	9.807459e-001	-7.432850e+000
401500	9.806624e-001	-7.655467e+000
405000	9.804745e-001	-8.016034e+000
408500	9.799466e-001	-8.269322e+000
412000	9.808341e-001	-8.560984e+000
415500	9.799650e-001	-8.881307e+000
419000	9.805306e-001	-9.130132e+000
422500	9.810906e-001	-9.436310e+000
426000	9.811547e-001	-9.795526e+000
429500	9.801696e-001	-1.010346e+001
433000	9.781927e-001	-1.048800e+001
436500	9.778467e-001	-1.090984e+001
440000	9.754958e-001	-1.130400e+001
443500	9.716558e-001	-1.172865e+001
447000	9.663922e-001	-1.209350e+001
450500	9.626516e-001	-1.229812e+001
454000	9.591571e-001	-1.231839e+001
457500	9.609325e-001	-1.245868e+001
461000	9.652824e-001	-1.284887e+001
464500	9.629929e-001	-1.336014e+001
468000	9.620827e-001	-1.374618e+001
471500	9.619511e-001	-1.409374e+001
475000	9.625189e-001	-1.455530e+001
478500	9.623136e-001	-1.518411e+001
482000	9.615696e-001	-1.591525e+001
485500	9.584718e-001	-1.674203e+001
489000	9.541378e-001	-1.741392e+001
492500	9.491950e-001	-1.816884e+001
496000	9.424417e-001	-1.895213e+001
499500	9.326364e-001	-1.969469e+001
503000	9.247040e-001	-2.037243e+001
506500	9.147362e-001	-2.094020e+001
510000	9.079913e-001	-2.141266e+001
513500	9.041605e-001	-2.197438e+001
517000	9.019913e-001	-2.302111e+001
520500	8.914180e-001	-2.442468e+001
524000	8.730559e-001	-2.534336e+001
527500	8.596531e-001	-2.620279e+001
531000	8.511622e-001	-2.718125e+001
534500	8.357503e-001	-2.828196e+001
538000	8.185498e-001	-2.950377e+001
541500	7.992102e-001	-3.076442e+001
545000	7.799302e-001	-3.203227e+001
548500	7.594292e-001	-3.366108e+001
552000	7.312124e-001	-3.554570e+001
555500	6.978178e-001	-3.796030e+001
559000	6.511843e-001	-4.059394e+001
562500	5.866634e-001	-4.319408e+001
566000	5.023256e-001	-4.456064e+001
569500	4.050288e-001	-4.231127e+001
573000	3.155999e-001	-3.036928e+001
576500	3.122726e-001	-8.473662e+000
580000	3.797755e-001	5.474519e+000
583500	4.724412e-001	8.955179e+000
587000	5.609452e-001	7.940040e+000
590500	6.298883e-001	3.882954e+000
594000	6.626736e-001	-5.238390e-001
597500	6.859253e-001	-4.968296e+000
601000	6.874986e-001	-8.280549e+000
604500	6.764913e-001	-1.062138e+001
608000	6.749726e-001	-1.322080e+001
611500	6.663310e-001	-1.613341e+001
615000	6.457747e-001	-1.832289e+001
618500	6.211832e-001	-2.093361e+001
622000	5.936852e-001	-2.291115e+001
625500	5.602920e-001	-2.455289e+001
629000	5.260803e-001	-2.501936e+001
632500	4.955421e-001	-2.549582e+001
636000	4.724410e-001	-2.522567e+001
639500	4.544971e-001	-2.662703e+001
643000	4.231156e-001	-2.929700e+001
646500	3.740548e-001	-3.303475e+001
650000	3.135310e-001	-3.604855e+001
653500	2.340636e-001	-3.519512e+001
657000	1.578173e-001	-2.642581e+001
660500	1.050750e-001	-7.846626e+000
664000	9.865374e-002	4.906333e+001
667500	1.987291e-001	7.371734e+001
671000	3.015389e-001	7.259759e+001
674500	3.940096e-001	6.794924e+001
678000	4.674793e-001	6.357458e+001
681500	5.241771e-001	5.995032e+001
685000	5.761827e-001	5.654012e+001
688500	6.185761e-001	5.349469e+001
692000	6.534895e-001	5.085996e+001
695500	6.840717e-001	4.881932e+001
699000	7.193876e-001	4.698858e+001
702500	7.511719e-001	4.499488e+001
706000	7.801016e-001	4.296848e+001
709500	8.030945e-001	4.105129e+001
713000	8.211517e-001	3.904899e+001
716500	8.380613e-001	3.741825e+001
720000	8.493472e-001	3.590298e+001
723500	8.613898e-001	3.460225e+001
727000	8.740514e-001	3.336018e+001
730500	8.824210e-001	3.225264e+001
734000	8.949580e-001	3.105657e+001
737500	9.023763e-001	3.012519e+001
741000	9.093640e-001	2.910835e+001
744500	9.156790e-001	2.811800e+001
748000	9.229714e-001	2.725599e+001
751500	9.285978e-001	2.645117e+001
755000	9.334093e-001	2.567916e+001
758500	9.380380e-001	2.493223e+001
762000	9.417034e-001	2.418202e+001
765500	9.439317e-001	2.358092e+001
769000	9.480697e-001	2.290825e+001
772500	9.504082e-001	2.228520e+001
776000	9.520746e-001	2.178150e+001
779500	9.542928e-001	2.136263e+001
783000	9.570017e-001	2.081159e+001
786500	9.589810e-001	2.029026e+001
790000	9.608925e-001	1.982214e+001
793500	9.621843e-001	1.932063e+001
797000	9.632888e-001	1.891084e+001
800500	9.641382e-001	1.846531e+001
804000	9.647736e-001	1.811824e+001
807500	9.648861e-001	1.766040e+001
811000	9.627302e-001	1.739071e+001
814500	9.623308e-001	1.714447e+001
818000	9.621528e-001	1.695160e+001
821500	9.640131e-001	1.687086e+001
825000	9.661514e-001	1.652517e+001
828500	9.670486e-001	1.631987e+001
832000	9.698054e-001	1.609934e+001
835500	9.703811e-001	1.588936e+001
839000	9.720081e-001	1.560067e+001
842500	9.720566e-001	1.532904e+001
846000	9.745404e-001	1.511504e+001
849500	9.752547e-001	1.495239e+001
853000	9.750294e-001	1.477595e+001
856500	9.767412e-001	1.452716e+001
860000	9.780114e-001	1.432146e+001
863500	9.773663e-001	1.409175e+001
867000	9.781290e-001	1.388508e+001
870500	9.784981e-001	1.366762e+001
874000	9.785095e-001	1.354165e+001
877500	9.789217e-001	1.341983e+001
881000	9.798862e-001	1.330247e+001
884500	9.811387e-001	1.310752e+001
888000	9.820420e-001	1.296752e+001
891500	9.827446e-001	1.275745e+001
895000	9.827251e-001	1.263930e+001
898500	9.831673e-001	1.251556e+001
902000	9.845557e-001	1.239437e+001
905500	9.846239e-001	1.219375e+001
909000	9.853708e-001	1.213064e+001
912500	9.867338e-001	1.194534e+001
916000	9.869396e-001	1.182342e+001
919500	9.868764e-001	1.168547e+001
923000	9.882960e-001	1.162781e+001
926500	9.880323e-001	1.139042e+001
930000	9.881258e-001	1.127551e+001
933500	9.889074e-001	1.109694e+001
937000	9.885733e-001	1.095207e+001
940500	9.892592e-001	1.090582e+001
944000	9.889063e-001	1.076682e+001
947500	9.887641e-001	1.067334e+001
951000	9.906012e-001	1.055679e+001
954500	9.894155e-001	1.053572e+001
958000	9.905655e-001	1.038851e+001
961500	9.906964e-001	1.029870e+001
965000	9.910115e-001	1.022054e+001
968500	9.908194e-001	1.017358e+001
972000	9.918114e-001	1.003906e+001
975500	9.929383e-001	9.853266e+000
979000	9.906014e-001	9.805575e+000
982500	9.913090e-001	9.721739e+000
986000	9.927050e-001	9.570981e+000
989500	9.921481e-001	9.482742e+000
993000	9.929481e-001	9.392000e+000
996500	9.929146e-001	9.339232e+000
1000000	9.912677e-001	9.310842e+000
