!Agilent Technologies,E5071C,MY46100305,A.07.02
!Date: Fri Jan 01 00:20:27 1988
!Data & Calibration Information:
!Freq	S11:SOLT1(ON)
# Hz S MA R 50
300000	9.862021e-001	-4.415326e+000
303500	9.867024e-001	-4.591118e+000
307000	9.873516e-001	-4.699915e+000
310500	9.861413e-001	-4.824874e+000
314000	9.874681e-001	-4.964111e+000
317500	9.871604e-001	-5.150388e+000
321000	9.880422e-001	-5.316261e+000
324500	9.859375e-001	-5.388981e+000
328000	9.850933e-001	-5.503851e+000
331500	9.848547e-001	-5.654852e+000
335000	9.840819e-001	-5.757851e+000
338500	9.850923e-001	-5.932338e+000
342000	9.850807e-001	-6.124399e+000
345500	9.842710e-001	-6.262454e+000
349000	9.842566e-001	-6.380261e+000
352500	9.840015e-001	-6.551055e+000
356000	9.842165e-001	-6.709890e+000
359500	9.834905e-001	-6.936189e+000
363000	9.827583e-001	-7.061770e+000
366500	9.820808e-001	-7.255589e+000
370000	9.817859e-001	-7.441539e+000
373500	9.789300e-001	-7.570508e+000
377000	9.783625e-001	-7.835874e+000
380500	9.752757e-001	-8.027960e+000
384000	9.748092e-001	-8.104902e+000
387500	9.733821e-001	-8.270950e+000
391000	9.713787e-001	-8.257854e+000
394500	9.709970e-001	-8.336439e+000
398000	9.697750e-001	-8.457919e+000
401500	9.702537e-001	-8.512095e+000
405000	9.694766e-001	-8.671621e+000
408500	9.711387e-001	-8.787098e+000
412000	9.712989e-001	-9.020883e+000
415500	9.724228e-001	-9.163010e+000
419000	9.733329e-001	-9.454059e+000
422500	9.736572e-001	-9.652119e+000
426000	9.742908e-001	-9.933879e+000
429500	9.751162e-001	-1.015635e+001
433000	9.733160e-001	-1.047372e+001
436500	9.727341e-001	-1.083475e+001
440000	9.729710e-001	-1.116965e+001
443500	9.708331e-001	-1.156148e+001
447000	9.688836e-001	-1.181454e+001
450500	9.661784e-001	-1.208783e+001
454000	9.625997e-001	-1.247219e+001
457500	9.598635e-001	-1.273421e+001
461000	9.574598e-001	-1.281412e+001
464500	9.559483e-001	-1.302836e+001
468000	9.562283e-001	-1.317487e+001
471500	9.576069e-001	-1.345395e+001
475000	9.582251e-001	-1.372732e+001
478500	9.594310e-001	-1.417612e+001
482000	9.595693e-001	-1.464588e+001
485500	9.594440e-001	-1.514680e+001
489000	9.582774e-001	-1.565308e+001
492500	9.582503e-001	-1.617143e+001
496000	9.567736e-001	-1.680207e+001
499500	9.529490e-001	-1.746726e+001
503000	9.520267e-001	-1.810339e+001
506500	9.479729e-001	-1.872332e+001
510000	9.455497e-001	-1.951183e+001
513500	9.398989e-001	-2.020205e+001
517000	9.359006e-001	-2.095210e+001
520500	9.303858e-001	-2.179253e+001
524000	9.255812e-001	-2.271278e+001
527500	9.189129e-001	-2.358747e+001
531000	9.091976e-001	-2.453168e+001
534500	8.999134e-001	-2.546853e+001
538000	8.911373e-001	-2.639613e+001
541500	8.802192e-001	-2.736803e+001
545000	8.696041e-001	-2.840616e+001
548500	8.578746e-001	-2.960713e+001
552000	8.433064e-001	-3.069888e+001
555500	8.292575e-001	-3.187562e+001
559000	8.128414e-001	-3.292069e+001
562500	8.014239e-001	-3.409946e+001
566000	7.844455e-001	-3.567664e+001
569500	7.698584e-001	-3.736077e+001
573000	7.463740e-001	-3.947188e+001
576500	7.185268e-001	-4.128408e+001
580000	6.904668e-001	-4.343401e+001
583500	6.587493e-001	-4.557953e+001
587000	6.227146e-001	-4.830225e+001
590500	5.761878e-001	-5.101660e+001
594000	5.250915e-001	-5.358407e+001
597500	4.608524e-001	-5.536643e+001
601000	4.001377e-001	-5.569910e+001
604500	3.397979e-001	-5.479879e+001
608000	2.873558e-001	-5.137450e+001
611500	2.406202e-001	-4.515546e+001
615000	2.056487e-001	-3.544212e+001
618500	1.891821e-001	-2.215843e+001
622000	1.889180e-001	-9.764820e+000
625500	1.965841e-001	7.004537e-001
629000	2.118693e-001	8.793607e+000
632500	2.243638e-001	1.461839e+001
636000	2.377298e-001	1.974828e+001
639500	2.505405e-001	2.528643e+001
643000	2.669583e-001	3.116140e+001
646500	2.907234e-001	3.647296e+001
650000	3.264537e-001	3.994196e+001
653500	3.584461e-001	4.159424e+001
657000	3.946924e-001	4.356063e+001
660500	4.253360e-001	4.343548e+001
664000	4.601725e-001	4.426609e+001
667500	4.964242e-001	4.300496e+001
671000	5.212904e-001	4.261363e+001
674500	5.510944e-001	4.152410e+001
678000	5.654638e-001	4.095288e+001
681500	5.888503e-001	4.093745e+001
685000	6.108197e-001	4.076801e+001
688500	6.388188e-001	4.029464e+001
692000	6.661343e-001	3.958025e+001
695500	6.909194e-001	3.834945e+001
699000	7.079334e-001	3.710215e+001
702500	7.229069e-001	3.625679e+001
706000	7.372617e-001	3.524107e+001
709500	7.480280e-001	3.444455e+001
713000	7.619194e-001	3.381379e+001
716500	7.714909e-001	3.313932e+001
720000	7.852199e-001	3.270461e+001
723500	7.947499e-001	3.226570e+001
727000	8.073305e-001	3.193851e+001
730500	8.211427e-001	3.149490e+001
734000	8.366148e-001	3.098218e+001
737500	8.527645e-001	3.040238e+001
741000	8.642921e-001	2.966521e+001
744500	8.770237e-001	2.890378e+001
748000	8.870104e-001	2.806878e+001
751500	8.971879e-001	2.739573e+001
755000	9.063764e-001	2.661760e+001
758500	9.131571e-001	2.592603e+001
762000	9.175973e-001	2.515570e+001
765500	9.232345e-001	2.446358e+001
769000	9.270207e-001	2.400230e+001
772500	9.316541e-001	2.333503e+001
776000	9.348070e-001	2.293064e+001
779500	9.388334e-001	2.242845e+001
783000	9.425682e-001	2.191724e+001
786500	9.466450e-001	2.149460e+001
790000	9.496543e-001	2.105092e+001
793500	9.536009e-001	2.058389e+001
797000	9.559607e-001	2.011982e+001
800500	9.585020e-001	1.974993e+001
804000	9.617295e-001	1.934793e+001
807500	9.641942e-001	1.888143e+001
811000	9.653108e-001	1.852115e+001
814500	9.662622e-001	1.812378e+001
818000	9.678844e-001	1.784340e+001
821500	9.698921e-001	1.750239e+001
825000	9.712302e-001	1.719037e+001
828500	9.717179e-001	1.685799e+001
832000	9.734755e-001	1.660922e+001
835500	9.738956e-001	1.641732e+001
839000	9.745995e-001	1.607291e+001
842500	9.749769e-001	1.574336e+001
846000	9.762988e-001	1.557182e+001
849500	9.772663e-001	1.536368e+001
853000	9.772608e-001	1.512568e+001
856500	9.785111e-001	1.491969e+001
860000	9.788355e-001	1.472180e+001
863500	9.803729e-001	1.442139e+001
867000	9.799051e-001	1.424736e+001
870500	9.817397e-001	1.403342e+001
874000	9.815979e-001	1.387525e+001
877500	9.813676e-001	1.365280e+001
881000	9.833447e-001	1.353367e+001
884500	9.840411e-001	1.335175e+001
888000	9.834194e-001	1.310845e+001
891500	9.849961e-001	1.295171e+001
895000	9.849687e-001	1.284244e+001
898500	9.846768e-001	1.266164e+001
902000	9.857008e-001	1.250269e+001
905500	9.858422e-001	1.232674e+001
909000	9.864306e-001	1.220487e+001
912500	9.874167e-001	1.212620e+001
916000	9.879333e-001	1.196627e+001
919500	9.885358e-001	1.179700e+001
923000	9.887156e-001	1.163268e+001
926500	9.890708e-001	1.154008e+001
930000	9.878510e-001	1.139732e+001
933500	9.899050e-001	1.128318e+001
937000	9.899974e-001	1.117126e+001
940500	9.897694e-001	1.108209e+001
944000	9.889682e-001	1.090732e+001
947500	9.903855e-001	1.081220e+001
951000	9.910955e-001	1.073336e+001
954500	9.907467e-001	1.064132e+001
958000	9.904949e-001	1.048391e+001
961500	9.912473e-001	1.033044e+001
965000	9.915581e-001	1.026914e+001
968500	9.915812e-001	1.020993e+001
972000	9.920104e-001	1.015233e+001
975500	9.921823e-001	9.958771e+000
979000	9.911101e-001	9.928154e+000
982500	9.918218e-001	9.795049e+000
986000	9.922934e-001	9.727038e+000
989500	9.919696e-001	9.603297e+000
993000	9.930077e-001	9.498236e+000
996500	9.937231e-001	9.449278e+000
1000000	9.916304e-001	9.386238e+000
