!Agilent Technologies,E5071C,MY46100305,A.07.02
!Date: Fri Jan 01 00:25:44 1988
!Data & Calibration Information:
!Freq	S11:SOLT1(ON)
# Hz S MA R 50
300000	9.907166e-001	-2.801011e+000
303500	9.909613e-001	-2.918480e+000
307000	9.917185e-001	-2.999855e+000
310500	9.929352e-001	-3.024417e+000
314000	9.921057e-001	-3.205678e+000
317500	9.922783e-001	-3.212979e+000
321000	9.930196e-001	-3.239250e+000
324500	9.921822e-001	-3.386346e+000
328000	9.919420e-001	-3.404842e+000
331500	9.921084e-001	-3.398209e+000
335000	9.915454e-001	-3.514804e+000
338500	9.930431e-001	-3.589192e+000
342000	9.927936e-001	-3.604234e+000
345500	9.931496e-001	-3.708817e+000
349000	9.923587e-001	-3.772628e+000
352500	9.941638e-001	-3.836910e+000
356000	9.943032e-001	-3.960536e+000
359500	9.935557e-001	-4.032982e+000
363000	9.931497e-001	-4.102236e+000
366500	9.924946e-001	-4.165988e+000
370000	9.928698e-001	-4.196824e+000
373500	9.921605e-001	-4.250321e+000
377000	9.923122e-001	-4.284269e+000
380500	9.913328e-001	-4.383729e+000
384000	9.903765e-001	-4.443678e+000
387500	9.913711e-001	-4.412020e+000
391000	9.909159e-001	-4.511245e+000
394500	9.916941e-001	-4.454451e+000
398000	9.901079e-001	-4.514699e+000
401500	9.908463e-001	-4.486448e+000
405000	9.892363e-001	-4.532189e+000
408500	9.904543e-001	-4.569924e+000
412000	9.919938e-001	-4.615590e+000
415500	9.915385e-001	-4.691106e+000
419000	9.914882e-001	-4.677897e+000
422500	9.926412e-001	-4.675866e+000
426000	9.930594e-001	-4.809438e+000
429500	9.936917e-001	-4.882644e+000
433000	9.935606e-001	-4.942926e+000
436500	9.930155e-001	-5.014302e+000
440000	9.946734e-001	-5.048724e+000
443500	9.936718e-001	-5.193204e+000
447000	9.933989e-001	-5.276556e+000
450500	9.925305e-001	-5.241008e+000
454000	9.923434e-001	-5.319246e+000
457500	9.928635e-001	-5.364704e+000
461000	9.919282e-001	-5.397430e+000
464500	9.923474e-001	-5.391555e+000
468000	9.922878e-001	-5.462001e+000
471500	9.928934e-001	-5.420758e+000
475000	9.929776e-001	-5.544637e+000
478500	9.922949e-001	-5.588396e+000
482000	9.931351e-001	-5.636234e+000
485500	9.932997e-001	-5.716745e+000
489000	9.930596e-001	-5.735418e+000
492500	9.951719e-001	-5.744132e+000
496000	9.940955e-001	-5.838235e+000
499500	9.932022e-001	-5.860914e+000
503000	9.942417e-001	-5.964866e+000
506500	9.944414e-001	-6.048406e+000
510000	9.940084e-001	-6.120263e+000
513500	9.938765e-001	-6.198428e+000
517000	9.937278e-001	-6.168475e+000
520500	9.935228e-001	-6.277584e+000
524000	9.934327e-001	-6.354728e+000
527500	9.947931e-001	-6.419378e+000
531000	9.942535e-001	-6.483706e+000
534500	9.927562e-001	-6.504080e+000
538000	9.924437e-001	-6.589955e+000
541500	9.924818e-001	-6.602869e+000
545000	9.928993e-001	-6.641421e+000
548500	9.926907e-001	-6.774366e+000
552000	9.926414e-001	-6.813982e+000
555500	9.906749e-001	-6.806711e+000
559000	9.921229e-001	-6.767527e+000
562500	9.920960e-001	-6.825811e+000
566000	9.913040e-001	-6.945158e+000
569500	9.924411e-001	-6.996896e+000
573000	9.921610e-001	-7.028438e+000
576500	9.913544e-001	-7.092056e+000
580000	9.913201e-001	-7.195111e+000
583500	9.919560e-001	-7.188496e+000
587000	9.917644e-001	-7.219196e+000
590500	9.921795e-001	-7.290060e+000
594000	9.906256e-001	-7.371619e+000
597500	9.905395e-001	-7.407690e+000
601000	9.897659e-001	-7.473639e+000
604500	9.886361e-001	-7.595735e+000
608000	9.884558e-001	-7.610165e+000
611500	9.880199e-001	-7.628985e+000
615000	9.874870e-001	-7.694894e+000
618500	9.859708e-001	-7.705094e+000
622000	9.860848e-001	-7.742540e+000
625500	9.852003e-001	-7.730153e+000
629000	9.850222e-001	-7.704272e+000
632500	9.853446e-001	-7.777102e+000
636000	9.847551e-001	-7.788398e+000
639500	9.855499e-001	-7.757597e+000
643000	9.837384e-001	-7.822028e+000
646500	9.854502e-001	-7.809269e+000
650000	9.863974e-001	-7.844292e+000
653500	9.868940e-001	-7.854124e+000
657000	9.850790e-001	-7.943581e+000
660500	9.853012e-001	-7.938470e+000
664000	9.868033e-001	-7.984746e+000
667500	9.870504e-001	-8.124608e+000
671000	9.860620e-001	-8.092756e+000
674500	9.847283e-001	-8.048080e+000
678000	9.851721e-001	-8.073726e+000
681500	9.839076e-001	-8.106514e+000
685000	9.852427e-001	-8.052664e+000
688500	9.852885e-001	-8.127641e+000
692000	9.855279e-001	-8.221613e+000
695500	9.864488e-001	-8.200421e+000
699000	9.862950e-001	-8.292005e+000
702500	9.861721e-001	-8.316554e+000
706000	9.850973e-001	-8.347163e+000
709500	9.854803e-001	-8.369062e+000
713000	9.857439e-001	-8.336697e+000
716500	9.856575e-001	-8.402485e+000
720000	9.865299e-001	-8.421616e+000
723500	9.867403e-001	-8.344997e+000
727000	9.873296e-001	-8.385961e+000
730500	9.875603e-001	-8.435283e+000
734000	9.887238e-001	-8.467380e+000
737500	9.882370e-001	-8.512221e+000
741000	9.891770e-001	-8.529844e+000
744500	9.894889e-001	-8.578228e+000
748000	9.902665e-001	-8.707515e+000
751500	9.911291e-001	-8.706152e+000
755000	9.909382e-001	-8.711814e+000
758500	9.908440e-001	-8.761565e+000
762000	9.915357e-001	-8.885496e+000
765500	9.924361e-001	-8.939565e+000
769000	9.920255e-001	-8.982190e+000
772500	9.918336e-001	-9.090476e+000
776000	9.919217e-001	-9.056357e+000
779500	9.917362e-001	-9.089378e+000
783000	9.928631e-001	-9.136882e+000
786500	9.928374e-001	-9.188845e+000
790000	9.922607e-001	-9.232085e+000
793500	9.933193e-001	-9.230965e+000
797000	9.929555e-001	-9.367386e+000
800500	9.938897e-001	-9.448928e+000
804000	9.947870e-001	-9.493773e+000
807500	9.944518e-001	-9.553250e+000
811000	9.939855e-001	-9.667358e+000
814500	9.945456e-001	-9.626371e+000
818000	9.943425e-001	-9.655213e+000
821500	9.955074e-001	-9.707236e+000
825000	9.945127e-001	-9.788101e+000
828500	9.946126e-001	-9.819007e+000
832000	9.948767e-001	-9.914183e+000
835500	9.947324e-001	-9.900341e+000
839000	9.949151e-001	-9.936360e+000
842500	9.939791e-001	-1.002638e+001
846000	9.952388e-001	-1.010908e+001
849500	9.941170e-001	-1.014408e+001
853000	9.944800e-001	-1.018715e+001
856500	9.954090e-001	-1.018801e+001
860000	9.945760e-001	-1.022153e+001
863500	9.956909e-001	-1.037903e+001
867000	9.936492e-001	-1.036955e+001
870500	9.945175e-001	-1.045235e+001
874000	9.951765e-001	-1.047550e+001
877500	9.954507e-001	-1.059136e+001
881000	9.940290e-001	-1.053134e+001
884500	9.942471e-001	-1.062631e+001
888000	9.954401e-001	-1.069987e+001
891500	9.950341e-001	-1.072485e+001
895000	9.954622e-001	-1.072376e+001
898500	9.951252e-001	-1.080430e+001
902000	9.956322e-001	-1.087509e+001
905500	9.949528e-001	-1.089545e+001
909000	9.957462e-001	-1.092522e+001
912500	9.955241e-001	-1.090250e+001
916000	9.957629e-001	-1.102401e+001
919500	9.964750e-001	-1.113462e+001
923000	9.963471e-001	-1.117476e+001
926500	9.955821e-001	-1.124415e+001
930000	9.944389e-001	-1.123051e+001
933500	9.957980e-001	-1.129101e+001
937000	9.962902e-001	-1.133891e+001
940500	9.967393e-001	-1.141551e+001
944000	9.961468e-001	-1.139670e+001
947500	9.954082e-001	-1.146540e+001
951000	9.970485e-001	-1.151745e+001
954500	9.964303e-001	-1.158133e+001
958000	9.959444e-001	-1.167614e+001
961500	9.971009e-001	-1.170575e+001
965000	9.963461e-001	-1.170799e+001
968500	9.956002e-001	-1.175256e+001
972000	9.970996e-001	-1.186695e+001
975500	9.962397e-001	-1.189796e+001
979000	9.952125e-001	-1.194188e+001
982500	9.959852e-001	-1.197759e+001
986000	9.958066e-001	-1.208504e+001
989500	9.954989e-001	-1.207978e+001
993000	9.973978e-001	-1.216245e+001
996500	9.967618e-001	-1.225261e+001
1000000	9.953795e-001	-1.217414e+001
