!Agilent Technologies,E5071C,MY46100305,A.07.02
!Date: Fri Jan 01 00:32:38 1988
!Data & Calibration Information:
!Freq	S11:SOLT1(ON)
# Hz S MA R 50
300000	9.844473e-001	-4.395789e+000
303500	9.842938e-001	-4.586993e+000
307000	9.845427e-001	-4.712471e+000
310500	9.849571e-001	-4.846443e+000
314000	9.838667e-001	-5.038520e+000
317500	9.843906e-001	-5.191028e+000
321000	9.832611e-001	-5.240413e+000
324500	9.828483e-001	-5.397384e+000
328000	9.820079e-001	-5.518202e+000
331500	9.814965e-001	-5.627074e+000
335000	9.797187e-001	-5.818684e+000
338500	9.821708e-001	-5.994308e+000
342000	9.819133e-001	-6.075016e+000
345500	9.810139e-001	-6.335252e+000
349000	9.809679e-001	-6.428441e+000
352500	9.814566e-001	-6.572802e+000
356000	9.805690e-001	-6.801344e+000
359500	9.798331e-001	-7.055911e+000
363000	9.791228e-001	-7.220720e+000
366500	9.774342e-001	-7.383440e+000
370000	9.758703e-001	-7.609139e+000
373500	9.743605e-001	-7.775210e+000
377000	9.718972e-001	-7.943372e+000
380500	9.704567e-001	-8.108163e+000
384000	9.689466e-001	-8.258173e+000
387500	9.682381e-001	-8.371139e+000
391000	9.657364e-001	-8.464437e+000
394500	9.664283e-001	-8.574056e+000
398000	9.646752e-001	-8.639520e+000
401500	9.634835e-001	-8.770022e+000
405000	9.632583e-001	-8.940740e+000
408500	9.639285e-001	-9.119405e+000
412000	9.641067e-001	-9.225130e+000
415500	9.649800e-001	-9.500472e+000
419000	9.635008e-001	-9.717679e+000
422500	9.636823e-001	-9.948889e+000
426000	9.637538e-001	-1.030993e+001
429500	9.618293e-001	-1.057747e+001
433000	9.602480e-001	-1.086749e+001
436500	9.602137e-001	-1.121702e+001
440000	9.580563e-001	-1.163432e+001
443500	9.542673e-001	-1.195161e+001
447000	9.520105e-001	-1.231731e+001
450500	9.475223e-001	-1.264903e+001
454000	9.438982e-001	-1.290368e+001
457500	9.420537e-001	-1.312928e+001
461000	9.392967e-001	-1.338035e+001
464500	9.367262e-001	-1.367489e+001
468000	9.347117e-001	-1.399461e+001
471500	9.332075e-001	-1.433400e+001
475000	9.313846e-001	-1.466495e+001
478500	9.276435e-001	-1.508273e+001
482000	9.259138e-001	-1.557075e+001
485500	9.222829e-001	-1.608349e+001
489000	9.194531e-001	-1.657184e+001
492500	9.161004e-001	-1.720547e+001
496000	9.105743e-001	-1.775791e+001
499500	9.043909e-001	-1.847854e+001
503000	8.980960e-001	-1.915582e+001
506500	8.897335e-001	-1.991929e+001
510000	8.818206e-001	-2.072818e+001
513500	8.714192e-001	-2.145170e+001
517000	8.595491e-001	-2.225359e+001
520500	8.481595e-001	-2.305740e+001
524000	8.327849e-001	-2.392738e+001
527500	8.181112e-001	-2.469137e+001
531000	8.002710e-001	-2.544571e+001
534500	7.812550e-001	-2.615843e+001
538000	7.626614e-001	-2.676722e+001
541500	7.425462e-001	-2.739199e+001
545000	7.197289e-001	-2.800349e+001
548500	6.973472e-001	-2.844683e+001
552000	6.751375e-001	-2.888892e+001
555500	6.509337e-001	-2.922349e+001
559000	6.247217e-001	-2.950739e+001
562500	5.973905e-001	-2.957862e+001
566000	5.694483e-001	-2.956897e+001
569500	5.392918e-001	-2.944702e+001
573000	5.042316e-001	-2.873370e+001
576500	4.706749e-001	-2.741412e+001
580000	4.372964e-001	-2.532446e+001
583500	4.042773e-001	-2.232176e+001
587000	3.775726e-001	-1.765463e+001
590500	3.605116e-001	-1.200624e+001
594000	3.529167e-001	-6.086958e+000
597500	3.527369e-001	-9.061446e-002
601000	3.641663e-001	5.677307e+000
604500	3.812483e-001	9.823262e+000
608000	3.997668e-001	1.284296e+001
611500	4.192460e-001	1.554739e+001
615000	4.412088e-001	1.698013e+001
618500	4.608745e-001	1.799525e+001
622000	4.765350e-001	1.863874e+001
625500	4.927129e-001	1.951645e+001
629000	5.075998e-001	1.999346e+001
632500	5.179124e-001	2.029184e+001
636000	5.296383e-001	2.114352e+001
639500	5.415669e-001	2.194438e+001
643000	5.531488e-001	2.255096e+001
646500	5.656664e-001	2.339524e+001
650000	5.813483e-001	2.418949e+001
653500	5.980883e-001	2.449512e+001
657000	6.137263e-001	2.485627e+001
660500	6.287678e-001	2.502930e+001
664000	6.441851e-001	2.503311e+001
667500	6.578009e-001	2.487837e+001
671000	6.694047e-001	2.476000e+001
674500	6.814882e-001	2.462634e+001
678000	6.923596e-001	2.461677e+001
681500	7.018436e-001	2.449485e+001
685000	7.118988e-001	2.445834e+001
688500	7.242663e-001	2.444752e+001
692000	7.355686e-001	2.430011e+001
695500	7.474179e-001	2.411646e+001
699000	7.577779e-001	2.385405e+001
702500	7.674828e-001	2.354911e+001
706000	7.746977e-001	2.315140e+001
709500	7.821743e-001	2.281628e+001
713000	7.884569e-001	2.257494e+001
716500	7.948057e-001	2.236281e+001
720000	8.018119e-001	2.219478e+001
723500	8.074750e-001	2.205821e+001
727000	8.143922e-001	2.197081e+001
730500	8.219785e-001	2.191168e+001
734000	8.299508e-001	2.178349e+001
737500	8.379545e-001	2.164377e+001
741000	8.459643e-001	2.147949e+001
744500	8.551426e-001	2.117524e+001
748000	8.634176e-001	2.090047e+001
751500	8.704002e-001	2.063312e+001
755000	8.766660e-001	2.030717e+001
758500	8.825130e-001	1.997298e+001
762000	8.874248e-001	1.955815e+001
765500	8.921196e-001	1.925366e+001
769000	8.967274e-001	1.894178e+001
772500	9.010527e-001	1.865069e+001
776000	9.051120e-001	1.844672e+001
779500	9.088302e-001	1.809393e+001
783000	9.116271e-001	1.787590e+001
786500	9.145495e-001	1.767604e+001
790000	9.185469e-001	1.735338e+001
793500	9.216460e-001	1.715257e+001
797000	9.253342e-001	1.683601e+001
800500	9.284957e-001	1.664191e+001
804000	9.323926e-001	1.635884e+001
807500	9.344848e-001	1.608136e+001
811000	9.367724e-001	1.589530e+001
814500	9.386268e-001	1.560661e+001
818000	9.411156e-001	1.537417e+001
821500	9.419049e-001	1.519574e+001
825000	9.449414e-001	1.495641e+001
828500	9.458742e-001	1.473649e+001
832000	9.482763e-001	1.458100e+001
835500	9.500247e-001	1.435380e+001
839000	9.503063e-001	1.416241e+001
842500	9.509660e-001	1.399171e+001
846000	9.532154e-001	1.382988e+001
849500	9.548011e-001	1.364238e+001
853000	9.553445e-001	1.349131e+001
856500	9.568763e-001	1.329583e+001
860000	9.578329e-001	1.323784e+001
863500	9.579799e-001	1.297276e+001
867000	9.595536e-001	1.282020e+001
870500	9.611491e-001	1.262840e+001
874000	9.617052e-001	1.257070e+001
877500	9.620928e-001	1.241126e+001
881000	9.629601e-001	1.222075e+001
884500	9.648340e-001	1.210223e+001
888000	9.658878e-001	1.197425e+001
891500	9.660123e-001	1.182869e+001
895000	9.664974e-001	1.183362e+001
898500	9.664743e-001	1.163306e+001
902000	9.675824e-001	1.150208e+001
905500	9.689443e-001	1.135834e+001
909000	9.689398e-001	1.126275e+001
912500	9.701180e-001	1.120968e+001
916000	9.706854e-001	1.105977e+001
919500	9.717447e-001	1.095871e+001
923000	9.721991e-001	1.085635e+001
926500	9.732526e-001	1.077895e+001
930000	9.733048e-001	1.064448e+001
933500	9.728518e-001	1.049680e+001
937000	9.742182e-001	1.043590e+001
940500	9.746721e-001	1.026786e+001
944000	9.743503e-001	1.022506e+001
947500	9.753910e-001	1.015160e+001
951000	9.764708e-001	1.005273e+001
954500	9.769701e-001	1.002083e+001
958000	9.768938e-001	9.854666e+000
961500	9.778548e-001	9.786874e+000
965000	9.782871e-001	9.720995e+000
968500	9.788030e-001	9.668292e+000
972000	9.784717e-001	9.563459e+000
975500	9.789652e-001	9.399774e+000
979000	9.779550e-001	9.343684e+000
982500	9.788299e-001	9.294842e+000
986000	9.803754e-001	9.227915e+000
989500	9.802392e-001	9.124697e+000
993000	9.809362e-001	9.071650e+000
996500	9.805457e-001	8.970964e+000
1000000	9.806841e-001	8.976207e+000
