!Agilent Technologies,E5071C,MY46100305,A.07.02
!Date: Fri Jan 01 00:10:18 1988
!Data & Calibration Information:
!Freq	S11:SOLT1(ON)
# Hz S MA R 50
9000	9.094838e-001	-1.635398e+000
13955	1.027274e+000	2.201433e-002
18910	9.999784e-001	-7.555278e-003
23865	1.003284e+000	1.163234e-002
28820	9.981294e-001	-9.659367e-001
33775	1.009297e+000	-1.079963e-001
38730	9.919420e-001	-3.109696e-001
43685	1.004416e+000	-4.039819e-001
48640	9.907447e-001	-1.658523e+000
53595	9.920607e-001	-1.352509e+000
58550	1.006841e+000	-1.786953e+000
63505	9.990553e-001	-1.953152e+000
68460	9.985548e-001	-1.560560e+000
73415	9.974252e-001	-1.766236e+000
78370	9.990100e-001	-2.092419e+000
83325	9.987364e-001	-2.236497e+000
88280	9.976388e-001	-2.391700e+000
93235	9.969895e-001	-2.585948e+000
98190	9.981445e-001	-2.857402e+000
103145	9.958248e-001	-3.044706e+000
108100	9.962554e-001	-3.382254e+000
113055	9.949953e-001	-3.806505e+000
118010	9.935665e-001	-4.225170e+000
122965	9.863773e-001	-4.743017e+000
127920	9.823298e-001	-5.298877e+000
132875	9.696188e-001	-6.311194e+000
137830	9.465488e-001	-7.346083e+000
142785	9.075168e-001	-7.158337e+000
147740	8.874215e-001	-4.973311e+000
152695	8.626255e-001	-3.951682e+000
157650	8.600520e-001	-1.404039e+000
162605	8.939177e-001	4.937622e-001
167560	9.064617e-001	3.675666e-001
172515	9.398825e-001	2.481531e+000
177470	9.502396e-001	1.858759e+000
182425	9.364633e-001	-1.360289e-001
187380	9.728629e-001	4.243548e-001
192335	9.819606e-001	8.190745e-001
197290	9.850310e-001	1.527254e-001
202245	9.934966e-001	-2.501752e-001
207200	9.841111e-001	-8.766372e-002
212155	9.974761e-001	-1.053494e+000
217110	9.914274e-001	-1.038622e+000
222065	9.920869e-001	-1.459081e+000
227020	9.920372e-001	-1.511879e+000
231975	9.920338e-001	-1.926615e+000
236930	9.905503e-001	-2.010189e+000
241885	9.897747e-001	-2.312175e+000
246840	9.868893e-001	-2.437432e+000
251795	9.817988e-001	-2.579669e+000
256750	9.775192e-001	-2.310898e+000
261705	9.785693e-001	-2.015893e+000
266660	9.834555e-001	-1.946638e+000
271615	9.875404e-001	-1.977854e+000
276570	9.871357e-001	-2.068444e+000
281525	9.922199e-001	-2.305455e+000
286480	9.922597e-001	-2.477398e+000
291435	9.928439e-001	-2.561779e+000
296390	9.941776e-001	-2.726052e+000
301345	9.932432e-001	-2.843705e+000
306300	9.951479e-001	-3.028551e+000
311255	9.942312e-001	-3.093901e+000
316210	9.942905e-001	-3.180851e+000
321165	9.945160e-001	-3.309223e+000
326120	9.939913e-001	-3.379031e+000
331075	9.941185e-001	-3.338314e+000
336030	9.928343e-001	-3.532624e+000
340985	9.941888e-001	-3.627992e+000
345940	9.937196e-001	-3.783970e+000
350895	9.948564e-001	-3.809292e+000
355850	9.956114e-001	-3.946252e+000
360805	9.942239e-001	-4.091096e+000
365760	9.939044e-001	-4.202279e+000
370715	9.946467e-001	-4.217229e+000
375670	9.942011e-001	-4.255997e+000
380625	9.930306e-001	-4.431995e+000
385580	9.936759e-001	-4.530657e+000
390535	9.933616e-001	-4.576917e+000
395490	9.934801e-001	-4.629752e+000
400445	9.923100e-001	-4.705090e+000
405400	9.908067e-001	-4.751122e+000
410355	9.902359e-001	-4.823535e+000
415310	9.911145e-001	-4.812189e+000
420265	9.922688e-001	-4.751392e+000
425220	9.932324e-001	-4.950209e+000
430175	9.938496e-001	-4.971646e+000
435130	9.940143e-001	-5.127227e+000
440085	9.954378e-001	-5.201655e+000
445040	9.939067e-001	-5.359229e+000
449995	9.940636e-001	-5.455986e+000
454950	9.920434e-001	-5.504651e+000
459905	9.928852e-001	-5.579160e+000
464860	9.924594e-001	-5.654033e+000
469815	9.923546e-001	-5.725225e+000
474770	9.926733e-001	-5.708658e+000
479725	9.920626e-001	-5.826164e+000
484680	9.929807e-001	-5.926957e+000
489635	9.927850e-001	-5.976750e+000
494590	9.940595e-001	-6.023068e+000
499545	9.933637e-001	-6.205241e+000
504500	9.933292e-001	-6.217719e+000
509455	9.938021e-001	-6.377678e+000
514410	9.913187e-001	-6.413504e+000
519365	9.922818e-001	-6.499710e+000
524320	9.919547e-001	-6.597829e+000
529275	9.930539e-001	-6.638054e+000
534230	9.918132e-001	-6.749361e+000
539185	9.921065e-001	-6.903561e+000
544140	9.910580e-001	-6.930306e+000
549095	9.914300e-001	-7.079380e+000
554050	9.886600e-001	-7.176472e+000
559005	9.881513e-001	-7.205934e+000
563960	9.865834e-001	-7.212274e+000
568915	9.860204e-001	-7.252888e+000
573870	9.868419e-001	-7.232010e+000
578825	9.861534e-001	-7.345128e+000
583780	9.851035e-001	-7.383250e+000
588735	9.883011e-001	-7.392490e+000
593690	9.869246e-001	-7.514139e+000
598645	9.862023e-001	-7.594625e+000
603600	9.855963e-001	-7.691225e+000
608555	9.848274e-001	-7.777806e+000
613510	9.825326e-001	-7.871741e+000
618465	9.805523e-001	-8.060876e+000
623420	9.785133e-001	-8.037318e+000
628375	9.770130e-001	-7.918931e+000
633330	9.758769e-001	-7.944710e+000
638285	9.757575e-001	-7.781705e+000
643240	9.767932e-001	-7.762242e+000
648195	9.796555e-001	-7.745718e+000
653150	9.806684e-001	-7.914674e+000
658105	9.784755e-001	-7.891107e+000
663060	9.779378e-001	-7.962429e+000
668015	9.784060e-001	-7.992368e+000
672970	9.781464e-001	-7.901707e+000
677925	9.779753e-001	-7.897819e+000
682880	9.794504e-001	-7.877633e+000
687835	9.814495e-001	-7.905926e+000
692790	9.813464e-001	-8.052936e+000
697745	9.820868e-001	-8.042929e+000
702700	9.818104e-001	-8.090351e+000
707655	9.808657e-001	-8.049768e+000
712610	9.821420e-001	-8.094520e+000
717565	9.842495e-001	-8.055314e+000
722520	9.861615e-001	-7.969971e+000
727475	9.880502e-001	-8.096423e+000
732430	9.895732e-001	-8.165305e+000
737385	9.895590e-001	-8.315990e+000
742340	9.906049e-001	-8.412330e+000
747295	9.903569e-001	-8.552438e+000
752250	9.916100e-001	-8.656832e+000
757205	9.926587e-001	-8.703376e+000
762160	9.920304e-001	-8.773845e+000
767115	9.930431e-001	-8.852574e+000
772070	9.926523e-001	-8.988003e+000
777025	9.939199e-001	-8.976659e+000
781980	9.940765e-001	-9.078017e+000
786935	9.935566e-001	-9.187184e+000
791890	9.936917e-001	-9.242211e+000
796845	9.937930e-001	-9.285111e+000
801800	9.943682e-001	-9.481880e+000
806755	9.947710e-001	-9.518156e+000
811710	9.941264e-001	-9.686425e+000
816665	9.932380e-001	-9.630820e+000
821620	9.951696e-001	-9.711694e+000
826575	9.951629e-001	-9.864197e+000
831530	9.947684e-001	-9.835342e+000
836485	9.954454e-001	-1.002465e+001
841440	9.945366e-001	-1.007425e+001
846395	9.966948e-001	-1.015522e+001
851350	9.963045e-001	-1.020955e+001
856305	9.960211e-001	-1.029133e+001
861260	9.968143e-001	-1.033629e+001
866215	9.933543e-001	-1.047850e+001
871170	9.944001e-001	-1.052276e+001
876125	9.946044e-001	-1.053370e+001
881080	9.947774e-001	-1.066499e+001
886035	9.951935e-001	-1.068981e+001
890990	9.945766e-001	-1.084182e+001
895945	9.951082e-001	-1.084750e+001
900900	9.952777e-001	-1.091245e+001
905855	9.953858e-001	-1.100874e+001
910810	9.946429e-001	-1.103672e+001
915765	9.961897e-001	-1.106995e+001
920720	9.956463e-001	-1.122615e+001
925675	9.962885e-001	-1.127664e+001
930630	9.949110e-001	-1.130515e+001
935585	9.956137e-001	-1.140370e+001
940540	9.946566e-001	-1.147412e+001
945495	9.955911e-001	-1.149557e+001
950450	9.956394e-001	-1.158236e+001
955405	9.957580e-001	-1.164657e+001
960360	9.972031e-001	-1.173757e+001
965315	9.960115e-001	-1.176294e+001
970270	9.968348e-001	-1.186053e+001
975225	9.959472e-001	-1.200305e+001
980180	9.956556e-001	-1.197898e+001
985135	9.958688e-001	-1.208857e+001
990090	9.968733e-001	-1.222092e+001
995045	9.977909e-001	-1.223145e+001
1000000	9.958522e-001	-1.233219e+001
