!Agilent Technologies,E5071C,MY46100305,A.07.02
!Date: Fri Jan 01 00:34:11 1988
!Data & Calibration Information:
!Freq	S11:SOLT1(ON)
# Hz S MA R 50
300000	9.842757e-001	-4.575553e+000
303500	9.847398e-001	-4.737842e+000
307000	9.857841e-001	-4.857616e+000
310500	9.851714e-001	-4.997605e+000
314000	9.850438e-001	-5.147853e+000
317500	9.849820e-001	-5.334274e+000
321000	9.850601e-001	-5.401035e+000
324500	9.841130e-001	-5.476961e+000
328000	9.836834e-001	-5.675944e+000
331500	9.818808e-001	-5.847997e+000
335000	9.820826e-001	-5.998618e+000
338500	9.844351e-001	-6.106319e+000
342000	9.833901e-001	-6.288720e+000
345500	9.827539e-001	-6.388431e+000
349000	9.825281e-001	-6.545608e+000
352500	9.825112e-001	-6.725136e+000
356000	9.830298e-001	-6.912334e+000
359500	9.820461e-001	-7.165432e+000
363000	9.818765e-001	-7.312069e+000
366500	9.806100e-001	-7.536835e+000
370000	9.785950e-001	-7.757350e+000
373500	9.769206e-001	-7.886514e+000
377000	9.756907e-001	-8.048195e+000
380500	9.745147e-001	-8.258172e+000
384000	9.725117e-001	-8.409116e+000
387500	9.723034e-001	-8.480479e+000
391000	9.698046e-001	-8.592679e+000
394500	9.696557e-001	-8.732689e+000
398000	9.682416e-001	-8.824188e+000
401500	9.683533e-001	-8.890281e+000
405000	9.681479e-001	-9.125515e+000
408500	9.679157e-001	-9.260589e+000
412000	9.689802e-001	-9.395544e+000
415500	9.697858e-001	-9.642234e+000
419000	9.695586e-001	-9.874480e+000
422500	9.700361e-001	-1.012581e+001
426000	9.701372e-001	-1.040004e+001
429500	9.678599e-001	-1.071494e+001
433000	9.682804e-001	-1.100085e+001
436500	9.678605e-001	-1.139332e+001
440000	9.671298e-001	-1.179010e+001
443500	9.634120e-001	-1.209241e+001
447000	9.611702e-001	-1.253654e+001
450500	9.574354e-001	-1.275434e+001
454000	9.537097e-001	-1.303901e+001
457500	9.524957e-001	-1.331669e+001
461000	9.506097e-001	-1.356282e+001
464500	9.487812e-001	-1.385651e+001
468000	9.471616e-001	-1.420818e+001
471500	9.464203e-001	-1.452467e+001
475000	9.447639e-001	-1.491843e+001
478500	9.424966e-001	-1.537921e+001
482000	9.404114e-001	-1.584107e+001
485500	9.385201e-001	-1.641798e+001
489000	9.371320e-001	-1.695899e+001
492500	9.344518e-001	-1.753691e+001
496000	9.305908e-001	-1.813624e+001
499500	9.255566e-001	-1.889788e+001
503000	9.196448e-001	-1.963179e+001
506500	9.134482e-001	-2.044250e+001
510000	9.075250e-001	-2.142732e+001
513500	8.973060e-001	-2.225752e+001
517000	8.866089e-001	-2.326521e+001
520500	8.738510e-001	-2.429582e+001
524000	8.584827e-001	-2.529490e+001
527500	8.428340e-001	-2.635803e+001
531000	8.229582e-001	-2.742392e+001
534500	8.030335e-001	-2.847420e+001
538000	7.790195e-001	-2.947689e+001
541500	7.565221e-001	-3.040894e+001
545000	7.292826e-001	-3.140264e+001
548500	6.985999e-001	-3.215257e+001
552000	6.692336e-001	-3.293645e+001
555500	6.372492e-001	-3.356576e+001
559000	6.018414e-001	-3.397200e+001
562500	5.648335e-001	-3.419837e+001
566000	5.256445e-001	-3.420327e+001
569500	4.836437e-001	-3.359433e+001
573000	4.376277e-001	-3.189080e+001
576500	3.938149e-001	-2.898721e+001
580000	3.561236e-001	-2.455183e+001
583500	3.247544e-001	-1.832604e+001
587000	3.046020e-001	-1.025427e+001
590500	3.017259e-001	-1.633238e+000
594000	3.080218e-001	6.178323e+000
597500	3.236485e-001	1.296804e+001
601000	3.493076e-001	1.786138e+001
604500	3.743288e-001	2.086194e+001
608000	3.990846e-001	2.302312e+001
611500	4.238696e-001	2.452109e+001
615000	4.481493e-001	2.515183e+001
618500	4.667681e-001	2.542529e+001
622000	4.842054e-001	2.559982e+001
625500	5.016191e-001	2.589327e+001
629000	5.154417e-001	2.586484e+001
632500	5.272667e-001	2.619089e+001
636000	5.411827e-001	2.667819e+001
639500	5.558133e-001	2.706274e+001
643000	5.688825e-001	2.750913e+001
646500	5.850162e-001	2.807553e+001
650000	6.040662e-001	2.847448e+001
653500	6.200420e-001	2.853225e+001
657000	6.370978e-001	2.859233e+001
660500	6.532013e-001	2.856174e+001
664000	6.689861e-001	2.834749e+001
667500	6.836210e-001	2.797796e+001
671000	6.938459e-001	2.772864e+001
674500	7.062173e-001	2.744117e+001
678000	7.171816e-001	2.732031e+001
681500	7.256948e-001	2.711061e+001
685000	7.382505e-001	2.698247e+001
688500	7.499448e-001	2.676877e+001
692000	7.625404e-001	2.651621e+001
695500	7.740813e-001	2.620693e+001
699000	7.839958e-001	2.574694e+001
702500	7.928575e-001	2.539601e+001
706000	8.002252e-001	2.501933e+001
709500	8.068945e-001	2.460991e+001
713000	8.132546e-001	2.432751e+001
716500	8.188003e-001	2.397164e+001
720000	8.260333e-001	2.382708e+001
723500	8.320563e-001	2.360306e+001
727000	8.390328e-001	2.343453e+001
730500	8.469611e-001	2.322013e+001
734000	8.555913e-001	2.304883e+001
737500	8.636622e-001	2.289678e+001
741000	8.722964e-001	2.251017e+001
744500	8.798945e-001	2.226694e+001
748000	8.872895e-001	2.181860e+001
751500	8.950455e-001	2.151259e+001
755000	9.021231e-001	2.109493e+001
758500	9.072108e-001	2.072593e+001
762000	9.113206e-001	2.023057e+001
765500	9.155652e-001	1.994326e+001
769000	9.193542e-001	1.964130e+001
772500	9.236148e-001	1.925137e+001
776000	9.269596e-001	1.900435e+001
779500	9.293851e-001	1.867504e+001
783000	9.327352e-001	1.839540e+001
786500	9.363862e-001	1.812694e+001
790000	9.395048e-001	1.781625e+001
793500	9.416397e-001	1.757775e+001
797000	9.449629e-001	1.729793e+001
800500	9.478777e-001	1.697605e+001
804000	9.514800e-001	1.667578e+001
807500	9.523213e-001	1.638024e+001
811000	9.550722e-001	1.615428e+001
814500	9.567764e-001	1.584342e+001
818000	9.577241e-001	1.568862e+001
821500	9.588502e-001	1.548244e+001
825000	9.607119e-001	1.518845e+001
828500	9.618349e-001	1.492063e+001
832000	9.625912e-001	1.478925e+001
835500	9.646810e-001	1.457756e+001
839000	9.659577e-001	1.437405e+001
842500	9.654679e-001	1.414391e+001
846000	9.679585e-001	1.392917e+001
849500	9.689255e-001	1.379660e+001
853000	9.692169e-001	1.362379e+001
856500	9.702012e-001	1.342841e+001
860000	9.714456e-001	1.327822e+001
863500	9.724242e-001	1.309632e+001
867000	9.723754e-001	1.291517e+001
870500	9.739103e-001	1.275047e+001
874000	9.741014e-001	1.258473e+001
877500	9.741808e-001	1.243300e+001
881000	9.752498e-001	1.234688e+001
884500	9.766401e-001	1.216436e+001
888000	9.777816e-001	1.197594e+001
891500	9.774895e-001	1.182169e+001
895000	9.776973e-001	1.173671e+001
898500	9.782740e-001	1.161369e+001
902000	9.783896e-001	1.146995e+001
905500	9.791464e-001	1.132113e+001
909000	9.801357e-001	1.123656e+001
912500	9.801722e-001	1.120329e+001
916000	9.819238e-001	1.105750e+001
919500	9.813261e-001	1.089282e+001
923000	9.817209e-001	1.079919e+001
926500	9.819200e-001	1.071162e+001
930000	9.815848e-001	1.051620e+001
933500	9.827174e-001	1.041860e+001
937000	9.846304e-001	1.033311e+001
940500	9.837065e-001	1.022462e+001
944000	9.833675e-001	1.014728e+001
947500	9.844729e-001	1.001435e+001
951000	9.854822e-001	9.912349e+000
954500	9.846155e-001	9.868066e+000
958000	9.857780e-001	9.751774e+000
961500	9.861735e-001	9.583092e+000
965000	9.855134e-001	9.630341e+000
968500	9.865463e-001	9.540289e+000
972000	9.868351e-001	9.391274e+000
975500	9.873668e-001	9.289300e+000
979000	9.858955e-001	9.268784e+000
982500	9.859894e-001	9.157245e+000
986000	9.872726e-001	9.005041e+000
989500	9.873652e-001	8.895446e+000
993000	9.882390e-001	8.900954e+000
996500	9.889626e-001	8.835618e+000
1000000	9.869301e-001	8.746714e+000
