!Agilent Technologies,E5071C,MY46100305,A.07.02
!Date: Fri Jan 01 00:26:41 1988
!Data & Calibration Information:
!Freq	S11:SOLT1(ON)
# Hz S MA R 50
300000	9.992062e-001	-2.837292e+000
303500	9.989606e-001	-2.918609e+000
307000	1.000393e+000	-2.965412e+000
310500	9.995271e-001	-2.952704e+000
314000	9.994338e-001	-3.007613e+000
317500	1.000494e+000	-3.072921e+000
321000	1.000166e+000	-3.039967e+000
324500	9.991505e-001	-2.994068e+000
328000	9.992250e-001	-3.073487e+000
331500	9.993132e-001	-3.096885e+000
335000	9.974332e-001	-3.252070e+000
338500	9.986442e-001	-3.192123e+000
342000	9.994662e-001	-3.286771e+000
345500	9.993085e-001	-3.305327e+000
349000	9.994939e-001	-3.302932e+000
352500	9.998569e-001	-3.372977e+000
356000	9.996233e-001	-3.410935e+000
359500	9.999458e-001	-3.477916e+000
363000	9.995196e-001	-3.491850e+000
366500	9.994666e-001	-3.501569e+000
370000	1.000157e+000	-3.555226e+000
373500	9.998890e-001	-3.556503e+000
377000	9.999477e-001	-3.617138e+000
380500	9.988291e-001	-3.707957e+000
384000	9.994700e-001	-3.739917e+000
387500	9.998919e-001	-3.761335e+000
391000	1.000599e+000	-3.788290e+000
394500	1.000273e+000	-3.784805e+000
398000	1.000031e+000	-3.808396e+000
401500	9.990304e-001	-3.788860e+000
405000	9.998004e-001	-3.873450e+000
408500	1.000309e+000	-3.945893e+000
412000	9.992866e-001	-3.968335e+000
415500	9.994019e-001	-3.932578e+000
419000	9.995689e-001	-4.001599e+000
422500	9.995518e-001	-4.048382e+000
426000	1.000309e+000	-4.109578e+000
429500	1.000030e+000	-4.078909e+000
433000	9.989731e-001	-4.103787e+000
436500	9.996519e-001	-4.130906e+000
440000	9.998692e-001	-4.201376e+000
443500	9.998585e-001	-4.206879e+000
447000	9.997383e-001	-4.265741e+000
450500	1.000451e+000	-4.344171e+000
454000	9.996256e-001	-4.339863e+000
457500	1.000088e+000	-4.337273e+000
461000	9.993792e-001	-4.413068e+000
464500	1.000268e+000	-4.367201e+000
468000	1.000054e+000	-4.522510e+000
471500	9.998752e-001	-4.475998e+000
475000	9.990238e-001	-4.518369e+000
478500	9.990375e-001	-4.627280e+000
482000	9.986952e-001	-4.606710e+000
485500	9.997617e-001	-4.671465e+000
489000	9.997594e-001	-4.684535e+000
492500	1.000075e+000	-4.660896e+000
496000	9.992753e-001	-4.716251e+000
499500	9.993583e-001	-4.729404e+000
503000	9.995659e-001	-4.839662e+000
506500	1.000190e+000	-4.833482e+000
510000	9.992231e-001	-4.887184e+000
513500	9.985950e-001	-4.894969e+000
517000	9.984218e-001	-4.894810e+000
520500	9.986687e-001	-5.007513e+000
524000	1.000428e+000	-5.019167e+000
527500	1.000150e+000	-5.052421e+000
531000	1.000671e+000	-5.075696e+000
534500	9.990379e-001	-5.188924e+000
538000	9.999405e-001	-5.110990e+000
541500	1.000114e+000	-5.140683e+000
545000	9.996000e-001	-5.239220e+000
548500	1.000620e+000	-5.309975e+000
552000	9.995582e-001	-5.358290e+000
555500	9.990551e-001	-5.380184e+000
559000	9.984970e-001	-5.338625e+000
562500	9.991315e-001	-5.402472e+000
566000	9.986991e-001	-5.432694e+000
569500	9.992190e-001	-5.439030e+000
573000	9.986036e-001	-5.486319e+000
576500	9.991080e-001	-5.496058e+000
580000	9.977456e-001	-5.575363e+000
583500	9.988874e-001	-5.569722e+000
587000	9.997026e-001	-5.579660e+000
590500	9.996148e-001	-5.638413e+000
594000	9.998519e-001	-5.695296e+000
597500	1.000215e+000	-5.711901e+000
601000	9.994984e-001	-5.768046e+000
604500	9.993472e-001	-5.781893e+000
608000	9.980694e-001	-5.808093e+000
611500	9.982409e-001	-5.798545e+000
615000	9.983710e-001	-5.813295e+000
618500	9.989245e-001	-5.921777e+000
622000	9.994671e-001	-5.982362e+000
625500	9.994750e-001	-6.043208e+000
629000	9.983654e-001	-5.981858e+000
632500	9.982337e-001	-6.048624e+000
636000	9.991690e-001	-6.139190e+000
639500	9.997101e-001	-6.161006e+000
643000	9.987974e-001	-6.194551e+000
646500	9.994662e-001	-6.187957e+000
650000	9.988119e-001	-6.215961e+000
653500	1.000636e+000	-6.270533e+000
657000	9.988568e-001	-6.245579e+000
660500	9.992666e-001	-6.309939e+000
664000	9.998268e-001	-6.377140e+000
667500	1.000760e+000	-6.465919e+000
671000	9.994435e-001	-6.460799e+000
674500	9.996526e-001	-6.484875e+000
678000	9.993380e-001	-6.519550e+000
681500	9.997707e-001	-6.473378e+000
685000	9.986194e-001	-6.577897e+000
688500	9.989166e-001	-6.566473e+000
692000	9.986957e-001	-6.639764e+000
695500	9.996020e-001	-6.654622e+000
699000	9.991775e-001	-6.661170e+000
702500	1.000209e+000	-6.694965e+000
706000	9.975074e-001	-6.735629e+000
709500	9.987231e-001	-6.750813e+000
713000	9.987543e-001	-6.778219e+000
716500	9.990947e-001	-6.895348e+000
720000	9.988868e-001	-6.903969e+000
723500	9.995428e-001	-6.847472e+000
727000	9.994250e-001	-6.960440e+000
730500	9.987513e-001	-6.979248e+000
734000	9.985196e-001	-7.003893e+000
737500	9.987081e-001	-7.055640e+000
741000	9.988955e-001	-7.080683e+000
744500	9.991932e-001	-7.156491e+000
748000	9.989426e-001	-7.161384e+000
751500	9.996237e-001	-7.206088e+000
755000	1.000611e+000	-7.152074e+000
758500	1.000009e+000	-7.218589e+000
762000	9.994927e-001	-7.291321e+000
765500	9.996803e-001	-7.285433e+000
769000	9.997740e-001	-7.345313e+000
772500	9.989381e-001	-7.394328e+000
776000	9.998008e-001	-7.341443e+000
779500	9.990972e-001	-7.440087e+000
783000	9.996781e-001	-7.474883e+000
786500	9.994672e-001	-7.506384e+000
790000	9.985113e-001	-7.571566e+000
793500	9.993514e-001	-7.549220e+000
797000	9.991312e-001	-7.594975e+000
800500	9.995586e-001	-7.666332e+000
804000	9.992910e-001	-7.670242e+000
807500	9.997535e-001	-7.749496e+000
811000	9.978887e-001	-7.765260e+000
814500	9.993439e-001	-7.795260e+000
818000	9.991010e-001	-7.760256e+000
821500	9.991078e-001	-7.754567e+000
825000	9.990358e-001	-7.880221e+000
828500	9.994175e-001	-7.962889e+000
832000	9.991826e-001	-7.901745e+000
835500	9.984769e-001	-7.969223e+000
839000	9.993719e-001	-7.951655e+000
842500	9.995568e-001	-8.063874e+000
846000	9.993445e-001	-8.076651e+000
849500	9.999060e-001	-8.067952e+000
853000	9.991592e-001	-8.129894e+000
856500	1.000056e+000	-8.127654e+000
860000	9.977806e-001	-8.163603e+000
863500	9.991678e-001	-8.242826e+000
867000	9.985035e-001	-8.258649e+000
870500	9.983634e-001	-8.340671e+000
874000	9.981881e-001	-8.358485e+000
877500	9.980046e-001	-8.390462e+000
881000	9.972955e-001	-8.393322e+000
884500	9.990260e-001	-8.398305e+000
888000	9.994388e-001	-8.417891e+000
891500	9.998833e-001	-8.542104e+000
895000	9.984153e-001	-8.548823e+000
898500	9.988623e-001	-8.553873e+000
902000	9.987941e-001	-8.616301e+000
905500	9.987568e-001	-8.653847e+000
909000	9.982866e-001	-8.734190e+000
912500	9.991256e-001	-8.690940e+000
916000	9.988293e-001	-8.745477e+000
919500	1.000007e+000	-8.823795e+000
923000	9.998144e-001	-8.873124e+000
926500	9.989182e-001	-8.876098e+000
930000	9.985277e-001	-8.919587e+000
933500	9.987737e-001	-8.878598e+000
937000	9.991767e-001	-8.979929e+000
940500	9.990020e-001	-8.985084e+000
944000	9.988709e-001	-9.034193e+000
947500	9.983893e-001	-9.040153e+000
951000	9.990627e-001	-9.074475e+000
954500	9.990160e-001	-9.064011e+000
958000	9.995480e-001	-9.153476e+000
961500	1.000075e+000	-9.178676e+000
965000	9.990069e-001	-9.219665e+000
968500	9.986728e-001	-9.211429e+000
972000	9.997250e-001	-9.260438e+000
975500	9.999459e-001	-9.317966e+000
979000	9.985797e-001	-9.366847e+000
982500	9.991375e-001	-9.359418e+000
986000	9.991028e-001	-9.416691e+000
989500	9.981957e-001	-9.497534e+000
993000	9.986935e-001	-9.530723e+000
996500	9.991190e-001	-9.493481e+000
1000000	9.982368e-001	-9.519228e+000
