!Agilent Technologies,E5071C,MY46100305,A.07.02
!Date: Fri Jan 01 00:19:23 1988
!Data & Calibration Information:
!Freq	S11:SOLT1(ON)
# Hz S MA R 50
300000	9.978926e-001	-4.496390e+000
303500	9.975015e-001	-4.526750e+000
307000	9.992593e-001	-4.637646e+000
310500	9.994965e-001	-4.664951e+000
314000	9.989717e-001	-4.723598e+000
317500	9.984457e-001	-4.833419e+000
321000	9.989749e-001	-4.893774e+000
324500	9.995341e-001	-5.006145e+000
328000	9.976277e-001	-4.973492e+000
331500	9.974540e-001	-5.129845e+000
335000	9.979581e-001	-5.251525e+000
338500	9.985078e-001	-5.342129e+000
342000	9.986123e-001	-5.424612e+000
345500	9.977318e-001	-5.536054e+000
349000	9.975765e-001	-5.620834e+000
352500	9.987236e-001	-5.623826e+000
356000	9.995340e-001	-5.816764e+000
359500	9.975311e-001	-5.908986e+000
363000	9.992974e-001	-6.012795e+000
366500	9.979538e-001	-6.109407e+000
370000	9.985139e-001	-6.132792e+000
373500	9.974494e-001	-6.294999e+000
377000	9.984230e-001	-6.355213e+000
380500	9.969552e-001	-6.535678e+000
384000	9.987360e-001	-6.680098e+000
387500	9.981330e-001	-6.726009e+000
391000	9.981608e-001	-6.867847e+000
394500	9.979154e-001	-6.932708e+000
398000	9.982192e-001	-7.072092e+000
401500	9.976311e-001	-7.133860e+000
405000	9.976475e-001	-7.348553e+000
408500	9.960536e-001	-7.453143e+000
412000	9.969887e-001	-7.602960e+000
415500	9.974569e-001	-7.715744e+000
419000	9.962710e-001	-7.825317e+000
422500	9.963247e-001	-8.026277e+000
426000	9.971237e-001	-8.155203e+000
429500	9.965567e-001	-8.234555e+000
433000	9.961523e-001	-8.394496e+000
436500	9.957385e-001	-8.565764e+000
440000	9.966910e-001	-8.664673e+000
443500	9.960118e-001	-8.869647e+000
447000	9.962506e-001	-9.105403e+000
450500	9.959006e-001	-9.227409e+000
454000	9.961240e-001	-9.390762e+000
457500	9.954714e-001	-9.566679e+000
461000	9.953651e-001	-9.767227e+000
464500	9.954540e-001	-9.940571e+000
468000	9.949325e-001	-1.010832e+001
471500	9.949195e-001	-1.029411e+001
475000	9.947404e-001	-1.049188e+001
478500	9.938190e-001	-1.077822e+001
482000	9.932116e-001	-1.097857e+001
485500	9.931593e-001	-1.125714e+001
489000	9.939541e-001	-1.144595e+001
492500	9.936098e-001	-1.157372e+001
496000	9.926194e-001	-1.183769e+001
499500	9.915841e-001	-1.212208e+001
503000	9.918392e-001	-1.237682e+001
506500	9.916261e-001	-1.267512e+001
510000	9.919635e-001	-1.295595e+001
513500	9.902933e-001	-1.322646e+001
517000	9.906339e-001	-1.350780e+001
520500	9.902959e-001	-1.391454e+001
524000	9.888302e-001	-1.413897e+001
527500	9.888899e-001	-1.452581e+001
531000	9.892173e-001	-1.490347e+001
534500	9.871641e-001	-1.518243e+001
538000	9.880314e-001	-1.562460e+001
541500	9.870168e-001	-1.601194e+001
545000	9.862654e-001	-1.645743e+001
548500	9.851394e-001	-1.689344e+001
552000	9.830499e-001	-1.730847e+001
555500	9.820062e-001	-1.780300e+001
559000	9.804956e-001	-1.823561e+001
562500	9.799784e-001	-1.874707e+001
566000	9.788693e-001	-1.934440e+001
569500	9.783138e-001	-1.989598e+001
573000	9.771797e-001	-2.045862e+001
576500	9.742061e-001	-2.114086e+001
580000	9.727303e-001	-2.181267e+001
583500	9.714443e-001	-2.249637e+001
587000	9.692526e-001	-2.323445e+001
590500	9.673820e-001	-2.402278e+001
594000	9.650857e-001	-2.478502e+001
597500	9.626293e-001	-2.569480e+001
601000	9.583654e-001	-2.668699e+001
604500	9.551495e-001	-2.775531e+001
608000	9.514227e-001	-2.881217e+001
611500	9.469557e-001	-2.996845e+001
615000	9.431941e-001	-3.120509e+001
618500	9.369330e-001	-3.258249e+001
622000	9.319177e-001	-3.402531e+001
625500	9.243916e-001	-3.563354e+001
629000	9.168712e-001	-3.725097e+001
632500	9.086337e-001	-3.923452e+001
636000	8.995926e-001	-4.119459e+001
639500	8.877184e-001	-4.346581e+001
643000	8.752202e-001	-4.588689e+001
646500	8.603586e-001	-4.849157e+001
650000	8.435449e-001	-5.144690e+001
653500	8.233525e-001	-5.480328e+001
657000	8.027904e-001	-5.844010e+001
660500	7.761362e-001	-6.267948e+001
664000	7.475320e-001	-6.734546e+001
667500	7.128320e-001	-7.267808e+001
671000	6.753051e-001	-7.879189e+001
674500	6.308831e-001	-8.569910e+001
678000	5.833342e-001	-9.377264e+001
681500	5.316452e-001	-1.031866e+002
685000	4.808725e-001	-1.145726e+002
688500	4.313074e-001	-1.281871e+002
692000	3.890310e-001	-1.441436e+002
695500	3.611058e-001	-1.629941e+002
699000	3.528905e-001	1.765760e+002
702500	3.664228e-001	1.568170e+002
706000	3.967564e-001	1.390348e+002
709500	4.390617e-001	1.239845e+002
713000	4.848115e-001	1.115211e+002
716500	5.320149e-001	1.013057e+002
720000	5.789445e-001	9.263380e+001
723500	6.221538e-001	8.524599e+001
727000	6.600336e-001	7.888741e+001
730500	6.953340e-001	7.333507e+001
734000	7.262393e-001	6.850932e+001
737500	7.548416e-001	6.431001e+001
741000	7.786519e-001	6.049601e+001
744500	8.005702e-001	5.700956e+001
748000	8.194200e-001	5.387493e+001
751500	8.363116e-001	5.118211e+001
755000	8.507056e-001	4.858795e+001
758500	8.637707e-001	4.634503e+001
762000	8.744050e-001	4.416380e+001
765500	8.851032e-001	4.226840e+001
769000	8.931022e-001	4.048687e+001
772500	9.027952e-001	3.878525e+001
776000	9.091361e-001	3.736596e+001
779500	9.152552e-001	3.601578e+001
783000	9.203854e-001	3.469650e+001
786500	9.258479e-001	3.353800e+001
790000	9.308188e-001	3.232304e+001
793500	9.339065e-001	3.125220e+001
797000	9.386511e-001	3.027562e+001
800500	9.422919e-001	2.940196e+001
804000	9.454140e-001	2.854107e+001
807500	9.485764e-001	2.766002e+001
811000	9.512777e-001	2.690586e+001
814500	9.535090e-001	2.615066e+001
818000	9.564830e-001	2.555099e+001
821500	9.581535e-001	2.488145e+001
825000	9.604791e-001	2.423786e+001
828500	9.619214e-001	2.356362e+001
832000	9.632412e-001	2.306426e+001
835500	9.657331e-001	2.257966e+001
839000	9.667463e-001	2.208898e+001
842500	9.680006e-001	2.146166e+001
846000	9.699816e-001	2.106679e+001
849500	9.709513e-001	2.062367e+001
853000	9.718607e-001	2.028737e+001
856500	9.729430e-001	1.984529e+001
860000	9.738771e-001	1.945435e+001
863500	9.748388e-001	1.905624e+001
867000	9.753771e-001	1.866295e+001
870500	9.769351e-001	1.833930e+001
874000	9.767869e-001	1.801520e+001
877500	9.777558e-001	1.771760e+001
881000	9.794197e-001	1.738522e+001
884500	9.803905e-001	1.716744e+001
888000	9.808547e-001	1.676726e+001
891500	9.806029e-001	1.649232e+001
895000	9.811681e-001	1.627968e+001
898500	9.818541e-001	1.603165e+001
902000	9.827339e-001	1.573590e+001
905500	9.829985e-001	1.550360e+001
909000	9.838824e-001	1.528360e+001
912500	9.848386e-001	1.514524e+001
916000	9.852320e-001	1.489721e+001
919500	9.854641e-001	1.465008e+001
923000	9.848274e-001	1.446284e+001
926500	9.861214e-001	1.418064e+001
930000	9.853115e-001	1.398144e+001
933500	9.858682e-001	1.382139e+001
937000	9.858094e-001	1.368721e+001
940500	9.867554e-001	1.344084e+001
944000	9.859660e-001	1.328833e+001
947500	9.871606e-001	1.311746e+001
951000	9.887507e-001	1.296625e+001
954500	9.876428e-001	1.289968e+001
958000	9.886753e-001	1.264818e+001
961500	9.889962e-001	1.250283e+001
965000	9.895266e-001	1.235322e+001
968500	9.884958e-001	1.225557e+001
972000	9.897104e-001	1.208914e+001
975500	9.906935e-001	1.187735e+001
979000	9.889659e-001	1.175862e+001
982500	9.899936e-001	1.160434e+001
986000	9.899665e-001	1.148902e+001
989500	9.900824e-001	1.137337e+001
993000	9.903799e-001	1.125559e+001
996500	9.912970e-001	1.118785e+001
1000000	9.901206e-001	1.103482e+001
