!Agilent Technologies,E5071C,MY46100305,A.07.02
!Date: Fri Jan 01 00:18:29 1988
!Data & Calibration Information:
!Freq	S11:SOLT1(ON)
# Hz S MA R 50
300000	9.780072e-001	-5.315722e+000
303500	9.784856e-001	-5.473910e+000
307000	9.798216e-001	-5.658605e+000
310500	9.800284e-001	-5.745263e+000
314000	9.773835e-001	-5.878422e+000
317500	9.787695e-001	-6.020051e+000
321000	9.784213e-001	-6.137080e+000
324500	9.766626e-001	-6.185158e+000
328000	9.759774e-001	-6.320979e+000
331500	9.753085e-001	-6.544028e+000
335000	9.755870e-001	-6.591375e+000
338500	9.737507e-001	-6.793626e+000
342000	9.737241e-001	-6.996343e+000
345500	9.744187e-001	-7.100966e+000
349000	9.724336e-001	-7.271515e+000
352500	9.717384e-001	-7.368658e+000
356000	9.710143e-001	-7.580300e+000
359500	9.678150e-001	-7.721575e+000
363000	9.681759e-001	-7.736188e+000
366500	9.655694e-001	-7.858030e+000
370000	9.657359e-001	-7.876356e+000
373500	9.676486e-001	-8.068953e+000
377000	9.650159e-001	-8.141816e+000
380500	9.650823e-001	-8.384211e+000
384000	9.633631e-001	-8.458410e+000
387500	9.653938e-001	-8.595874e+000
391000	9.670471e-001	-8.836510e+000
394500	9.612143e-001	-8.792983e+000
398000	9.625388e-001	-8.854537e+000
401500	9.643069e-001	-9.021313e+000
405000	9.618141e-001	-9.185140e+000
408500	9.657211e-001	-9.360275e+000
412000	9.634402e-001	-9.634532e+000
415500	9.667665e-001	-9.669685e+000
419000	9.665205e-001	-9.999506e+000
422500	9.652922e-001	-1.024248e+001
426000	9.682781e-001	-1.040037e+001
429500	9.683047e-001	-1.071213e+001
433000	9.690864e-001	-1.101192e+001
436500	9.681189e-001	-1.140979e+001
440000	9.706812e-001	-1.169273e+001
443500	9.683959e-001	-1.205584e+001
447000	9.684353e-001	-1.251125e+001
450500	9.681605e-001	-1.279620e+001
454000	9.657633e-001	-1.321306e+001
457500	9.639215e-001	-1.357589e+001
461000	9.651683e-001	-1.406568e+001
464500	9.630750e-001	-1.443136e+001
468000	9.615150e-001	-1.486339e+001
471500	9.599649e-001	-1.520815e+001
475000	9.591957e-001	-1.563401e+001
478500	9.577962e-001	-1.615097e+001
482000	9.559123e-001	-1.672370e+001
485500	9.556524e-001	-1.731329e+001
489000	9.532397e-001	-1.786426e+001
492500	9.523480e-001	-1.852415e+001
496000	9.494334e-001	-1.914794e+001
499500	9.455207e-001	-1.990181e+001
503000	9.427740e-001	-2.060602e+001
506500	9.403081e-001	-2.140126e+001
510000	9.355997e-001	-2.235615e+001
513500	9.308270e-001	-2.312757e+001
517000	9.270286e-001	-2.402854e+001
520500	9.212361e-001	-2.498545e+001
524000	9.161031e-001	-2.610155e+001
527500	9.115797e-001	-2.735164e+001
531000	9.034630e-001	-2.861731e+001
534500	8.960834e-001	-3.003241e+001
538000	8.848355e-001	-3.164641e+001
541500	8.719827e-001	-3.339164e+001
545000	8.563458e-001	-3.530862e+001
548500	8.394830e-001	-3.726418e+001
552000	8.172077e-001	-3.943183e+001
555500	7.928476e-001	-4.145877e+001
559000	7.654970e-001	-4.397920e+001
562500	7.333248e-001	-4.644368e+001
566000	6.977311e-001	-4.911091e+001
569500	6.566088e-001	-5.232697e+001
573000	6.047016e-001	-5.486092e+001
576500	5.509368e-001	-5.791002e+001
580000	4.895815e-001	-6.061069e+001
583500	4.243961e-001	-6.242936e+001
587000	3.587892e-001	-6.307911e+001
590500	2.974414e-001	-6.256293e+001
594000	2.296772e-001	-5.754038e+001
597500	1.884191e-001	-4.911976e+001
601000	1.473146e-001	-3.436905e+001
604500	1.403124e-001	-1.161870e+001
608000	1.600369e-001	5.566910e+000
611500	1.775637e-001	1.388535e+001
615000	2.101124e-001	2.225771e+001
618500	2.429915e-001	2.720574e+001
622000	2.623967e-001	2.800571e+001
625500	2.876047e-001	2.914025e+001
629000	3.039101e-001	3.120889e+001
632500	3.158522e-001	3.259691e+001
636000	3.283029e-001	3.385079e+001
639500	3.351949e-001	3.759377e+001
643000	3.625659e-001	4.136225e+001
646500	3.797051e-001	4.245775e+001
650000	4.063790e-001	4.569553e+001
653500	4.430552e-001	4.723905e+001
657000	4.732473e-001	4.828212e+001
660500	5.089588e-001	4.847156e+001
664000	5.417445e-001	4.946906e+001
667500	5.886522e-001	4.920628e+001
671000	6.273779e-001	4.837418e+001
674500	6.647021e-001	4.731841e+001
678000	7.020653e-001	4.520331e+001
681500	7.298383e-001	4.355107e+001
685000	7.526714e-001	4.209938e+001
688500	7.737456e-001	4.057648e+001
692000	7.948195e-001	3.918741e+001
695500	8.127471e-001	3.782011e+001
699000	8.272468e-001	3.663681e+001
702500	8.444793e-001	3.556493e+001
706000	8.572855e-001	3.428503e+001
709500	8.699383e-001	3.317487e+001
713000	8.821688e-001	3.204329e+001
716500	8.906505e-001	3.100673e+001
720000	9.017380e-001	3.002970e+001
723500	9.093759e-001	2.907941e+001
727000	9.166441e-001	2.822019e+001
730500	9.220669e-001	2.727888e+001
734000	9.284645e-001	2.644698e+001
737500	9.342342e-001	2.571908e+001
741000	9.387320e-001	2.489114e+001
744500	9.415239e-001	2.423109e+001
748000	9.444994e-001	2.351447e+001
751500	9.468449e-001	2.293694e+001
755000	9.493667e-001	2.236600e+001
758500	9.504328e-001	2.185096e+001
762000	9.523221e-001	2.126633e+001
765500	9.546643e-001	2.086641e+001
769000	9.564041e-001	2.037023e+001
772500	9.576012e-001	1.994009e+001
776000	9.603295e-001	1.959478e+001
779500	9.624116e-001	1.913646e+001
783000	9.627003e-001	1.878638e+001
786500	9.649742e-001	1.836386e+001
790000	9.657907e-001	1.802502e+001
793500	9.665615e-001	1.761545e+001
797000	9.672693e-001	1.728763e+001
800500	9.673000e-001	1.700244e+001
804000	9.684069e-001	1.662055e+001
807500	9.683390e-001	1.634966e+001
811000	9.687053e-001	1.604532e+001
814500	9.677793e-001	1.580564e+001
818000	9.684402e-001	1.559576e+001
821500	9.685717e-001	1.541754e+001
825000	9.682606e-001	1.520768e+001
828500	9.687479e-001	1.493893e+001
832000	9.695073e-001	1.478602e+001
835500	9.700262e-001	1.460797e+001
839000	9.699036e-001	1.443003e+001
842500	9.698589e-001	1.424263e+001
846000	9.715248e-001	1.406180e+001
849500	9.721309e-001	1.398999e+001
853000	9.726787e-001	1.383237e+001
856500	9.718460e-001	1.363421e+001
860000	9.731350e-001	1.352875e+001
863500	9.736194e-001	1.330604e+001
867000	9.728877e-001	1.317171e+001
870500	9.735510e-001	1.307090e+001
874000	9.741311e-001	1.299818e+001
877500	9.751658e-001	1.286918e+001
881000	9.770471e-001	1.282445e+001
884500	9.779762e-001	1.267213e+001
888000	9.795693e-001	1.250001e+001
891500	9.799702e-001	1.235549e+001
895000	9.808722e-001	1.232986e+001
898500	9.813618e-001	1.215436e+001
902000	9.824134e-001	1.200521e+001
905500	9.833108e-001	1.183923e+001
909000	9.844326e-001	1.172222e+001
912500	9.856117e-001	1.159507e+001
916000	9.860519e-001	1.145023e+001
919500	9.862013e-001	1.132900e+001
923000	9.866595e-001	1.122271e+001
926500	9.865055e-001	1.107801e+001
930000	9.860103e-001	1.092987e+001
933500	9.868688e-001	1.085900e+001
937000	9.882582e-001	1.067983e+001
940500	9.884472e-001	1.062480e+001
944000	9.874258e-001	1.050113e+001
947500	9.882535e-001	1.044440e+001
951000	9.888835e-001	1.030964e+001
954500	9.883689e-001	1.026094e+001
958000	9.892418e-001	1.011637e+001
961500	9.891933e-001	1.002002e+001
965000	9.896452e-001	9.928912e+000
968500	9.897852e-001	9.861052e+000
972000	9.902254e-001	9.793414e+000
975500	9.905150e-001	9.671756e+000
979000	9.894952e-001	9.581013e+000
982500	9.902073e-001	9.515249e+000
986000	9.905579e-001	9.411096e+000
989500	9.902941e-001	9.275520e+000
993000	9.921472e-001	9.200829e+000
996500	9.916561e-001	9.200519e+000
1000000	9.905611e-001	9.087827e+000
