!Agilent Technologies,E5071C,MY46100305,A.07.02
!Date: Fri Jan 01 00:27:25 1988
!Data & Calibration Information:
!Freq	S11:SOLT1(ON)
# Hz S MA R 50
300000	9.865214e-001	-3.487827e+000
303500	9.871132e-001	-3.488437e+000
307000	9.882355e-001	-3.702944e+000
310500	9.883794e-001	-3.633804e+000
314000	9.886616e-001	-3.767946e+000
317500	9.882567e-001	-3.820745e+000
321000	9.884378e-001	-3.864514e+000
324500	9.891684e-001	-3.909481e+000
328000	9.873121e-001	-3.939945e+000
331500	9.871398e-001	-3.964623e+000
335000	9.873813e-001	-4.056058e+000
338500	9.869215e-001	-4.122696e+000
342000	9.876669e-001	-4.178126e+000
345500	9.872014e-001	-4.219529e+000
349000	9.869949e-001	-4.245539e+000
352500	9.873986e-001	-4.244569e+000
356000	9.883397e-001	-4.392107e+000
359500	9.868640e-001	-4.414140e+000
363000	9.868428e-001	-4.541660e+000
366500	9.870892e-001	-4.434232e+000
370000	9.864112e-001	-4.518058e+000
373500	9.864964e-001	-4.445204e+000
377000	9.849555e-001	-4.511795e+000
380500	9.857678e-001	-4.565555e+000
384000	9.869033e-001	-4.606534e+000
387500	9.871591e-001	-4.614212e+000
391000	9.869649e-001	-4.711718e+000
394500	9.875645e-001	-4.602932e+000
398000	9.865552e-001	-4.701260e+000
401500	9.876102e-001	-4.689382e+000
405000	9.874289e-001	-4.757531e+000
408500	9.869289e-001	-4.800639e+000
412000	9.884546e-001	-4.800298e+000
415500	9.886064e-001	-4.784619e+000
419000	9.902595e-001	-4.865679e+000
422500	9.895330e-001	-4.943432e+000
426000	9.920665e-001	-4.995524e+000
429500	9.911031e-001	-5.033969e+000
433000	9.909750e-001	-5.097781e+000
436500	9.932661e-001	-5.178520e+000
440000	9.931641e-001	-5.204100e+000
443500	9.924634e-001	-5.277384e+000
447000	9.934003e-001	-5.326099e+000
450500	9.933799e-001	-5.418295e+000
454000	9.923810e-001	-5.485207e+000
457500	9.930260e-001	-5.577027e+000
461000	9.943012e-001	-5.631576e+000
464500	9.930826e-001	-5.667962e+000
468000	9.938510e-001	-5.710510e+000
471500	9.944151e-001	-5.786847e+000
475000	9.933054e-001	-5.799952e+000
478500	9.937824e-001	-5.890147e+000
482000	9.941463e-001	-5.942897e+000
485500	9.939022e-001	-5.999861e+000
489000	9.941761e-001	-6.065522e+000
492500	9.944453e-001	-6.119742e+000
496000	9.949657e-001	-6.146974e+000
499500	9.945163e-001	-6.275657e+000
503000	9.943150e-001	-6.347645e+000
506500	9.951913e-001	-6.406786e+000
510000	9.958841e-001	-6.432388e+000
513500	9.942664e-001	-6.465630e+000
517000	9.945862e-001	-6.521733e+000
520500	9.947153e-001	-6.588335e+000
524000	9.947784e-001	-6.694727e+000
527500	9.956577e-001	-6.753545e+000
531000	9.951290e-001	-6.800606e+000
534500	9.957957e-001	-6.871033e+000
538000	9.948290e-001	-6.917342e+000
541500	9.956803e-001	-6.992601e+000
545000	9.961647e-001	-7.006102e+000
548500	9.940528e-001	-7.238328e+000
552000	9.952311e-001	-7.249424e+000
555500	9.932420e-001	-7.265432e+000
559000	9.926735e-001	-7.350062e+000
562500	9.931706e-001	-7.462211e+000
566000	9.931566e-001	-7.469043e+000
569500	9.935192e-001	-7.521112e+000
573000	9.924487e-001	-7.571610e+000
576500	9.921257e-001	-7.615061e+000
580000	9.898927e-001	-7.748890e+000
583500	9.910309e-001	-7.820371e+000
587000	9.908710e-001	-7.761034e+000
590500	9.900504e-001	-7.835561e+000
594000	9.890260e-001	-7.928487e+000
597500	9.877435e-001	-7.927683e+000
601000	9.878639e-001	-8.016919e+000
604500	9.865243e-001	-8.044995e+000
608000	9.848290e-001	-8.094278e+000
611500	9.841202e-001	-8.018890e+000
615000	9.848934e-001	-8.113092e+000
618500	9.832180e-001	-8.116804e+000
622000	9.835705e-001	-8.070985e+000
625500	9.835240e-001	-8.118555e+000
629000	9.818405e-001	-8.104423e+000
632500	9.826423e-001	-8.079113e+000
636000	9.830113e-001	-8.123670e+000
639500	9.827969e-001	-8.108213e+000
643000	9.836047e-001	-8.109613e+000
646500	9.845708e-001	-8.055527e+000
650000	9.855205e-001	-8.133181e+000
653500	9.862743e-001	-8.095781e+000
657000	9.867753e-001	-8.065201e+000
660500	9.867632e-001	-8.150175e+000
664000	9.877386e-001	-8.161049e+000
667500	9.894798e-001	-8.262027e+000
671000	9.897451e-001	-8.364597e+000
674500	9.890061e-001	-8.366219e+000
678000	9.901789e-001	-8.405134e+000
681500	9.900402e-001	-8.411768e+000
685000	9.910309e-001	-8.543569e+000
688500	9.904245e-001	-8.564223e+000
692000	9.901451e-001	-8.625753e+000
695500	9.913112e-001	-8.722836e+000
699000	9.916253e-001	-8.724142e+000
702500	9.930350e-001	-8.775467e+000
706000	9.918297e-001	-8.829442e+000
709500	9.926084e-001	-8.934923e+000
713000	9.921778e-001	-8.962752e+000
716500	9.934267e-001	-9.039883e+000
720000	9.928730e-001	-9.076905e+000
723500	9.937655e-001	-9.142870e+000
727000	9.939695e-001	-9.204910e+000
730500	9.939216e-001	-9.260232e+000
734000	9.928490e-001	-9.359614e+000
737500	9.943328e-001	-9.345896e+000
741000	9.938639e-001	-9.481232e+000
744500	9.937796e-001	-9.574884e+000
748000	9.931261e-001	-9.662907e+000
751500	9.937524e-001	-9.661113e+000
755000	9.938862e-001	-9.681256e+000
758500	9.935033e-001	-9.803021e+000
762000	9.933273e-001	-9.865047e+000
765500	9.927746e-001	-9.933942e+000
769000	9.933210e-001	-9.962992e+000
772500	9.926196e-001	-1.002967e+001
776000	9.938104e-001	-1.005880e+001
779500	9.929320e-001	-1.005528e+001
783000	9.932711e-001	-1.016599e+001
786500	9.920632e-001	-1.026987e+001
790000	9.914501e-001	-1.032093e+001
793500	9.923972e-001	-1.033544e+001
797000	9.914588e-001	-1.045546e+001
800500	9.908699e-001	-1.051549e+001
804000	9.910434e-001	-1.062282e+001
807500	9.901357e-001	-1.062638e+001
811000	9.899961e-001	-1.075190e+001
814500	9.887743e-001	-1.075781e+001
818000	9.888041e-001	-1.073729e+001
821500	9.881186e-001	-1.075516e+001
825000	9.871313e-001	-1.085541e+001
828500	9.868935e-001	-1.088680e+001
832000	9.866868e-001	-1.083761e+001
835500	9.857770e-001	-1.090613e+001
839000	9.858167e-001	-1.091227e+001
842500	9.850490e-001	-1.096887e+001
846000	9.854908e-001	-1.097140e+001
849500	9.869870e-001	-1.099761e+001
853000	9.850775e-001	-1.099708e+001
856500	9.863734e-001	-1.104700e+001
860000	9.844836e-001	-1.100503e+001
863500	9.841503e-001	-1.104502e+001
867000	9.833167e-001	-1.107915e+001
870500	9.832261e-001	-1.111603e+001
874000	9.832538e-001	-1.112606e+001
877500	9.834324e-001	-1.111770e+001
881000	9.848874e-001	-1.108755e+001
884500	9.856026e-001	-1.110964e+001
888000	9.865700e-001	-1.114961e+001
891500	9.881485e-001	-1.119221e+001
895000	9.891619e-001	-1.123782e+001
898500	9.890233e-001	-1.129453e+001
902000	9.909445e-001	-1.132983e+001
905500	9.895523e-001	-1.145113e+001
909000	9.900094e-001	-1.148409e+001
912500	9.904491e-001	-1.143518e+001
916000	9.907260e-001	-1.152388e+001
919500	9.920175e-001	-1.167118e+001
923000	9.914613e-001	-1.175351e+001
926500	9.912554e-001	-1.182365e+001
930000	9.903444e-001	-1.185614e+001
933500	9.908838e-001	-1.192750e+001
937000	9.905382e-001	-1.196539e+001
940500	9.910384e-001	-1.201919e+001
944000	9.914039e-001	-1.211486e+001
947500	9.904025e-001	-1.208883e+001
951000	9.911204e-001	-1.216833e+001
954500	9.906139e-001	-1.221291e+001
958000	9.905557e-001	-1.227180e+001
961500	9.911735e-001	-1.229491e+001
965000	9.909855e-001	-1.236834e+001
968500	9.907052e-001	-1.240320e+001
972000	9.914344e-001	-1.245676e+001
975500	9.902660e-001	-1.253684e+001
979000	9.897057e-001	-1.260078e+001
982500	9.902914e-001	-1.262639e+001
986000	9.903259e-001	-1.264600e+001
989500	9.899579e-001	-1.275406e+001
993000	9.913742e-001	-1.281241e+001
996500	9.918479e-001	-1.279168e+001
1000000	9.903014e-001	-1.282573e+001
