!Agilent Technologies,E5071C,MY46100305,A.07.02
!Date: Fri Jan 01 00:28:13 1988
!Data & Calibration Information:
!Freq	S11:SOLT1(ON)
# Hz S MA R 50
300000	9.899498e-001	-2.733919e+000
303500	9.905008e-001	-2.742452e+000
307000	9.919135e-001	-2.877296e+000
310500	9.935289e-001	-2.928913e+000
314000	9.918748e-001	-3.020793e+000
317500	9.924725e-001	-3.073837e+000
321000	9.937829e-001	-3.149271e+000
324500	9.937696e-001	-3.244363e+000
328000	9.930463e-001	-3.258205e+000
331500	9.938788e-001	-3.256446e+000
335000	9.938238e-001	-3.406212e+000
338500	9.944382e-001	-3.516471e+000
342000	9.952172e-001	-3.586147e+000
345500	9.943637e-001	-3.702897e+000
349000	9.940917e-001	-3.731289e+000
352500	9.945385e-001	-3.818547e+000
356000	9.954114e-001	-3.835675e+000
359500	9.954924e-001	-3.969214e+000
363000	9.943165e-001	-4.073285e+000
366500	9.944685e-001	-4.106460e+000
370000	9.941411e-001	-4.200572e+000
373500	9.934214e-001	-4.254591e+000
377000	9.931495e-001	-4.257391e+000
380500	9.927614e-001	-4.381363e+000
384000	9.937541e-001	-4.423509e+000
387500	9.925797e-001	-4.428335e+000
391000	9.913261e-001	-4.458892e+000
394500	9.918948e-001	-4.471266e+000
398000	9.927129e-001	-4.488682e+000
401500	9.925285e-001	-4.548828e+000
405000	9.930215e-001	-4.584676e+000
408500	9.917444e-001	-4.586839e+000
412000	9.918693e-001	-4.692166e+000
415500	9.929657e-001	-4.717402e+000
419000	9.932407e-001	-4.763722e+000
422500	9.931595e-001	-4.800459e+000
426000	9.939413e-001	-4.885502e+000
429500	9.932595e-001	-4.929632e+000
433000	9.940174e-001	-4.969081e+000
436500	9.936770e-001	-5.011933e+000
440000	9.946663e-001	-5.081338e+000
443500	9.936732e-001	-5.193403e+000
447000	9.931575e-001	-5.205794e+000
450500	9.929920e-001	-5.305773e+000
454000	9.932877e-001	-5.371674e+000
457500	9.928972e-001	-5.393332e+000
461000	9.928846e-001	-5.474664e+000
464500	9.924302e-001	-5.545302e+000
468000	9.921421e-001	-5.558459e+000
471500	9.921477e-001	-5.598233e+000
475000	9.917885e-001	-5.559212e+000
478500	9.913205e-001	-5.674193e+000
482000	9.915652e-001	-5.678584e+000
485500	9.915996e-001	-5.681073e+000
489000	9.917176e-001	-5.658101e+000
492500	9.935194e-001	-5.696863e+000
496000	9.931840e-001	-5.794255e+000
499500	9.928921e-001	-5.886542e+000
503000	9.943033e-001	-5.894374e+000
506500	9.943181e-001	-5.999311e+000
510000	9.954400e-001	-6.106731e+000
513500	9.950877e-001	-6.104535e+000
517000	9.945852e-001	-6.178562e+000
520500	9.945991e-001	-6.261684e+000
524000	9.949164e-001	-6.323339e+000
527500	9.959149e-001	-6.384734e+000
531000	9.956997e-001	-6.480166e+000
534500	9.948205e-001	-6.591556e+000
538000	9.947759e-001	-6.659662e+000
541500	9.936612e-001	-6.674974e+000
545000	9.929514e-001	-6.792447e+000
548500	9.933055e-001	-6.873481e+000
552000	9.922047e-001	-6.880946e+000
555500	9.915898e-001	-6.881411e+000
559000	9.913853e-001	-6.861498e+000
562500	9.909656e-001	-6.974954e+000
566000	9.921491e-001	-7.010773e+000
569500	9.923643e-001	-7.075720e+000
573000	9.919430e-001	-7.080144e+000
576500	9.912066e-001	-7.217147e+000
580000	9.916785e-001	-7.294917e+000
583500	9.910325e-001	-7.344040e+000
587000	9.910488e-001	-7.426664e+000
590500	9.905336e-001	-7.447936e+000
594000	9.887359e-001	-7.499024e+000
597500	9.869525e-001	-7.543988e+000
601000	9.866083e-001	-7.580406e+000
604500	9.856569e-001	-7.645864e+000
608000	9.846969e-001	-7.659115e+000
611500	9.840084e-001	-7.594280e+000
615000	9.832012e-001	-7.608478e+000
618500	9.831948e-001	-7.623955e+000
622000	9.841899e-001	-7.655189e+000
625500	9.838243e-001	-7.668013e+000
629000	9.830743e-001	-7.622043e+000
632500	9.838034e-001	-7.665053e+000
636000	9.846030e-001	-7.656864e+000
639500	9.849789e-001	-7.738868e+000
643000	9.844315e-001	-7.751350e+000
646500	9.855641e-001	-7.755943e+000
650000	9.852217e-001	-7.822080e+000
653500	9.862420e-001	-7.831111e+000
657000	9.850684e-001	-7.899612e+000
660500	9.850617e-001	-7.896708e+000
664000	9.843082e-001	-7.957192e+000
667500	9.858664e-001	-8.043287e+000
671000	9.845813e-001	-8.019723e+000
674500	9.834964e-001	-8.020145e+000
678000	9.850529e-001	-7.941817e+000
681500	9.844214e-001	-7.949214e+000
685000	9.843613e-001	-7.974655e+000
688500	9.856768e-001	-7.899779e+000
692000	9.854726e-001	-8.000772e+000
695500	9.873199e-001	-7.986672e+000
699000	9.874061e-001	-8.070102e+000
702500	9.898650e-001	-8.070630e+000
706000	9.891837e-001	-8.152947e+000
709500	9.894528e-001	-8.204203e+000
713000	9.901775e-001	-8.275886e+000
716500	9.903240e-001	-8.304769e+000
720000	9.905808e-001	-8.384945e+000
723500	9.910367e-001	-8.417901e+000
727000	9.914076e-001	-8.485726e+000
730500	9.911826e-001	-8.471887e+000
734000	9.904258e-001	-8.565332e+000
737500	9.909631e-001	-8.704473e+000
741000	9.907319e-001	-8.682349e+000
744500	9.902178e-001	-8.694653e+000
748000	9.912587e-001	-8.756526e+000
751500	9.917078e-001	-8.726023e+000
755000	9.934116e-001	-8.814287e+000
758500	9.928210e-001	-8.882696e+000
762000	9.929905e-001	-8.928398e+000
765500	9.934252e-001	-8.945669e+000
769000	9.939508e-001	-9.048448e+000
772500	9.932593e-001	-9.136534e+000
776000	9.939170e-001	-9.138997e+000
779500	9.935214e-001	-9.142010e+000
783000	9.936427e-001	-9.272420e+000
786500	9.939594e-001	-9.272971e+000
790000	9.934981e-001	-9.316989e+000
793500	9.940076e-001	-9.372766e+000
797000	9.952140e-001	-9.391660e+000
800500	9.950326e-001	-9.494859e+000
804000	9.951736e-001	-9.534769e+000
807500	9.947984e-001	-9.597022e+000
811000	9.956616e-001	-9.734022e+000
814500	9.953553e-001	-9.713605e+000
818000	9.953370e-001	-9.799982e+000
821500	9.951776e-001	-9.761220e+000
825000	9.960450e-001	-9.890482e+000
828500	9.952321e-001	-9.912657e+000
832000	9.950626e-001	-9.957865e+000
835500	9.962561e-001	-1.002779e+001
839000	9.954067e-001	-1.005376e+001
842500	9.953744e-001	-1.014363e+001
846000	9.950434e-001	-1.021311e+001
849500	9.953727e-001	-1.021733e+001
853000	9.945965e-001	-1.023733e+001
856500	9.966487e-001	-1.031619e+001
860000	9.945205e-001	-1.030141e+001
863500	9.945793e-001	-1.046277e+001
867000	9.947895e-001	-1.048592e+001
870500	9.946631e-001	-1.055546e+001
874000	9.945446e-001	-1.058460e+001
877500	9.949255e-001	-1.062129e+001
881000	9.946919e-001	-1.067919e+001
884500	9.947977e-001	-1.064422e+001
888000	9.948316e-001	-1.074085e+001
891500	9.950654e-001	-1.080273e+001
895000	9.957246e-001	-1.087025e+001
898500	9.951372e-001	-1.088554e+001
902000	9.957533e-001	-1.101046e+001
905500	9.945821e-001	-1.098152e+001
909000	9.944471e-001	-1.102757e+001
912500	9.952215e-001	-1.106961e+001
916000	9.946826e-001	-1.114691e+001
919500	9.946770e-001	-1.118304e+001
923000	9.964252e-001	-1.124271e+001
926500	9.963786e-001	-1.125689e+001
930000	9.940539e-001	-1.129735e+001
933500	9.950989e-001	-1.134804e+001
937000	9.963868e-001	-1.143326e+001
940500	9.960275e-001	-1.147728e+001
944000	9.958832e-001	-1.149425e+001
947500	9.957246e-001	-1.153110e+001
951000	9.956159e-001	-1.158651e+001
954500	9.963209e-001	-1.163096e+001
958000	9.959982e-001	-1.172713e+001
961500	9.962352e-001	-1.178640e+001
965000	9.957483e-001	-1.175944e+001
968500	9.956741e-001	-1.186443e+001
972000	9.963850e-001	-1.190040e+001
975500	9.963099e-001	-1.196280e+001
979000	9.955315e-001	-1.200343e+001
982500	9.952003e-001	-1.206568e+001
986000	9.966850e-001	-1.209705e+001
989500	9.952883e-001	-1.213849e+001
993000	9.965339e-001	-1.220513e+001
996500	9.970256e-001	-1.228958e+001
1000000	9.956264e-001	-1.229401e+001
