!Agilent Technologies,E5071C,MY46100305,A.07.02
!Date: Fri Jan 01 00:17:33 1988
!Data & Calibration Information:
!Freq	S11:SOLT1(ON)
# Hz S MA R 50
300000	9.855549e-001	-4.154700e+000
303500	9.855166e-001	-4.258930e+000
307000	9.872536e-001	-4.415362e+000
310500	9.878511e-001	-4.528816e+000
314000	9.880574e-001	-4.736977e+000
317500	9.877591e-001	-4.837963e+000
321000	9.887188e-001	-5.049480e+000
324500	9.880946e-001	-5.121004e+000
328000	9.882071e-001	-5.296164e+000
331500	9.878724e-001	-5.457209e+000
335000	9.870524e-001	-5.624644e+000
338500	9.877796e-001	-5.805254e+000
342000	9.883038e-001	-5.946985e+000
345500	9.872219e-001	-6.149870e+000
349000	9.874751e-001	-6.312910e+000
352500	9.879383e-001	-6.477182e+000
356000	9.881968e-001	-6.714216e+000
359500	9.866959e-001	-6.843637e+000
363000	9.864139e-001	-7.059013e+000
366500	9.847229e-001	-7.255493e+000
370000	9.854622e-001	-7.426263e+000
373500	9.834080e-001	-7.658125e+000
377000	9.817989e-001	-7.806379e+000
380500	9.799535e-001	-7.990723e+000
384000	9.781355e-001	-8.119146e+000
387500	9.786051e-001	-8.246232e+000
391000	9.784259e-001	-8.327576e+000
394500	9.768885e-001	-8.391174e+000
398000	9.787133e-001	-8.588201e+000
401500	9.776456e-001	-8.741460e+000
405000	9.768209e-001	-8.903867e+000
408500	9.763186e-001	-9.143277e+000
412000	9.766844e-001	-9.363945e+000
415500	9.762762e-001	-9.569136e+000
419000	9.759388e-001	-9.779432e+000
422500	9.762274e-001	-1.005096e+001
426000	9.760446e-001	-1.033076e+001
429500	9.748562e-001	-1.052549e+001
433000	9.745650e-001	-1.089557e+001
436500	9.739524e-001	-1.116822e+001
440000	9.738850e-001	-1.151333e+001
443500	9.708749e-001	-1.179345e+001
447000	9.695269e-001	-1.219828e+001
450500	9.680068e-001	-1.243949e+001
454000	9.647708e-001	-1.277761e+001
457500	9.635344e-001	-1.310444e+001
461000	9.611608e-001	-1.340900e+001
464500	9.582859e-001	-1.370502e+001
468000	9.550022e-001	-1.406740e+001
471500	9.536131e-001	-1.425614e+001
475000	9.516977e-001	-1.455018e+001
478500	9.483038e-001	-1.481801e+001
482000	9.500643e-001	-1.514448e+001
485500	9.499744e-001	-1.541516e+001
489000	9.491286e-001	-1.582156e+001
492500	9.493397e-001	-1.629182e+001
496000	9.503893e-001	-1.676942e+001
499500	9.488780e-001	-1.737326e+001
503000	9.481153e-001	-1.799851e+001
506500	9.473106e-001	-1.869572e+001
510000	9.450145e-001	-1.953779e+001
513500	9.423653e-001	-2.020600e+001
517000	9.393140e-001	-2.109449e+001
520500	9.353021e-001	-2.196928e+001
524000	9.302208e-001	-2.299891e+001
527500	9.253104e-001	-2.405338e+001
531000	9.176138e-001	-2.527019e+001
534500	9.061630e-001	-2.643108e+001
538000	8.942813e-001	-2.763009e+001
541500	8.793619e-001	-2.889253e+001
545000	8.640226e-001	-2.993597e+001
548500	8.478700e-001	-3.092932e+001
552000	8.320924e-001	-3.175061e+001
555500	8.206679e-001	-3.278876e+001
559000	8.117923e-001	-3.410927e+001
562500	7.986687e-001	-3.581193e+001
566000	7.825657e-001	-3.800522e+001
569500	7.578665e-001	-4.039151e+001
573000	7.262447e-001	-4.296402e+001
576500	6.886751e-001	-4.549077e+001
580000	6.415788e-001	-4.802469e+001
583500	5.908626e-001	-5.016148e+001
587000	5.348487e-001	-5.154662e+001
590500	4.761594e-001	-5.215351e+001
594000	4.193025e-001	-5.093437e+001
597500	3.712548e-001	-4.810742e+001
601000	3.300491e-001	-4.376297e+001
604500	3.031572e-001	-3.763014e+001
608000	2.843592e-001	-3.208091e+001
611500	2.740115e-001	-2.631303e+001
615000	2.647560e-001	-2.110840e+001
618500	2.602462e-001	-1.576017e+001
622000	2.544283e-001	-1.109996e+001
625500	2.522051e-001	-6.493996e+000
629000	2.448384e-001	-1.354969e+000
632500	2.385090e-001	4.528932e+000
636000	2.359187e-001	1.130163e+001
639500	2.373047e-001	2.019454e+001
643000	2.560251e-001	2.876436e+001
646500	2.880476e-001	3.539144e+001
650000	3.242426e-001	3.880612e+001
653500	3.629813e-001	4.057631e+001
657000	4.003333e-001	4.081863e+001
660500	4.301457e-001	4.089128e+001
664000	4.569971e-001	3.982139e+001
667500	4.737590e-001	3.946871e+001
671000	4.958027e-001	3.955619e+001
674500	5.116152e-001	3.961304e+001
678000	5.258868e-001	4.017420e+001
681500	5.460953e-001	4.066775e+001
685000	5.692945e-001	4.133683e+001
688500	5.926423e-001	4.192595e+001
692000	6.196066e-001	4.198997e+001
695500	6.507671e-001	4.199179e+001
699000	6.808658e-001	4.157135e+001
702500	7.099671e-001	4.095650e+001
706000	7.389976e-001	3.994662e+001
709500	7.649590e-001	3.866695e+001
713000	7.879958e-001	3.743710e+001
716500	8.061656e-001	3.619229e+001
720000	8.234779e-001	3.476968e+001
723500	8.373742e-001	3.377540e+001
727000	8.503916e-001	3.262559e+001
730500	8.593546e-001	3.160184e+001
734000	8.685998e-001	3.064159e+001
737500	8.777695e-001	2.984347e+001
741000	8.856573e-001	2.904320e+001
744500	8.918599e-001	2.834307e+001
748000	8.997149e-001	2.757942e+001
751500	9.066755e-001	2.704229e+001
755000	9.150590e-001	2.634717e+001
758500	9.211934e-001	2.573017e+001
762000	9.268682e-001	2.500444e+001
765500	9.328326e-001	2.436451e+001
769000	9.376557e-001	2.374696e+001
772500	9.405459e-001	2.308757e+001
776000	9.444727e-001	2.263976e+001
779500	9.467568e-001	2.210206e+001
783000	9.487403e-001	2.162746e+001
786500	9.534988e-001	2.117048e+001
790000	9.559866e-001	2.070625e+001
793500	9.586900e-001	2.032669e+001
797000	9.609807e-001	1.988539e+001
800500	9.631785e-001	1.945399e+001
804000	9.657674e-001	1.908051e+001
807500	9.678363e-001	1.866737e+001
811000	9.695484e-001	1.830496e+001
814500	9.706826e-001	1.789143e+001
818000	9.705237e-001	1.765084e+001
821500	9.735515e-001	1.734033e+001
825000	9.742584e-001	1.703520e+001
828500	9.750003e-001	1.669398e+001
832000	9.754474e-001	1.638817e+001
835500	9.763615e-001	1.618733e+001
839000	9.770588e-001	1.590284e+001
842500	9.779898e-001	1.566700e+001
846000	9.785311e-001	1.535849e+001
849500	9.794557e-001	1.518466e+001
853000	9.796812e-001	1.496730e+001
856500	9.800162e-001	1.474140e+001
860000	9.804733e-001	1.454028e+001
863500	9.809541e-001	1.425686e+001
867000	9.818109e-001	1.403674e+001
870500	9.829660e-001	1.389330e+001
874000	9.824868e-001	1.370288e+001
877500	9.834695e-001	1.351433e+001
881000	9.840524e-001	1.335667e+001
884500	9.843548e-001	1.316525e+001
888000	9.854455e-001	1.296705e+001
891500	9.858204e-001	1.279806e+001
895000	9.857044e-001	1.268070e+001
898500	9.865150e-001	1.254519e+001
902000	9.860445e-001	1.238432e+001
905500	9.857482e-001	1.218415e+001
909000	9.872144e-001	1.209162e+001
912500	9.872855e-001	1.200078e+001
916000	9.876901e-001	1.184824e+001
919500	9.881541e-001	1.172607e+001
923000	9.891350e-001	1.159240e+001
926500	9.889340e-001	1.145115e+001
930000	9.877757e-001	1.134207e+001
933500	9.887782e-001	1.124250e+001
937000	9.891357e-001	1.107989e+001
940500	9.898094e-001	1.092199e+001
944000	9.894440e-001	1.085430e+001
947500	9.903852e-001	1.072601e+001
951000	9.906886e-001	1.063581e+001
954500	9.905271e-001	1.057614e+001
958000	9.915945e-001	1.042646e+001
961500	9.921770e-001	1.035079e+001
965000	9.914906e-001	1.026441e+001
968500	9.914045e-001	1.019143e+001
972000	9.915660e-001	9.999645e+000
975500	9.925770e-001	9.917489e+000
979000	9.913791e-001	9.830863e+000
982500	9.916198e-001	9.763614e+000
986000	9.919331e-001	9.651848e+000
989500	9.925865e-001	9.542638e+000
993000	9.928181e-001	9.506747e+000
996500	9.933038e-001	9.395592e+000
1000000	9.924764e-001	9.339909e+000
