!Agilent Technologies,E5071C,MY46100305,A.07.02
!Date: Fri Jan 01 00:16:22 1988
!Data & Calibration Information:
!Freq	S11:SOLT1(ON)
# Hz S MA R 50
300000	9.900899e-001	-4.444773e+000
303500	9.899562e-001	-4.642826e+000
307000	9.914823e-001	-4.815637e+000
310500	9.905726e-001	-4.970710e+000
314000	9.906895e-001	-5.148984e+000
317500	9.892576e-001	-5.238350e+000
321000	9.888683e-001	-5.337291e+000
324500	9.895588e-001	-5.439668e+000
328000	9.895452e-001	-5.603311e+000
331500	9.890369e-001	-5.696012e+000
335000	9.879533e-001	-5.871053e+000
338500	9.882429e-001	-6.028450e+000
342000	9.899611e-001	-6.211641e+000
345500	9.895586e-001	-6.404949e+000
349000	9.892601e-001	-6.492768e+000
352500	9.885216e-001	-6.642166e+000
356000	9.906835e-001	-6.800279e+000
359500	9.877452e-001	-7.023454e+000
363000	9.869263e-001	-7.232100e+000
366500	9.870511e-001	-7.316116e+000
370000	9.875195e-001	-7.549789e+000
373500	9.869443e-001	-7.677306e+000
377000	9.862866e-001	-7.856213e+000
380500	9.854853e-001	-8.112894e+000
384000	9.850946e-001	-8.319363e+000
387500	9.853947e-001	-8.438298e+000
391000	9.859914e-001	-8.591552e+000
394500	9.842194e-001	-8.840234e+000
398000	9.847586e-001	-8.955762e+000
401500	9.830563e-001	-9.239148e+000
405000	9.836149e-001	-9.419572e+000
408500	9.826740e-001	-9.643588e+000
412000	9.821359e-001	-9.921959e+000
415500	9.823556e-001	-1.013828e+001
419000	9.812725e-001	-1.043976e+001
422500	9.797603e-001	-1.074110e+001
426000	9.797224e-001	-1.094425e+001
429500	9.774272e-001	-1.123643e+001
433000	9.767937e-001	-1.151300e+001
436500	9.767841e-001	-1.182381e+001
440000	9.763044e-001	-1.213368e+001
443500	9.749567e-001	-1.244812e+001
447000	9.737521e-001	-1.289194e+001
450500	9.724654e-001	-1.320886e+001
454000	9.683645e-001	-1.371197e+001
457500	9.647745e-001	-1.411962e+001
461000	9.615033e-001	-1.442661e+001
464500	9.581863e-001	-1.476081e+001
468000	9.546957e-001	-1.503636e+001
471500	9.536321e-001	-1.536035e+001
475000	9.511385e-001	-1.573540e+001
478500	9.476218e-001	-1.607667e+001
482000	9.470834e-001	-1.652756e+001
485500	9.457363e-001	-1.710888e+001
489000	9.408944e-001	-1.750748e+001
492500	9.370091e-001	-1.804037e+001
496000	9.327602e-001	-1.843205e+001
499500	9.299509e-001	-1.902016e+001
503000	9.242029e-001	-1.967037e+001
506500	9.184047e-001	-2.024093e+001
510000	9.128928e-001	-2.054630e+001
513500	9.093337e-001	-2.104915e+001
517000	9.087358e-001	-2.148184e+001
520500	9.037178e-001	-2.244528e+001
524000	8.994732e-001	-2.308103e+001
527500	8.958029e-001	-2.384495e+001
531000	8.949072e-001	-2.498282e+001
534500	8.875133e-001	-2.607373e+001
538000	8.808959e-001	-2.749794e+001
541500	8.664745e-001	-2.893149e+001
545000	8.535712e-001	-3.024481e+001
548500	8.383976e-001	-3.189713e+001
552000	8.154622e-001	-3.339389e+001
555500	7.912854e-001	-3.486226e+001
559000	7.619016e-001	-3.599200e+001
562500	7.356035e-001	-3.700583e+001
566000	7.080761e-001	-3.786469e+001
569500	6.777996e-001	-3.855536e+001
573000	6.467749e-001	-3.860816e+001
576500	6.360538e-001	-3.790377e+001
580000	6.220369e-001	-3.847982e+001
583500	6.072635e-001	-4.019025e+001
587000	5.839334e-001	-4.181454e+001
590500	5.572268e-001	-4.370088e+001
594000	5.331219e-001	-4.517407e+001
597500	5.004968e-001	-4.846499e+001
601000	4.508985e-001	-5.252070e+001
604500	3.901739e-001	-5.503823e+001
608000	3.320109e-001	-5.613292e+001
611500	2.738167e-001	-5.748389e+001
615000	2.021655e-001	-5.736056e+001
618500	1.267927e-001	-4.383966e+001
622000	9.754720e-002	-1.441427e+001
625500	1.169061e-001	1.766067e+001
629000	1.524915e-001	3.274533e+001
632500	1.916295e-001	4.278284e+001
636000	2.418020e-001	4.812898e+001
639500	2.889378e-001	4.971126e+001
643000	3.327960e-001	5.063470e+001
646500	3.856002e-001	5.107010e+001
650000	4.306564e-001	4.932112e+001
653500	4.759017e-001	4.803832e+001
657000	5.204493e-001	4.642625e+001
660500	5.558711e-001	4.384033e+001
664000	5.849961e-001	4.139125e+001
667500	6.059228e-001	3.894774e+001
671000	6.256599e-001	3.754598e+001
674500	6.426301e-001	3.547659e+001
678000	6.514443e-001	3.333565e+001
681500	6.510127e-001	3.205808e+001
685000	6.506066e-001	3.181925e+001
688500	6.632475e-001	3.079299e+001
692000	6.688669e-001	3.019507e+001
695500	6.606468e-001	2.947988e+001
699000	6.547959e-001	3.035462e+001
702500	6.646744e-001	3.115283e+001
706000	6.675807e-001	3.171613e+001
709500	6.717449e-001	3.239686e+001
713000	6.867293e-001	3.415039e+001
716500	7.157460e-001	3.546797e+001
720000	7.444908e-001	3.492450e+001
723500	7.672789e-001	3.490076e+001
727000	7.909420e-001	3.481960e+001
730500	8.180525e-001	3.400679e+001
734000	8.400654e-001	3.294667e+001
737500	8.592689e-001	3.194959e+001
741000	8.726877e-001	3.107987e+001
744500	8.881139e-001	3.001662e+001
748000	9.010984e-001	2.910246e+001
751500	9.107059e-001	2.811174e+001
755000	9.184751e-001	2.721111e+001
758500	9.257787e-001	2.640117e+001
762000	9.317883e-001	2.564745e+001
765500	9.382611e-001	2.488486e+001
769000	9.428391e-001	2.415160e+001
772500	9.465889e-001	2.343050e+001
776000	9.502492e-001	2.294915e+001
779500	9.551438e-001	2.235272e+001
783000	9.564125e-001	2.175564e+001
786500	9.591670e-001	2.123735e+001
790000	9.605625e-001	2.072905e+001
793500	9.627101e-001	2.024584e+001
797000	9.658545e-001	1.983534e+001
800500	9.681710e-001	1.938042e+001
804000	9.684652e-001	1.904882e+001
807500	9.700149e-001	1.856389e+001
811000	9.713839e-001	1.819342e+001
814500	9.712357e-001	1.782355e+001
818000	9.730571e-001	1.760498e+001
821500	9.736789e-001	1.724559e+001
825000	9.743272e-001	1.699389e+001
828500	9.768000e-001	1.667975e+001
832000	9.764716e-001	1.632968e+001
835500	9.777530e-001	1.617184e+001
839000	9.789631e-001	1.584798e+001
842500	9.784393e-001	1.560907e+001
846000	9.805325e-001	1.529875e+001
849500	9.817015e-001	1.510449e+001
853000	9.817975e-001	1.495337e+001
856500	9.815911e-001	1.470431e+001
860000	9.822046e-001	1.448740e+001
863500	9.830536e-001	1.422779e+001
867000	9.822181e-001	1.396390e+001
870500	9.842102e-001	1.381733e+001
874000	9.846848e-001	1.360948e+001
877500	9.849314e-001	1.350935e+001
881000	9.851818e-001	1.332413e+001
884500	9.849639e-001	1.314145e+001
888000	9.869124e-001	1.289978e+001
891500	9.865385e-001	1.276057e+001
895000	9.874199e-001	1.261201e+001
898500	9.865317e-001	1.251565e+001
902000	9.879218e-001	1.233418e+001
905500	9.871136e-001	1.218231e+001
909000	9.873824e-001	1.201222e+001
912500	9.884713e-001	1.193309e+001
916000	9.889431e-001	1.176422e+001
919500	9.882247e-001	1.163987e+001
923000	9.902240e-001	1.150665e+001
926500	9.893155e-001	1.137513e+001
930000	9.891857e-001	1.123852e+001
933500	9.889678e-001	1.110471e+001
937000	9.901363e-001	1.102976e+001
940500	9.903016e-001	1.090685e+001
944000	9.899515e-001	1.085181e+001
947500	9.892199e-001	1.069596e+001
951000	9.917407e-001	1.057927e+001
954500	9.891778e-001	1.053353e+001
958000	9.917130e-001	1.042631e+001
961500	9.918680e-001	1.030659e+001
965000	9.907615e-001	1.019177e+001
968500	9.919479e-001	1.010302e+001
972000	9.915495e-001	1.000953e+001
975500	9.922211e-001	9.844308e+000
979000	9.910869e-001	9.796663e+000
982500	9.911619e-001	9.781302e+000
986000	9.926648e-001	9.618428e+000
989500	9.921482e-001	9.519955e+000
993000	9.939238e-001	9.462595e+000
996500	9.935240e-001	9.454255e+000
1000000	9.921311e-001	9.287026e+000
