!Agilent Technologies,E5071C,MY46100305,A.07.02
!Date: Fri Jan 01 00:28:57 1988
!Data & Calibration Information:
!Freq	S11:SOLT1(ON)
# Hz S MA R 50
300000	9.946200e-001	-2.957490e+000
303500	9.942516e-001	-3.013129e+000
307000	9.959651e-001	-3.118855e+000
310500	9.949793e-001	-3.150090e+000
314000	9.942392e-001	-3.229749e+000
317500	9.949148e-001	-3.337149e+000
321000	9.951294e-001	-3.373538e+000
324500	9.944548e-001	-3.307122e+000
328000	9.941148e-001	-3.376604e+000
331500	9.946300e-001	-3.428435e+000
335000	9.939875e-001	-3.526511e+000
338500	9.937739e-001	-3.663280e+000
342000	9.958182e-001	-3.691666e+000
345500	9.949554e-001	-3.837205e+000
349000	9.943385e-001	-3.838289e+000
352500	9.949363e-001	-3.924983e+000
356000	9.962618e-001	-3.981409e+000
359500	9.951219e-001	-4.059490e+000
363000	9.952547e-001	-4.135751e+000
366500	9.949822e-001	-4.185910e+000
370000	9.952191e-001	-4.195552e+000
373500	9.957521e-001	-4.232869e+000
377000	9.950708e-001	-4.296137e+000
380500	9.938768e-001	-4.428552e+000
384000	9.948977e-001	-4.427890e+000
387500	9.953112e-001	-4.521511e+000
391000	9.953274e-001	-4.489187e+000
394500	9.952477e-001	-4.604219e+000
398000	9.955346e-001	-4.593056e+000
401500	9.955589e-001	-4.650966e+000
405000	9.958575e-001	-4.711031e+000
408500	9.953774e-001	-4.825810e+000
412000	9.953249e-001	-4.856167e+000
415500	9.954509e-001	-4.909250e+000
419000	9.945742e-001	-4.932994e+000
422500	9.958691e-001	-5.023897e+000
426000	9.946258e-001	-5.115600e+000
429500	9.945424e-001	-5.132807e+000
433000	9.940725e-001	-5.222130e+000
436500	9.944979e-001	-5.233987e+000
440000	9.959723e-001	-5.268242e+000
443500	9.937769e-001	-5.378036e+000
447000	9.946681e-001	-5.461603e+000
450500	9.960109e-001	-5.471089e+000
454000	9.936061e-001	-5.606820e+000
457500	9.930827e-001	-5.666734e+000
461000	9.934396e-001	-5.748016e+000
464500	9.922598e-001	-5.744772e+000
468000	9.934602e-001	-5.791416e+000
471500	9.924519e-001	-5.800060e+000
475000	9.918226e-001	-5.780244e+000
478500	9.918277e-001	-5.929322e+000
482000	9.921278e-001	-5.978301e+000
485500	9.920441e-001	-5.989860e+000
489000	9.927492e-001	-6.064735e+000
492500	9.920824e-001	-6.071685e+000
496000	9.921804e-001	-6.078650e+000
499500	9.899505e-001	-6.171150e+000
503000	9.909746e-001	-6.180410e+000
506500	9.923650e-001	-6.232346e+000
510000	9.911070e-001	-6.348333e+000
513500	9.897674e-001	-6.335940e+000
517000	9.906819e-001	-6.322685e+000
520500	9.916510e-001	-6.333721e+000
524000	9.918208e-001	-6.434068e+000
527500	9.923282e-001	-6.422454e+000
531000	9.923831e-001	-6.512816e+000
534500	9.932123e-001	-6.585976e+000
538000	9.921780e-001	-6.659027e+000
541500	9.926276e-001	-6.669780e+000
545000	9.933013e-001	-6.789447e+000
548500	9.927964e-001	-6.912552e+000
552000	9.922920e-001	-6.931667e+000
555500	9.906089e-001	-7.016145e+000
559000	9.904931e-001	-7.066760e+000
562500	9.896230e-001	-7.102441e+000
566000	9.880746e-001	-7.153062e+000
569500	9.881033e-001	-7.205532e+000
573000	9.883453e-001	-7.160510e+000
576500	9.867228e-001	-7.205533e+000
580000	9.866526e-001	-7.241188e+000
583500	9.863047e-001	-7.186648e+000
587000	9.882497e-001	-7.198215e+000
590500	9.889280e-001	-7.218040e+000
594000	9.891764e-001	-7.246043e+000
597500	9.895123e-001	-7.309519e+000
601000	9.886769e-001	-7.387875e+000
604500	9.892226e-001	-7.386517e+000
608000	9.881759e-001	-7.544889e+000
611500	9.887546e-001	-7.592185e+000
615000	9.888775e-001	-7.587449e+000
618500	9.888003e-001	-7.685534e+000
622000	9.888462e-001	-7.752472e+000
625500	9.890878e-001	-7.909158e+000
629000	9.882243e-001	-7.854359e+000
632500	9.878998e-001	-7.928611e+000
636000	9.873803e-001	-7.947415e+000
639500	9.867813e-001	-7.987406e+000
643000	9.868962e-001	-8.042971e+000
646500	9.855763e-001	-8.085135e+000
650000	9.871741e-001	-8.079085e+000
653500	9.874948e-001	-8.215801e+000
657000	9.865259e-001	-8.230191e+000
660500	9.857829e-001	-8.287270e+000
664000	9.847219e-001	-8.378712e+000
667500	9.843191e-001	-8.454841e+000
671000	9.818542e-001	-8.527513e+000
674500	9.813027e-001	-8.474618e+000
678000	9.793919e-001	-8.406071e+000
681500	9.785428e-001	-8.372123e+000
685000	9.785622e-001	-8.428072e+000
688500	9.772785e-001	-8.341105e+000
692000	9.776721e-001	-8.272599e+000
695500	9.775076e-001	-8.240857e+000
699000	9.763156e-001	-8.095790e+000
702500	9.790925e-001	-8.021199e+000
706000	9.793225e-001	-8.099302e+000
709500	9.793165e-001	-8.011353e+000
713000	9.835621e-001	-7.969364e+000
716500	9.840515e-001	-8.044792e+000
720000	9.856320e-001	-8.000138e+000
723500	9.879652e-001	-8.032973e+000
727000	9.883198e-001	-8.135221e+000
730500	9.892788e-001	-8.173792e+000
734000	9.902467e-001	-8.241866e+000
737500	9.906486e-001	-8.428751e+000
741000	9.914434e-001	-8.398543e+000
744500	9.931007e-001	-8.494528e+000
748000	9.921863e-001	-8.567112e+000
751500	9.942563e-001	-8.622243e+000
755000	9.940333e-001	-8.713000e+000
758500	9.936469e-001	-8.782921e+000
762000	9.942853e-001	-8.837366e+000
765500	9.949418e-001	-8.900779e+000
769000	9.953923e-001	-8.995234e+000
772500	9.942717e-001	-9.092047e+000
776000	9.957683e-001	-9.057737e+000
779500	9.955017e-001	-9.135967e+000
783000	9.951530e-001	-9.185469e+000
786500	9.958020e-001	-9.219914e+000
790000	9.953738e-001	-9.354701e+000
793500	9.957719e-001	-9.404238e+000
797000	9.958899e-001	-9.441381e+000
800500	9.957689e-001	-9.515961e+000
804000	9.961957e-001	-9.563535e+000
807500	9.961647e-001	-9.685561e+000
811000	9.959776e-001	-9.730472e+000
814500	9.955831e-001	-9.790522e+000
818000	9.955090e-001	-9.784856e+000
821500	9.966174e-001	-9.798811e+000
825000	9.952440e-001	-9.888849e+000
828500	9.962052e-001	-9.972195e+000
832000	9.961027e-001	-9.965492e+000
835500	9.966815e-001	-1.005714e+001
839000	9.962118e-001	-1.010595e+001
842500	9.953813e-001	-1.017045e+001
846000	9.968221e-001	-1.021340e+001
849500	9.965500e-001	-1.024760e+001
853000	9.964608e-001	-1.029865e+001
856500	9.980598e-001	-1.036305e+001
860000	9.956511e-001	-1.039167e+001
863500	9.956344e-001	-1.044191e+001
867000	9.953081e-001	-1.051127e+001
870500	9.956190e-001	-1.059345e+001
874000	9.965086e-001	-1.061118e+001
877500	9.959466e-001	-1.065196e+001
881000	9.954410e-001	-1.070818e+001
884500	9.967493e-001	-1.074982e+001
888000	9.955267e-001	-1.079558e+001
891500	9.957057e-001	-1.091099e+001
895000	9.956391e-001	-1.089265e+001
898500	9.957943e-001	-1.099965e+001
902000	9.964142e-001	-1.105226e+001
905500	9.955570e-001	-1.111510e+001
909000	9.959192e-001	-1.111782e+001
912500	9.968123e-001	-1.118703e+001
916000	9.967440e-001	-1.119062e+001
919500	9.961252e-001	-1.127000e+001
923000	9.963877e-001	-1.137588e+001
926500	9.965219e-001	-1.137316e+001
930000	9.943714e-001	-1.141126e+001
933500	9.957203e-001	-1.143314e+001
937000	9.968660e-001	-1.143164e+001
940500	9.961151e-001	-1.154232e+001
944000	9.960065e-001	-1.162083e+001
947500	9.956217e-001	-1.165437e+001
951000	9.961036e-001	-1.164602e+001
954500	9.956849e-001	-1.176151e+001
958000	9.960007e-001	-1.177082e+001
961500	9.954007e-001	-1.179434e+001
965000	9.963478e-001	-1.183579e+001
968500	9.960724e-001	-1.193567e+001
972000	9.963351e-001	-1.194649e+001
975500	9.966355e-001	-1.206239e+001
979000	9.950820e-001	-1.205388e+001
982500	9.963168e-001	-1.215894e+001
986000	9.963747e-001	-1.213809e+001
989500	9.957292e-001	-1.224589e+001
993000	9.969364e-001	-1.227491e+001
996500	9.966033e-001	-1.230286e+001
1000000	9.961937e-001	-1.236834e+001
