!Agilent Technologies,E5071C,MY46100305,A.07.02
!Date: Fri Jan 01 00:14:42 1988
!Data & Calibration Information:
!Freq	S11:SOLT1(ON)
# Hz S MA R 50
300000	9.900899e-001	-4.271986e+000
303500	9.899244e-001	-4.497650e+000
307000	9.924329e-001	-4.638147e+000
310500	9.912153e-001	-4.776429e+000
314000	9.908235e-001	-4.944305e+000
317500	9.902442e-001	-5.076010e+000
321000	9.899594e-001	-5.212435e+000
324500	9.897579e-001	-5.391447e+000
328000	9.893143e-001	-5.457615e+000
331500	9.897692e-001	-5.635232e+000
335000	9.891538e-001	-5.825963e+000
338500	9.893482e-001	-5.967411e+000
342000	9.887493e-001	-6.117881e+000
345500	9.884424e-001	-6.311093e+000
349000	9.883120e-001	-6.457632e+000
352500	9.887733e-001	-6.650172e+000
356000	9.881687e-001	-6.781510e+000
359500	9.874095e-001	-6.975487e+000
363000	9.868585e-001	-7.188701e+000
366500	9.859417e-001	-7.327867e+000
370000	9.857025e-001	-7.521004e+000
373500	9.846638e-001	-7.711503e+000
377000	9.842335e-001	-7.907046e+000
380500	9.831794e-001	-8.058460e+000
384000	9.828559e-001	-8.250968e+000
387500	9.823341e-001	-8.460314e+000
391000	9.812408e-001	-8.672828e+000
394500	9.784743e-001	-8.811000e+000
398000	9.782628e-001	-8.997802e+000
401500	9.756583e-001	-9.201081e+000
405000	9.738042e-001	-9.382749e+000
408500	9.728694e-001	-9.533240e+000
412000	9.710283e-001	-9.598653e+000
415500	9.726548e-001	-9.593610e+000
419000	9.732696e-001	-9.738186e+000
422500	9.760846e-001	-9.949162e+000
426000	9.778275e-001	-1.033096e+001
429500	9.786849e-001	-1.061861e+001
433000	9.787274e-001	-1.099243e+001
436500	9.782849e-001	-1.143939e+001
440000	9.764915e-001	-1.170811e+001
443500	9.739819e-001	-1.214463e+001
447000	9.726610e-001	-1.252947e+001
450500	9.697117e-001	-1.287861e+001
454000	9.649435e-001	-1.320704e+001
457500	9.643264e-001	-1.348561e+001
461000	9.618294e-001	-1.375638e+001
464500	9.592138e-001	-1.406645e+001
468000	9.586429e-001	-1.436933e+001
471500	9.578310e-001	-1.462398e+001
475000	9.588984e-001	-1.500524e+001
478500	9.557211e-001	-1.552541e+001
482000	9.551755e-001	-1.597330e+001
485500	9.545940e-001	-1.646521e+001
489000	9.541960e-001	-1.712996e+001
492500	9.512509e-001	-1.779042e+001
496000	9.482756e-001	-1.847005e+001
499500	9.427016e-001	-1.917649e+001
503000	9.386093e-001	-1.987078e+001
506500	9.332296e-001	-2.056462e+001
510000	9.263068e-001	-2.129807e+001
513500	9.184567e-001	-2.204897e+001
517000	9.110090e-001	-2.273201e+001
520500	9.039929e-001	-2.346471e+001
524000	8.988221e-001	-2.409202e+001
527500	8.935975e-001	-2.511813e+001
531000	8.866688e-001	-2.622302e+001
534500	8.767493e-001	-2.742414e+001
538000	8.650251e-001	-2.871221e+001
541500	8.517708e-001	-3.011340e+001
545000	8.323560e-001	-3.155756e+001
548500	8.125378e-001	-3.314096e+001
552000	7.828221e-001	-3.454974e+001
555500	7.532122e-001	-3.555816e+001
559000	7.212368e-001	-3.614754e+001
562500	6.964988e-001	-3.624846e+001
566000	6.740932e-001	-3.641264e+001
569500	6.570602e-001	-3.665328e+001
573000	6.365867e-001	-3.759695e+001
576500	6.170300e-001	-3.856690e+001
580000	5.941475e-001	-4.010456e+001
583500	5.653660e-001	-4.167346e+001
587000	5.287611e-001	-4.381670e+001
590500	4.788686e-001	-4.515212e+001
594000	4.354873e-001	-4.581271e+001
597500	3.748257e-001	-4.551154e+001
601000	3.290006e-001	-4.229931e+001
604500	2.773500e-001	-3.862380e+001
608000	2.357149e-001	-3.040448e+001
611500	2.099882e-001	-1.383640e+001
615000	2.208853e-001	1.758418e+000
618500	2.650898e-001	1.148568e+001
622000	3.056169e-001	1.395274e+001
625500	3.386215e-001	1.529750e+001
629000	3.600090e-001	1.528002e+001
632500	3.735199e-001	1.462028e+001
636000	3.826065e-001	1.440808e+001
639500	3.724604e-001	1.390968e+001
643000	3.739894e-001	1.674584e+001
646500	3.619594e-001	1.918992e+001
650000	3.741903e-001	2.492019e+001
653500	3.904957e-001	2.905888e+001
657000	4.301807e-001	3.087488e+001
660500	4.535849e-001	3.164707e+001
664000	4.811242e-001	3.077908e+001
667500	4.891396e-001	3.110192e+001
671000	5.071210e-001	3.140202e+001
674500	5.106821e-001	3.166632e+001
678000	5.255071e-001	3.260132e+001
681500	5.389323e-001	3.369695e+001
685000	5.627922e-001	3.486854e+001
688500	5.836761e-001	3.520742e+001
692000	6.068848e-001	3.527041e+001
695500	6.253059e-001	3.504129e+001
699000	6.475232e-001	3.476163e+001
702500	6.600926e-001	3.440153e+001
706000	6.761521e-001	3.384595e+001
709500	6.853542e-001	3.381834e+001
713000	6.945731e-001	3.366582e+001
716500	7.087547e-001	3.448789e+001
720000	7.256201e-001	3.480039e+001
723500	7.546853e-001	3.500935e+001
727000	7.772701e-001	3.469856e+001
730500	8.035029e-001	3.405819e+001
734000	8.244372e-001	3.332571e+001
737500	8.482076e-001	3.249715e+001
741000	8.629192e-001	3.130772e+001
744500	8.786492e-001	3.011245e+001
748000	8.871651e-001	2.904172e+001
751500	8.977550e-001	2.832604e+001
755000	9.062589e-001	2.739680e+001
758500	9.129231e-001	2.657958e+001
762000	9.191056e-001	2.578176e+001
765500	9.249483e-001	2.516553e+001
769000	9.281939e-001	2.455918e+001
772500	9.337754e-001	2.397637e+001
776000	9.392970e-001	2.346348e+001
779500	9.446347e-001	2.291463e+001
783000	9.490406e-001	2.227754e+001
786500	9.523554e-001	2.172790e+001
790000	9.544959e-001	2.113084e+001
793500	9.567258e-001	2.070479e+001
797000	9.604249e-001	2.021344e+001
800500	9.614872e-001	1.985236e+001
804000	9.635858e-001	1.934442e+001
807500	9.657406e-001	1.893834e+001
811000	9.675734e-001	1.860214e+001
814500	9.694575e-001	1.828919e+001
818000	9.714245e-001	1.795003e+001
821500	9.724024e-001	1.763314e+001
825000	9.741998e-001	1.725214e+001
828500	9.748301e-001	1.691032e+001
832000	9.757130e-001	1.661388e+001
835500	9.767818e-001	1.637691e+001
839000	9.773912e-001	1.608370e+001
842500	9.782785e-001	1.575303e+001
846000	9.800951e-001	1.550392e+001
849500	9.809528e-001	1.531293e+001
853000	9.803551e-001	1.507867e+001
856500	9.813907e-001	1.484590e+001
860000	9.810489e-001	1.464332e+001
863500	9.815591e-001	1.439972e+001
867000	9.822683e-001	1.411268e+001
870500	9.832012e-001	1.395878e+001
874000	9.833832e-001	1.374275e+001
877500	9.844140e-001	1.365185e+001
881000	9.843779e-001	1.346973e+001
884500	9.852844e-001	1.326869e+001
888000	9.854551e-001	1.298543e+001
891500	9.863440e-001	1.283451e+001
895000	9.862108e-001	1.276992e+001
898500	9.858459e-001	1.262234e+001
902000	9.864573e-001	1.243846e+001
905500	9.871509e-001	1.222777e+001
909000	9.867527e-001	1.211117e+001
912500	9.876423e-001	1.203931e+001
916000	9.886335e-001	1.188959e+001
919500	9.881470e-001	1.174718e+001
923000	9.895622e-001	1.157645e+001
926500	9.895410e-001	1.150927e+001
930000	9.881999e-001	1.136426e+001
933500	9.892362e-001	1.124459e+001
937000	9.902474e-001	1.113096e+001
940500	9.899182e-001	1.100137e+001
944000	9.886132e-001	1.087096e+001
947500	9.895971e-001	1.076064e+001
951000	9.905533e-001	1.069019e+001
954500	9.904167e-001	1.059316e+001
958000	9.908418e-001	1.042012e+001
961500	9.928333e-001	1.036848e+001
965000	9.911653e-001	1.032480e+001
968500	9.917342e-001	1.021486e+001
972000	9.919935e-001	1.011814e+001
975500	9.924750e-001	9.966633e+000
979000	9.914574e-001	9.813021e+000
982500	9.921077e-001	9.824758e+000
986000	9.929449e-001	9.614986e+000
989500	9.915424e-001	9.580162e+000
993000	9.935142e-001	9.472983e+000
996500	9.935051e-001	9.419038e+000
1000000	9.922197e-001	9.325947e+000
