!Agilent Technologies,E5071C,MY46100305,A.07.02
!Date: Fri Jan 01 00:29:43 1988
!Data & Calibration Information:
!Freq	S11:SOLT1(ON)
# Hz S MA R 50
300000	9.929767e-001	-2.768539e+000
303500	9.950598e-001	-2.889337e+000
307000	9.947419e-001	-2.939668e+000
310500	9.945756e-001	-3.034608e+000
314000	9.950465e-001	-3.134910e+000
317500	9.951537e-001	-3.202403e+000
321000	9.942636e-001	-3.279798e+000
324500	9.940151e-001	-3.269855e+000
328000	9.945278e-001	-3.411694e+000
331500	9.940367e-001	-3.448545e+000
335000	9.944026e-001	-3.514517e+000
338500	9.947392e-001	-3.629209e+000
342000	9.946545e-001	-3.611287e+000
345500	9.952444e-001	-3.799309e+000
349000	9.943861e-001	-3.808050e+000
352500	9.950183e-001	-3.778084e+000
356000	9.954871e-001	-3.924088e+000
359500	9.944826e-001	-4.035594e+000
363000	9.957920e-001	-4.112437e+000
366500	9.949133e-001	-4.093753e+000
370000	9.946247e-001	-4.253826e+000
373500	9.940961e-001	-4.232895e+000
377000	9.937213e-001	-4.303750e+000
380500	9.941331e-001	-4.422484e+000
384000	9.945251e-001	-4.463950e+000
387500	9.946737e-001	-4.497967e+000
391000	9.949303e-001	-4.540045e+000
394500	9.936929e-001	-4.592610e+000
398000	9.927468e-001	-4.655624e+000
401500	9.927378e-001	-4.698602e+000
405000	9.923834e-001	-4.779126e+000
408500	9.918438e-001	-4.845725e+000
412000	9.916710e-001	-4.835490e+000
415500	9.910261e-001	-4.788980e+000
419000	9.912842e-001	-4.766824e+000
422500	9.937779e-001	-4.816235e+000
426000	9.928914e-001	-4.939270e+000
429500	9.949527e-001	-4.934841e+000
433000	9.954061e-001	-5.037795e+000
436500	9.949750e-001	-5.109882e+000
440000	9.954038e-001	-5.162238e+000
443500	9.949467e-001	-5.299245e+000
447000	9.943750e-001	-5.344026e+000
450500	9.945501e-001	-5.407849e+000
454000	9.920541e-001	-5.529766e+000
457500	9.933126e-001	-5.507353e+000
461000	9.935998e-001	-5.599737e+000
464500	9.923075e-001	-5.548903e+000
468000	9.931777e-001	-5.647967e+000
471500	9.930703e-001	-5.673217e+000
475000	9.934227e-001	-5.656504e+000
478500	9.933687e-001	-5.742040e+000
482000	9.929930e-001	-5.873310e+000
485500	9.931561e-001	-5.963302e+000
489000	9.941236e-001	-5.939129e+000
492500	9.951206e-001	-5.969607e+000
496000	9.939920e-001	-6.047255e+000
499500	9.932471e-001	-6.130883e+000
503000	9.933089e-001	-6.227351e+000
506500	9.937794e-001	-6.263667e+000
510000	9.935762e-001	-6.319825e+000
513500	9.924315e-001	-6.390229e+000
517000	9.911459e-001	-6.443903e+000
520500	9.924080e-001	-6.470614e+000
524000	9.926752e-001	-6.545972e+000
527500	9.932296e-001	-6.583208e+000
531000	9.937551e-001	-6.651865e+000
534500	9.921057e-001	-6.741198e+000
538000	9.932195e-001	-6.771367e+000
541500	9.931278e-001	-6.873613e+000
545000	9.926202e-001	-6.943178e+000
548500	9.926501e-001	-7.020790e+000
552000	9.898930e-001	-7.123894e+000
555500	9.897110e-001	-7.137979e+000
559000	9.885238e-001	-7.181642e+000
562500	9.876884e-001	-7.210956e+000
566000	9.863774e-001	-7.212465e+000
569500	9.865451e-001	-7.276278e+000
573000	9.867212e-001	-7.224784e+000
576500	9.860165e-001	-7.244373e+000
580000	9.866337e-001	-7.284862e+000
583500	9.867129e-001	-7.333001e+000
587000	9.876950e-001	-7.359095e+000
590500	9.883546e-001	-7.415851e+000
594000	9.880648e-001	-7.461072e+000
597500	9.874749e-001	-7.510570e+000
601000	9.869152e-001	-7.622332e+000
604500	9.853831e-001	-7.717102e+000
608000	9.851183e-001	-7.735430e+000
611500	9.846264e-001	-7.799611e+000
615000	9.831235e-001	-7.853532e+000
618500	9.813161e-001	-7.912258e+000
622000	9.810216e-001	-8.040716e+000
625500	9.793656e-001	-7.996437e+000
629000	9.777113e-001	-7.913682e+000
632500	9.769449e-001	-7.912652e+000
636000	9.768633e-001	-7.829044e+000
639500	9.766292e-001	-7.812836e+000
643000	9.785157e-001	-7.791808e+000
646500	9.790859e-001	-7.750953e+000
650000	9.804545e-001	-7.735884e+000
653500	9.807914e-001	-7.822208e+000
657000	9.800297e-001	-7.855224e+000
660500	9.797357e-001	-7.928948e+000
664000	9.799826e-001	-7.963215e+000
667500	9.810129e-001	-7.966919e+000
671000	9.792083e-001	-7.937007e+000
674500	9.793636e-001	-7.876721e+000
678000	9.805582e-001	-7.863550e+000
681500	9.795945e-001	-7.937894e+000
685000	9.805286e-001	-7.962689e+000
688500	9.802038e-001	-7.983877e+000
692000	9.809486e-001	-7.992671e+000
695500	9.818681e-001	-8.030167e+000
699000	9.809660e-001	-7.998638e+000
702500	9.827063e-001	-8.092178e+000
706000	9.818582e-001	-8.007426e+000
709500	9.824538e-001	-8.043396e+000
713000	9.825589e-001	-8.031169e+000
716500	9.838854e-001	-8.055696e+000
720000	9.851629e-001	-8.008060e+000
723500	9.865435e-001	-8.008230e+000
727000	9.883787e-001	-8.095394e+000
730500	9.889176e-001	-8.194812e+000
734000	9.902925e-001	-8.227775e+000
737500	9.911461e-001	-8.324488e+000
741000	9.910627e-001	-8.385728e+000
744500	9.908260e-001	-8.462065e+000
748000	9.917887e-001	-8.539731e+000
751500	9.919172e-001	-8.568042e+000
755000	9.935469e-001	-8.647544e+000
758500	9.934101e-001	-8.694841e+000
762000	9.926759e-001	-8.770996e+000
765500	9.938792e-001	-8.825188e+000
769000	9.932307e-001	-8.854510e+000
772500	9.933385e-001	-8.937658e+000
776000	9.938448e-001	-8.921327e+000
779500	9.940110e-001	-8.985987e+000
783000	9.954008e-001	-9.089627e+000
786500	9.951583e-001	-9.084397e+000
790000	9.940531e-001	-9.160758e+000
793500	9.941306e-001	-9.216521e+000
797000	9.945088e-001	-9.268868e+000
800500	9.944256e-001	-9.403387e+000
804000	9.956312e-001	-9.408779e+000
807500	9.952024e-001	-9.475598e+000
811000	9.944538e-001	-9.620350e+000
814500	9.946330e-001	-9.661509e+000
818000	9.947007e-001	-9.610288e+000
821500	9.958782e-001	-9.674912e+000
825000	9.967604e-001	-9.763592e+000
828500	9.957353e-001	-9.855529e+000
832000	9.957329e-001	-9.851576e+000
835500	9.958880e-001	-9.937083e+000
839000	9.961489e-001	-9.985845e+000
842500	9.952217e-001	-1.000465e+001
846000	9.964279e-001	-1.012462e+001
849500	9.963947e-001	-1.017096e+001
853000	9.961291e-001	-1.017730e+001
856500	9.966518e-001	-1.025384e+001
860000	9.947705e-001	-1.024123e+001
863500	9.949564e-001	-1.040449e+001
867000	9.952153e-001	-1.037146e+001
870500	9.955214e-001	-1.046765e+001
874000	9.952415e-001	-1.052234e+001
877500	9.946635e-001	-1.051228e+001
881000	9.948429e-001	-1.050003e+001
884500	9.950036e-001	-1.069771e+001
888000	9.958731e-001	-1.074717e+001
891500	9.960604e-001	-1.078459e+001
895000	9.963492e-001	-1.078272e+001
898500	9.956777e-001	-1.084582e+001
902000	9.968598e-001	-1.088450e+001
905500	9.953942e-001	-1.099856e+001
909000	9.957650e-001	-1.099036e+001
912500	9.951289e-001	-1.104074e+001
916000	9.963772e-001	-1.106053e+001
919500	9.965712e-001	-1.112736e+001
923000	9.960801e-001	-1.123634e+001
926500	9.966103e-001	-1.120565e+001
930000	9.953113e-001	-1.128078e+001
933500	9.955982e-001	-1.132432e+001
937000	9.966199e-001	-1.137073e+001
940500	9.971404e-001	-1.145161e+001
944000	9.966665e-001	-1.145231e+001
947500	9.965966e-001	-1.146750e+001
951000	9.974696e-001	-1.153800e+001
954500	9.967767e-001	-1.163362e+001
958000	9.969865e-001	-1.166539e+001
961500	9.969839e-001	-1.176571e+001
965000	9.962630e-001	-1.176589e+001
968500	9.973802e-001	-1.182799e+001
972000	9.975318e-001	-1.186106e+001
975500	9.967855e-001	-1.195256e+001
979000	9.955305e-001	-1.199116e+001
982500	9.970345e-001	-1.208709e+001
986000	9.969172e-001	-1.203661e+001
989500	9.956676e-001	-1.208601e+001
993000	9.978231e-001	-1.221636e+001
996500	9.972415e-001	-1.223038e+001
1000000	9.958533e-001	-1.221806e+001
