!Agilent Technologies,E5071C,MY46100305,A.07.02
!Date: Fri Jan 01 00:50:11 1988
!Data & Calibration Information:
!Freq	S11:SOLT1(ON)
# Hz S MA R 50
9000	9.571517e-001	-1.371782e+000
13955	1.051119e+000	9.815896e-001
18910	1.005376e+000	-4.253110e-001
23865	9.997620e-001	-5.989555e-002
28820	1.006512e+000	-1.194085e+000
33775	1.017557e+000	5.682734e-001
38730	9.850242e-001	4.744888e-001
43685	1.008361e+000	3.752342e-001
48640	9.897280e-001	-1.824392e+000
53595	9.967101e-001	-1.150889e+000
58550	1.005670e+000	-1.923619e+000
63505	9.952016e-001	-2.166062e+000
68460	1.007340e+000	-1.365566e+000
73415	1.000974e+000	-1.983503e+000
78370	1.000084e+000	-1.766818e+000
83325	1.000201e+000	-1.866628e+000
88280	9.996717e-001	-2.043032e+000
93235	9.988995e-001	-2.125614e+000
98190	9.999975e-001	-2.219176e+000
103145	9.994419e-001	-2.355122e+000
108100	1.000099e+000	-2.481577e+000
113055	9.995390e-001	-2.614771e+000
118010	1.000088e+000	-2.782003e+000
122965	9.997880e-001	-2.861960e+000
127920	1.000922e+000	-2.922431e+000
132875	1.000435e+000	-3.094368e+000
137830	9.992935e-001	-3.251883e+000
142785	9.996388e-001	-3.344346e+000
147740	9.995380e-001	-3.495309e+000
152695	1.000069e+000	-3.558968e+000
157650	1.000013e+000	-3.750154e+000
162605	9.993001e-001	-3.780271e+000
167560	9.994343e-001	-3.948262e+000
172515	9.992683e-001	-4.091951e+000
177470	1.000706e+000	-4.173432e+000
182425	9.992575e-001	-4.376183e+000
187380	9.996292e-001	-4.462516e+000
192335	9.994052e-001	-4.521101e+000
197290	9.987088e-001	-4.757685e+000
202245	9.996181e-001	-4.943423e+000
207200	9.996886e-001	-5.026981e+000
212155	9.996355e-001	-5.136794e+000
217110	1.000238e+000	-5.230578e+000
222065	9.994998e-001	-5.295319e+000
227020	9.990795e-001	-5.495843e+000
231975	1.000095e+000	-5.627571e+000
236930	1.001029e+000	-5.778063e+000
241885	1.000339e+000	-5.956544e+000
246840	1.000616e+000	-6.092187e+000
251795	9.991746e-001	-6.237350e+000
256750	9.982598e-001	-6.345581e+000
261705	9.992658e-001	-6.546960e+000
266660	1.000177e+000	-6.652847e+000
271615	9.986937e-001	-6.734061e+000
276570	9.992383e-001	-6.931269e+000
281525	9.997692e-001	-7.093923e+000
286480	9.981871e-001	-7.261371e+000
291435	9.990036e-001	-7.396929e+000
296390	1.000669e+000	-7.560780e+000
301345	9.996418e-001	-7.717535e+000
306300	9.992480e-001	-7.913295e+000
311255	9.989732e-001	-8.070102e+000
316210	9.987757e-001	-8.242589e+000
321165	9.994106e-001	-8.374576e+000
326120	9.987141e-001	-8.600765e+000
331075	9.994916e-001	-8.640300e+000
336030	9.995682e-001	-8.931798e+000
340985	9.983612e-001	-9.162888e+000
345940	9.987383e-001	-9.289775e+000
350895	9.980732e-001	-9.471356e+000
355850	9.984351e-001	-9.682227e+000
360805	9.977108e-001	-9.881911e+000
365760	9.984612e-001	-1.010898e+001
370715	9.986897e-001	-1.023729e+001
375670	9.976245e-001	-1.050149e+001
380625	9.980689e-001	-1.076650e+001
385580	9.975544e-001	-1.088570e+001
390535	9.968731e-001	-1.115177e+001
395490	9.964050e-001	-1.139514e+001
400445	9.977110e-001	-1.160138e+001
405400	9.972556e-001	-1.184168e+001
410355	9.957667e-001	-1.205855e+001
415310	9.963830e-001	-1.233058e+001
420265	9.958728e-001	-1.261193e+001
425220	9.951929e-001	-1.287283e+001
430175	9.970850e-001	-1.321689e+001
435130	9.957131e-001	-1.340246e+001
440085	9.944751e-001	-1.373131e+001
445040	9.950200e-001	-1.407121e+001
449995	9.942810e-001	-1.434146e+001
454950	9.924650e-001	-1.463094e+001
459905	9.928452e-001	-1.494061e+001
464860	9.922570e-001	-1.534267e+001
469815	9.915662e-001	-1.570550e+001
474770	9.907454e-001	-1.610430e+001
479725	9.910187e-001	-1.650122e+001
484680	9.898926e-001	-1.691243e+001
489635	9.893009e-001	-1.730373e+001
494590	9.880843e-001	-1.778850e+001
499545	9.868761e-001	-1.832026e+001
504500	9.850176e-001	-1.875150e+001
509455	9.840190e-001	-1.937363e+001
514410	9.831210e-001	-1.994749e+001
519365	9.803829e-001	-2.059648e+001
524320	9.781043e-001	-2.112898e+001
529275	9.746707e-001	-2.188587e+001
534230	9.711927e-001	-2.260451e+001
539185	9.677125e-001	-2.338335e+001
544140	9.634941e-001	-2.423093e+001
549095	9.579169e-001	-2.512722e+001
554050	9.509375e-001	-2.617374e+001
559005	9.430030e-001	-2.710228e+001
563960	9.348876e-001	-2.827526e+001
568915	9.265359e-001	-2.953459e+001
573870	9.116582e-001	-3.101107e+001
578825	8.956683e-001	-3.260703e+001
583780	8.757342e-001	-3.434006e+001
588735	8.483648e-001	-3.618547e+001
593690	8.165377e-001	-3.811560e+001
598645	7.777559e-001	-3.993576e+001
603600	7.330980e-001	-4.168546e+001
608555	6.870060e-001	-4.288837e+001
613510	6.392325e-001	-4.368146e+001
618465	5.930035e-001	-4.417694e+001
623420	5.518511e-001	-4.396522e+001
628375	5.098069e-001	-4.342908e+001
633330	4.675399e-001	-4.311840e+001
638285	4.190011e-001	-4.199405e+001
643240	3.647969e-001	-3.940620e+001
648195	3.140472e-001	-3.358257e+001
653150	2.754861e-001	-2.428299e+001
658105	2.557969e-001	-1.271609e+001
663060	2.546247e-001	-3.827346e-001
668015	2.728620e-001	1.104934e+001
672970	3.044754e-001	1.948420e+001
677925	3.452835e-001	2.497366e+001
682880	3.889205e-001	2.823954e+001
687835	4.339932e-001	2.981896e+001
692790	4.757126e-001	3.021254e+001
697745	5.108538e-001	2.990855e+001
702700	5.416510e-001	2.930864e+001
707655	5.682586e-001	2.861881e+001
712610	5.915367e-001	2.796159e+001
717565	6.108019e-001	2.731110e+001
722520	6.312253e-001	2.694482e+001
727475	6.518663e-001	2.672721e+001
732430	6.746665e-001	2.656970e+001
737385	7.000415e-001	2.628933e+001
742340	7.262579e-001	2.564358e+001
747295	7.493978e-001	2.484962e+001
752250	7.706855e-001	2.403323e+001
757205	7.890251e-001	2.309504e+001
762160	8.037229e-001	2.218387e+001
767115	8.170393e-001	2.141077e+001
772070	8.301405e-001	2.058448e+001
777025	8.425814e-001	1.989543e+001
781980	8.543484e-001	1.908258e+001
786935	8.658291e-001	1.831998e+001
791890	8.751885e-001	1.750386e+001
796845	8.851090e-001	1.681674e+001
801800	8.926616e-001	1.607139e+001
806755	9.000252e-001	1.530825e+001
811710	9.057713e-001	1.460856e+001
816665	9.135512e-001	1.399462e+001
821620	9.165067e-001	1.340225e+001
826575	9.214018e-001	1.278431e+001
831530	9.262123e-001	1.226891e+001
836485	9.291530e-001	1.165895e+001
841440	9.324308e-001	1.118044e+001
846395	9.357749e-001	1.075385e+001
851350	9.406434e-001	1.023255e+001
856305	9.439323e-001	9.736448e+000
861260	9.463397e-001	9.339074e+000
866215	9.480090e-001	8.892707e+000
871170	9.520833e-001	8.468919e+000
876125	9.542450e-001	8.156213e+000
881080	9.561716e-001	7.668048e+000
886035	9.562289e-001	7.264410e+000
890990	9.588464e-001	6.962255e+000
895945	9.610546e-001	6.519998e+000
900900	9.631282e-001	6.303856e+000
905855	9.642624e-001	5.906726e+000
910810	9.649882e-001	5.573399e+000
915765	9.660128e-001	5.195152e+000
920720	9.675673e-001	4.941276e+000
925675	9.679635e-001	4.704841e+000
930630	9.718519e-001	4.376174e+000
935585	9.718368e-001	4.000862e+000
940540	9.735998e-001	3.781802e+000
945495	9.738056e-001	3.569816e+000
950450	9.731468e-001	3.264115e+000
955405	9.757539e-001	2.932208e+000
960360	9.760584e-001	2.713059e+000
965315	9.765088e-001	2.483429e+000
970270	9.768602e-001	2.206809e+000
975225	9.774736e-001	2.049534e+000
980180	9.774603e-001	1.844266e+000
985135	9.784042e-001	1.637430e+000
990090	9.793064e-001	1.416666e+000
995045	9.808742e-001	1.184692e+000
1000000	9.801350e-001	1.009937e+000
