!Agilent Technologies,E5071C,MY46100305,A.07.02
!Date: Fri Jan 01 00:40:12 1988
!Data & Calibration Information:
!Freq	S11:SOLT1(ON)
# Hz S MA R 50
9000	9.583237e-001	-1.319397e+000
13955	1.049574e+000	8.625515e-001
18910	1.003514e+000	-3.210226e-001
23865	1.000570e+000	-9.494047e-002
28820	1.007478e+000	-1.053792e+000
33775	1.010413e+000	-1.652441e-001
38730	9.916426e-001	-2.643527e-001
43685	1.002829e+000	-6.571681e-001
48640	9.964499e-001	-1.648650e+000
53595	9.880460e-001	-1.239603e+000
58550	1.012862e+000	-2.178722e+000
63505	1.002756e+000	-2.736843e+000
68460	1.005061e+000	-1.695487e+000
73415	1.000153e+000	-2.469828e+000
78370	9.982011e-001	-2.388236e+000
83325	9.969383e-001	-2.558594e+000
88280	9.947978e-001	-2.828728e+000
93235	9.932367e-001	-3.040370e+000
98190	9.904086e-001	-3.376936e+000
103145	9.879971e-001	-3.529803e+000
108100	9.848200e-001	-3.777983e+000
113055	9.795382e-001	-4.006963e+000
118010	9.760098e-001	-4.447075e+000
122965	9.673113e-001	-4.692119e+000
127920	9.563312e-001	-4.875596e+000
132875	9.475629e-001	-5.120712e+000
137830	9.318644e-001	-4.982680e+000
142785	9.129576e-001	-4.820523e+000
147740	8.942645e-001	-3.813534e+000
152695	8.902920e-001	-1.455259e+000
157650	9.020902e-001	-7.631446e-002
162605	9.217854e-001	3.272278e-001
167560	9.394159e-001	3.901723e-001
172515	9.519426e-001	9.063578e-001
177470	9.606859e-001	4.681577e-001
182425	9.677589e-001	1.674117e-002
187380	9.777131e-001	-2.902663e-001
192335	9.802255e-001	-5.697856e-001
197290	9.816155e-001	-8.965758e-001
202245	9.834472e-001	-1.153755e+000
207200	9.880370e-001	-1.519522e+000
212155	9.865791e-001	-1.711719e+000
217110	9.877749e-001	-1.821649e+000
222065	9.916700e-001	-2.030771e+000
227020	9.891714e-001	-2.228345e+000
231975	9.895392e-001	-2.375861e+000
236930	9.896183e-001	-2.706836e+000
241885	9.880786e-001	-2.914559e+000
246840	9.869876e-001	-3.064053e+000
251795	9.822012e-001	-3.013738e+000
256750	9.796550e-001	-3.024185e+000
261705	9.804657e-001	-2.957934e+000
266660	9.841936e-001	-2.835421e+000
271615	9.835339e-001	-2.798454e+000
276570	9.868258e-001	-2.921485e+000
281525	9.895958e-001	-3.121782e+000
286480	9.900563e-001	-3.247064e+000
291435	9.900136e-001	-3.342710e+000
296390	9.925407e-001	-3.407240e+000
301345	9.907953e-001	-3.561027e+000
306300	9.914880e-001	-3.723788e+000
311255	9.922809e-001	-3.834836e+000
316210	9.918496e-001	-3.939070e+000
321165	9.911319e-001	-4.048713e+000
326120	9.904136e-001	-4.168876e+000
331075	9.909361e-001	-4.151495e+000
336030	9.915995e-001	-4.319168e+000
340985	9.911980e-001	-4.347545e+000
345940	9.922022e-001	-4.496403e+000
350895	9.919264e-001	-4.572582e+000
355850	9.930501e-001	-4.671517e+000
360805	9.920693e-001	-4.829439e+000
365760	9.921901e-001	-4.898309e+000
370715	9.925329e-001	-4.944193e+000
375670	9.904687e-001	-5.134527e+000
380625	9.903896e-001	-5.095796e+000
385580	9.901439e-001	-5.176073e+000
390535	9.898726e-001	-5.202823e+000
395490	9.898651e-001	-5.294150e+000
400445	9.909068e-001	-5.366989e+000
405400	9.902621e-001	-5.422313e+000
410355	9.908878e-001	-5.481673e+000
415310	9.914565e-001	-5.605345e+000
420265	9.917566e-001	-5.572522e+000
425220	9.922075e-001	-5.745187e+000
430175	9.936731e-001	-5.883973e+000
435130	9.931971e-001	-6.023605e+000
440085	9.931514e-001	-6.077562e+000
445040	9.922768e-001	-6.240575e+000
449995	9.917604e-001	-6.249141e+000
454950	9.903553e-001	-6.309100e+000
459905	9.909765e-001	-6.383739e+000
464860	9.919747e-001	-6.433509e+000
469815	9.922312e-001	-6.476094e+000
474770	9.921409e-001	-6.594705e+000
479725	9.926027e-001	-6.688236e+000
484680	9.931903e-001	-6.761947e+000
489635	9.930092e-001	-6.799797e+000
494590	9.940260e-001	-6.931027e+000
499545	9.926150e-001	-7.065297e+000
504500	9.928667e-001	-7.150922e+000
509455	9.937589e-001	-7.276644e+000
514410	9.933757e-001	-7.402045e+000
519365	9.930370e-001	-7.457281e+000
524320	9.925759e-001	-7.516899e+000
529275	9.927356e-001	-7.609494e+000
534230	9.924713e-001	-7.693126e+000
539185	9.924801e-001	-7.784576e+000
544140	9.920610e-001	-7.825608e+000
549095	9.914277e-001	-7.889544e+000
554050	9.907168e-001	-7.981022e+000
559005	9.903398e-001	-8.050716e+000
563960	9.905326e-001	-8.218566e+000
568915	9.913147e-001	-8.284529e+000
573870	9.909703e-001	-8.320947e+000
578825	9.916736e-001	-8.462506e+000
583780	9.911580e-001	-8.556871e+000
588735	9.890834e-001	-8.673548e+000
593690	9.884867e-001	-8.749674e+000
598645	9.881245e-001	-8.833531e+000
603600	9.870323e-001	-8.906210e+000
608555	9.870820e-001	-9.004571e+000
613510	9.857075e-001	-9.075428e+000
618465	9.838889e-001	-9.111199e+000
623420	9.846422e-001	-9.085889e+000
628375	9.830255e-001	-9.018975e+000
633330	9.830032e-001	-9.152961e+000
638285	9.832621e-001	-9.120064e+000
643240	9.828422e-001	-9.160770e+000
648195	9.846219e-001	-9.185672e+000
653150	9.850694e-001	-9.322166e+000
658105	9.842674e-001	-9.424087e+000
663060	9.838407e-001	-9.461056e+000
668015	9.837004e-001	-9.485582e+000
672970	9.843014e-001	-9.551485e+000
677925	9.836985e-001	-9.521810e+000
682880	9.841524e-001	-9.620465e+000
687835	9.848274e-001	-9.634447e+000
692790	9.847375e-001	-9.708019e+000
697745	9.855628e-001	-9.810561e+000
702700	9.856564e-001	-9.810970e+000
707655	9.827630e-001	-9.888140e+000
712610	9.852908e-001	-9.882020e+000
717565	9.845022e-001	-9.897970e+000
722520	9.847266e-001	-9.943404e+000
727475	9.869738e-001	-9.960024e+000
732430	9.868394e-001	-1.008048e+001
737385	9.884188e-001	-1.010096e+001
742340	9.890900e-001	-1.022330e+001
747295	9.900353e-001	-1.028404e+001
752250	9.915516e-001	-1.040584e+001
757205	9.919372e-001	-1.048566e+001
762160	9.907760e-001	-1.056679e+001
767115	9.904460e-001	-1.059293e+001
772070	9.908386e-001	-1.071624e+001
777025	9.909119e-001	-1.078950e+001
781980	9.911218e-001	-1.087113e+001
786935	9.922063e-001	-1.093757e+001
791890	9.933638e-001	-1.103645e+001
796845	9.933026e-001	-1.112087e+001
801800	9.926511e-001	-1.121767e+001
806755	9.939753e-001	-1.127497e+001
811710	9.924246e-001	-1.133150e+001
816665	9.933772e-001	-1.147481e+001
821620	9.936262e-001	-1.151858e+001
826575	9.933780e-001	-1.163064e+001
831530	9.934141e-001	-1.171663e+001
836485	9.934767e-001	-1.181770e+001
841440	9.938091e-001	-1.186425e+001
846395	9.929084e-001	-1.190506e+001
851350	9.939759e-001	-1.204269e+001
856305	9.941288e-001	-1.213590e+001
861260	9.954374e-001	-1.219758e+001
866215	9.933844e-001	-1.226329e+001
871170	9.945490e-001	-1.232803e+001
876125	9.956148e-001	-1.242392e+001
881080	9.941863e-001	-1.248683e+001
886035	9.943863e-001	-1.262837e+001
890990	9.929967e-001	-1.265015e+001
895945	9.956264e-001	-1.278015e+001
900900	9.958837e-001	-1.287398e+001
905855	9.947932e-001	-1.294823e+001
910810	9.935068e-001	-1.293348e+001
915765	9.949634e-001	-1.308970e+001
920720	9.939850e-001	-1.309691e+001
925675	9.941396e-001	-1.315917e+001
930630	9.959639e-001	-1.327970e+001
935585	9.946935e-001	-1.336209e+001
940540	9.967880e-001	-1.340462e+001
945495	9.952487e-001	-1.352626e+001
950450	9.951375e-001	-1.363448e+001
955405	9.957633e-001	-1.377904e+001
960360	9.949874e-001	-1.385350e+001
965315	9.951432e-001	-1.392808e+001
970270	9.950604e-001	-1.400358e+001
975225	9.958745e-001	-1.401143e+001
980180	9.953964e-001	-1.414167e+001
985135	9.954494e-001	-1.420379e+001
990090	9.951658e-001	-1.427682e+001
995045	9.964450e-001	-1.436555e+001
1000000	9.954273e-001	-1.442722e+001
