!Agilent Technologies,E5071C,MY46100305,A.07.02
!Date: Fri Jan 01 00:19:01 1988
!Data & Calibration Information:
!Freq	S11:SOLT1(ON)
# Hz S MA R 50
9000	9.558147e-001	-1.130047e+000
13955	1.021390e+000	1.837216e-001
18910	1.001700e+000	-2.780499e-001
23865	9.973502e-001	-1.820347e-001
28820	1.009360e+000	-5.154823e-001
33775	1.030098e+000	1.543289e+000
38730	9.828268e-001	1.666196e+000
43685	1.022673e+000	1.688450e+000
48640	9.825797e-001	-1.561882e+000
53595	9.978937e-001	-1.373754e+000
58550	9.989552e-001	-1.123617e+000
63505	9.959721e-001	-1.471641e+000
68460	1.006529e+000	-1.462093e+000
73415	9.955833e-001	-1.806790e+000
78370	9.975491e-001	-1.696072e+000
83325	9.955975e-001	-1.899049e+000
88280	9.954588e-001	-2.097016e+000
93235	9.930206e-001	-2.270008e+000
98190	9.912147e-001	-2.514901e+000
103145	9.889767e-001	-2.767989e+000
108100	9.861154e-001	-2.990155e+000
113055	9.790649e-001	-3.304615e+000
118010	9.742635e-001	-3.748108e+000
122965	9.649282e-001	-3.909962e+000
127920	9.524789e-001	-4.090969e+000
132875	9.342589e-001	-4.027312e+000
137830	9.247697e-001	-3.914678e+000
142785	9.105282e-001	-2.696200e+000
147740	8.937558e-001	-1.788136e+000
152695	8.993190e-001	-3.160530e-001
157650	9.190365e-001	1.477238e+000
162605	9.262711e-001	2.183810e+000
167560	9.393353e-001	2.083789e+000
172515	9.590254e-001	1.323591e+000
177470	9.573270e-001	1.995321e+000
182425	9.712573e-001	1.473769e+000
187380	9.702499e-001	9.845310e-001
192335	9.751964e-001	1.118292e+000
197290	9.739058e-001	7.303838e-001
202245	9.866338e-001	5.898662e-001
207200	9.939877e-001	5.662951e-001
212155	9.882455e-001	2.422545e-002
217110	9.886793e-001	1.019708e-001
222065	9.897230e-001	4.320608e-004
227020	9.894403e-001	-3.025966e-001
231975	9.901120e-001	-4.135635e-001
236930	9.876752e-001	-4.570129e-001
241885	9.851866e-001	-7.572545e-001
246840	9.840022e-001	-7.168696e-001
251795	9.801271e-001	-6.735944e-001
256750	9.806507e-001	-6.143625e-001
261705	9.787683e-001	-4.212260e-001
266660	9.841886e-001	-2.847584e-001
271615	9.856901e-001	-2.784512e-001
276570	9.872794e-001	-4.093227e-001
281525	9.906033e-001	-4.583354e-001
286480	9.893971e-001	-6.249992e-001
291435	9.911856e-001	-7.100232e-001
296390	9.920506e-001	-7.036802e-001
301345	9.911488e-001	-8.674294e-001
306300	9.918034e-001	-8.985818e-001
311255	9.904182e-001	-9.603507e-001
316210	9.922269e-001	-1.012608e+000
321165	9.923291e-001	-1.119810e+000
326120	9.903413e-001	-1.191036e+000
331075	9.915564e-001	-1.132867e+000
336030	9.919545e-001	-1.218209e+000
340985	9.912537e-001	-1.270029e+000
345940	9.928714e-001	-1.408892e+000
350895	9.923385e-001	-1.391182e+000
355850	9.926882e-001	-1.410753e+000
360805	9.932612e-001	-1.564236e+000
365760	9.920225e-001	-1.644628e+000
370715	9.912244e-001	-1.608913e+000
375670	9.903928e-001	-1.684979e+000
380625	9.909246e-001	-1.722000e+000
385580	9.905741e-001	-1.669660e+000
390535	9.898958e-001	-1.701509e+000
395490	9.904408e-001	-1.715284e+000
400445	9.906861e-001	-1.750011e+000
405400	9.900567e-001	-1.771722e+000
410355	9.910909e-001	-1.774695e+000
415310	9.925154e-001	-1.810609e+000
420265	9.917805e-001	-1.856745e+000
425220	9.922650e-001	-1.954688e+000
430175	9.933669e-001	-2.025024e+000
435130	9.926144e-001	-2.020433e+000
440085	9.919015e-001	-2.115701e+000
445040	9.928254e-001	-2.171051e+000
449995	9.912304e-001	-2.190059e+000
454950	9.910981e-001	-2.215595e+000
459905	9.912262e-001	-2.224793e+000
464860	9.912098e-001	-2.238410e+000
469815	9.924612e-001	-2.216710e+000
474770	9.925019e-001	-2.321683e+000
479725	9.937398e-001	-2.336585e+000
484680	9.944553e-001	-2.360642e+000
489635	9.930113e-001	-2.327300e+000
494590	9.943493e-001	-2.457064e+000
499545	9.929871e-001	-2.502763e+000
504500	9.937862e-001	-2.560003e+000
509455	9.936265e-001	-2.669532e+000
514410	9.935233e-001	-2.755049e+000
519365	9.934545e-001	-2.782363e+000
524320	9.925113e-001	-2.777823e+000
529275	9.916375e-001	-2.858880e+000
534230	9.931256e-001	-2.877491e+000
539185	9.916090e-001	-2.913650e+000
544140	9.918443e-001	-2.899635e+000
549095	9.910176e-001	-2.959066e+000
554050	9.908298e-001	-3.007600e+000
559005	9.912714e-001	-3.018306e+000
563960	9.916824e-001	-3.072185e+000
568915	9.919748e-001	-3.116936e+000
573870	9.908863e-001	-3.167256e+000
578825	9.912251e-001	-3.241708e+000
583780	9.902883e-001	-3.261469e+000
588735	9.905400e-001	-3.281931e+000
593690	9.891567e-001	-3.389316e+000
598645	9.880598e-001	-3.406509e+000
603600	9.871465e-001	-3.528817e+000
608555	9.867483e-001	-3.477269e+000
613510	9.862861e-001	-3.511111e+000
618465	9.839493e-001	-3.461595e+000
623420	9.843875e-001	-3.405296e+000
628375	9.830597e-001	-3.372859e+000
633330	9.835708e-001	-3.368356e+000
638285	9.839375e-001	-3.325598e+000
643240	9.837820e-001	-3.408346e+000
648195	9.843562e-001	-3.363595e+000
653150	9.851652e-001	-3.425509e+000
658105	9.835617e-001	-3.388839e+000
663060	9.833352e-001	-3.435230e+000
668015	9.845722e-001	-3.389127e+000
672970	9.845032e-001	-3.394853e+000
677925	9.844528e-001	-3.427972e+000
682880	9.844241e-001	-3.389822e+000
687835	9.852303e-001	-3.392771e+000
692790	9.847444e-001	-3.363841e+000
697745	9.861767e-001	-3.478483e+000
702700	9.853084e-001	-3.434132e+000
707655	9.836238e-001	-3.398644e+000
712610	9.850789e-001	-3.416469e+000
717565	9.848911e-001	-3.389256e+000
722520	9.855892e-001	-3.390742e+000
727475	9.878566e-001	-3.330415e+000
732430	9.876673e-001	-3.410189e+000
737385	9.892357e-001	-3.429384e+000
742340	9.899935e-001	-3.512834e+000
747295	9.904888e-001	-3.513244e+000
752250	9.910912e-001	-3.559307e+000
757205	9.912025e-001	-3.634174e+000
762160	9.908221e-001	-3.641241e+000
767115	9.922606e-001	-3.639360e+000
772070	9.907752e-001	-3.710851e+000
777025	9.909943e-001	-3.727729e+000
781980	9.917972e-001	-3.705743e+000
786935	9.932569e-001	-3.753286e+000
791890	9.941944e-001	-3.888775e+000
796845	9.943202e-001	-3.876978e+000
801800	9.948617e-001	-3.924004e+000
806755	9.946732e-001	-4.006577e+000
811710	9.938487e-001	-4.034416e+000
816665	9.957509e-001	-4.078066e+000
821620	9.950607e-001	-4.128362e+000
826575	9.944727e-001	-4.162474e+000
831530	9.943843e-001	-4.112684e+000
836485	9.935275e-001	-4.232637e+000
841440	9.943051e-001	-4.304931e+000
846395	9.949485e-001	-4.243319e+000
851350	9.959125e-001	-4.345221e+000
856305	9.942367e-001	-4.399373e+000
861260	9.952893e-001	-4.425944e+000
866215	9.948771e-001	-4.454528e+000
871170	9.954560e-001	-4.393339e+000
876125	9.960705e-001	-4.431170e+000
881080	9.947735e-001	-4.480109e+000
886035	9.953336e-001	-4.608428e+000
890990	9.947085e-001	-4.599586e+000
895945	9.956001e-001	-4.659864e+000
900900	9.958288e-001	-4.641353e+000
905855	9.954862e-001	-4.718286e+000
910810	9.951857e-001	-4.694290e+000
915765	9.965181e-001	-4.819462e+000
920720	9.964524e-001	-4.770922e+000
925675	9.947669e-001	-4.791538e+000
930630	9.969845e-001	-4.819792e+000
935585	9.968378e-001	-4.959097e+000
940540	9.972274e-001	-4.953592e+000
945495	9.970463e-001	-4.975102e+000
950450	9.964913e-001	-5.008225e+000
955405	9.974002e-001	-5.137677e+000
960360	9.966976e-001	-5.133123e+000
965315	9.961191e-001	-5.119979e+000
970270	9.971856e-001	-5.233377e+000
975225	9.972913e-001	-5.157968e+000
980180	9.965851e-001	-5.288465e+000
985135	9.967687e-001	-5.252360e+000
990090	9.971301e-001	-5.299765e+000
995045	9.974510e-001	-5.358908e+000
1000000	9.958891e-001	-5.380235e+000
