!Agilent Technologies,E5071C,MY46100305,A.07.02
!Date: Fri Jan 01 00:51:58 1988
!Data & Calibration Information:
!Freq	S11:SOLT1(ON)
# Hz S MA R 50
9000	9.578772e-001	-1.339753e+000
13955	1.054558e+000	7.261683e-001
18910	1.005470e+000	-3.235184e-001
23865	1.003114e+000	3.984018e-002
28820	1.000834e+000	-1.332772e+000
33775	1.013717e+000	5.431375e-001
38730	9.869401e-001	1.061555e-001
43685	1.010402e+000	4.309153e-002
48640	9.962763e-001	-1.569658e+000
53595	9.933325e-001	-1.040074e+000
58550	1.010115e+000	-1.846249e+000
63505	1.000315e+000	-2.364570e+000
68460	1.006247e+000	-1.243948e+000
73415	1.002509e+000	-1.872636e+000
78370	1.000167e+000	-1.781723e+000
83325	9.999660e-001	-1.837239e+000
88280	1.001327e+000	-2.013018e+000
93235	1.000203e+000	-2.163186e+000
98190	1.000957e+000	-2.264452e+000
103145	9.999551e-001	-2.352500e+000
108100	1.000688e+000	-2.480783e+000
113055	9.994113e-001	-2.528619e+000
118010	9.994948e-001	-2.689575e+000
122965	1.001325e+000	-2.858562e+000
127920	1.000433e+000	-3.007132e+000
132875	9.986592e-001	-3.111452e+000
137830	9.995283e-001	-3.220671e+000
142785	9.996684e-001	-3.354425e+000
147740	1.000131e+000	-3.474584e+000
152695	9.997947e-001	-3.537087e+000
157650	1.000015e+000	-3.784422e+000
162605	9.998373e-001	-3.816172e+000
167560	9.997631e-001	-3.972035e+000
172515	9.982387e-001	-4.123877e+000
177470	1.001534e+000	-4.186837e+000
182425	9.994154e-001	-4.307645e+000
187380	9.997034e-001	-4.445181e+000
192335	9.993580e-001	-4.510084e+000
197290	9.990956e-001	-4.722687e+000
202245	9.993578e-001	-4.844097e+000
207200	9.992455e-001	-5.009602e+000
212155	9.997106e-001	-5.123992e+000
217110	1.000502e+000	-5.243897e+000
222065	1.000146e+000	-5.349020e+000
227020	9.983562e-001	-5.453351e+000
231975	1.001020e+000	-5.548678e+000
236930	1.000291e+000	-5.770674e+000
241885	1.000161e+000	-5.966186e+000
246840	1.001169e+000	-6.070927e+000
251795	9.992517e-001	-6.208801e+000
256750	1.000239e+000	-6.371627e+000
261705	9.992895e-001	-6.471110e+000
266660	1.000455e+000	-6.650904e+000
271615	9.983338e-001	-6.736282e+000
276570	1.000099e+000	-6.917184e+000
281525	9.993466e-001	-7.059828e+000
286480	9.987538e-001	-7.244365e+000
291435	9.991552e-001	-7.379810e+000
296390	9.998965e-001	-7.544785e+000
301345	9.987680e-001	-7.705447e+000
306300	9.998095e-001	-7.859304e+000
311255	9.999501e-001	-8.039981e+000
316210	9.988874e-001	-8.238726e+000
321165	9.991076e-001	-8.464659e+000
326120	9.976539e-001	-8.641779e+000
331075	9.994753e-001	-8.671873e+000
336030	9.989651e-001	-8.960404e+000
340985	9.988562e-001	-9.078396e+000
345940	9.981128e-001	-9.370639e+000
350895	9.989980e-001	-9.470030e+000
355850	9.989871e-001	-9.702752e+000
360805	9.986359e-001	-9.902760e+000
365760	9.999219e-001	-1.011227e+001
370715	9.993973e-001	-1.024819e+001
375670	9.977621e-001	-1.053811e+001
380625	9.981137e-001	-1.068531e+001
385580	9.985968e-001	-1.088336e+001
390535	9.975895e-001	-1.110791e+001
395490	9.968841e-001	-1.139021e+001
400445	9.977100e-001	-1.160225e+001
405400	9.966188e-001	-1.182444e+001
410355	9.964538e-001	-1.210412e+001
415310	9.961038e-001	-1.237560e+001
420265	9.945162e-001	-1.261023e+001
425220	9.954502e-001	-1.291565e+001
430175	9.969269e-001	-1.317381e+001
435130	9.947444e-001	-1.348880e+001
440085	9.951846e-001	-1.371702e+001
445040	9.942097e-001	-1.409640e+001
449995	9.934779e-001	-1.434268e+001
454950	9.932332e-001	-1.470213e+001
459905	9.922320e-001	-1.504575e+001
464860	9.923101e-001	-1.541227e+001
469815	9.925319e-001	-1.577717e+001
474770	9.905141e-001	-1.617812e+001
479725	9.909470e-001	-1.663552e+001
484680	9.900605e-001	-1.699908e+001
489635	9.876508e-001	-1.731938e+001
494590	9.877846e-001	-1.789212e+001
499545	9.856895e-001	-1.837735e+001
504500	9.845094e-001	-1.882503e+001
509455	9.834509e-001	-1.940778e+001
514410	9.813742e-001	-1.999182e+001
519365	9.791198e-001	-2.059347e+001
524320	9.762780e-001	-2.114458e+001
529275	9.734287e-001	-2.194845e+001
534230	9.707942e-001	-2.270351e+001
539185	9.663579e-001	-2.347682e+001
544140	9.611747e-001	-2.433564e+001
549095	9.549082e-001	-2.528454e+001
554050	9.478303e-001	-2.627830e+001
559005	9.404978e-001	-2.721965e+001
563960	9.308966e-001	-2.839084e+001
568915	9.226856e-001	-2.955270e+001
573870	9.098265e-001	-3.103316e+001
578825	8.940830e-001	-3.268549e+001
583780	8.748632e-001	-3.442532e+001
588735	8.465437e-001	-3.642707e+001
593690	8.129417e-001	-3.846048e+001
598645	7.742289e-001	-4.042357e+001
603600	7.279485e-001	-4.234827e+001
608555	6.789832e-001	-4.384265e+001
613510	6.238164e-001	-4.524253e+001
618465	5.625787e-001	-4.610914e+001
623420	5.012561e-001	-4.580660e+001
628375	4.419254e-001	-4.381678e+001
633330	3.933629e-001	-4.067889e+001
638285	3.538512e-001	-3.594377e+001
643240	3.211777e-001	-2.995381e+001
648195	2.973909e-001	-2.208892e+001
653150	2.859324e-001	-1.300632e+001
658105	2.861653e-001	-3.977608e+000
663060	2.972705e-001	3.812299e+000
668015	3.168431e-001	1.020664e+001
672970	3.417365e-001	1.544437e+001
677925	3.677304e-001	1.938414e+001
682880	3.964840e-001	2.229600e+001
687835	4.263722e-001	2.463449e+001
692790	4.588712e-001	2.659724e+001
697745	4.932735e-001	2.788890e+001
702700	5.285119e-001	2.849831e+001
707655	5.605613e-001	2.854163e+001
712610	5.891422e-001	2.818335e+001
717565	6.152033e-001	2.795391e+001
722520	6.412963e-001	2.747880e+001
727475	6.671874e-001	2.706564e+001
732430	6.912048e-001	2.662066e+001
737385	7.165903e-001	2.596002e+001
742340	7.401707e-001	2.514711e+001
747295	7.612517e-001	2.434515e+001
752250	7.807749e-001	2.343720e+001
757205	7.984461e-001	2.251316e+001
762160	8.133918e-001	2.162424e+001
767115	8.273375e-001	2.083628e+001
772070	8.388939e-001	1.991181e+001
777025	8.489552e-001	1.917272e+001
781980	8.601036e-001	1.841948e+001
786935	8.703000e-001	1.769001e+001
791890	8.792677e-001	1.685362e+001
796845	8.886906e-001	1.625723e+001
801800	8.955024e-001	1.551068e+001
806755	9.013243e-001	1.486946e+001
811710	9.075241e-001	1.422139e+001
816665	9.146753e-001	1.360619e+001
821620	9.196138e-001	1.298055e+001
826575	9.236420e-001	1.235851e+001
831530	9.283298e-001	1.191291e+001
836485	9.322049e-001	1.132711e+001
841440	9.360673e-001	1.082656e+001
846395	9.384360e-001	1.037008e+001
851350	9.432784e-001	9.839246e+000
856305	9.455810e-001	9.364561e+000
861260	9.474668e-001	8.954268e+000
866215	9.500692e-001	8.560475e+000
871170	9.531641e-001	8.228856e+000
876125	9.550177e-001	7.815476e+000
881080	9.571236e-001	7.417220e+000
886035	9.579464e-001	6.952321e+000
890990	9.600404e-001	6.554650e+000
895945	9.623725e-001	6.272532e+000
900900	9.637098e-001	5.967234e+000
905855	9.647999e-001	5.634221e+000
910810	9.651853e-001	5.273060e+000
915765	9.675869e-001	4.983652e+000
920720	9.679494e-001	4.699791e+000
925675	9.690142e-001	4.401463e+000
930630	9.714564e-001	4.137976e+000
935585	9.716686e-001	3.892816e+000
940540	9.730269e-001	3.612338e+000
945495	9.737888e-001	3.330351e+000
950450	9.742281e-001	3.110722e+000
955405	9.768026e-001	2.809307e+000
960360	9.761806e-001	2.567580e+000
965315	9.775789e-001	2.326989e+000
970270	9.782402e-001	2.081441e+000
975225	9.793988e-001	1.858695e+000
980180	9.786899e-001	1.673064e+000
985135	9.792107e-001	1.490967e+000
990090	9.804902e-001	1.262320e+000
995045	9.808932e-001	1.001897e+000
1000000	9.813232e-001	8.071623e-001
