!Agilent Technologies,E5071C,MY46100305,A.07.02
!Date: Fri Jan 01 00:41:19 1988
!Data & Calibration Information:
!Freq	S11:SOLT1(ON)
# Hz S MA R 50
9000	9.583208e-001	-1.416926e+000
13955	1.051370e+000	8.263343e-001
18910	1.003837e+000	-4.491863e-001
23865	1.000795e+000	-1.176355e-001
28820	1.007119e+000	-1.005228e+000
33775	9.921963e-001	-1.608095e+000
38730	1.004660e+000	-2.009863e+000
43685	9.862371e-001	-2.671772e+000
48640	9.948470e-001	-1.735120e+000
53595	9.896133e-001	-1.208951e+000
58550	1.012051e+000	-1.987490e+000
63505	1.001950e+000	-2.605739e+000
68460	1.007458e+000	-1.666315e+000
73415	9.987848e-001	-2.401643e+000
78370	9.974407e-001	-2.237455e+000
83325	9.959534e-001	-2.437543e+000
88280	9.964569e-001	-2.665670e+000
93235	9.937720e-001	-2.888257e+000
98190	9.938765e-001	-3.021466e+000
103145	9.938308e-001	-3.273473e+000
108100	9.938724e-001	-3.670261e+000
113055	9.900954e-001	-4.046193e+000
118010	9.859781e-001	-4.487465e+000
122965	9.782842e-001	-4.856942e+000
127920	9.661258e-001	-5.252085e+000
132875	9.492227e-001	-5.518112e+000
137830	9.375497e-001	-5.424914e+000
142785	9.184248e-001	-5.375529e+000
147740	9.005532e-001	-4.293196e+000
152695	8.910195e-001	-2.673013e+000
157650	8.984164e-001	-1.261493e+000
162605	9.102209e-001	-4.470520e-001
167560	9.235232e-001	4.032662e-001
172515	9.494652e-001	5.699197e-001
177470	9.456149e-001	1.946593e-001
182425	9.637284e-001	4.158235e-001
187380	9.664803e-001	-1.178780e-001
192335	9.803532e-001	-6.445873e-001
197290	9.829775e-001	-9.733840e-001
202245	9.881458e-001	-8.666840e-001
207200	9.818892e-001	-1.372079e+000
212155	9.889984e-001	-1.724892e+000
217110	9.881435e-001	-1.621101e+000
222065	9.902902e-001	-1.951910e+000
227020	9.906135e-001	-2.255238e+000
231975	9.905006e-001	-2.349807e+000
236930	9.904925e-001	-2.586354e+000
241885	9.899790e-001	-2.918722e+000
246840	9.897364e-001	-3.057250e+000
251795	9.859169e-001	-3.143714e+000
256750	9.831732e-001	-3.218716e+000
261705	9.804579e-001	-3.225045e+000
266660	9.826621e-001	-3.049118e+000
271615	9.815084e-001	-2.973099e+000
276570	9.831365e-001	-2.981054e+000
281525	9.869914e-001	-3.058931e+000
286480	9.879273e-001	-3.166900e+000
291435	9.882486e-001	-3.258671e+000
296390	9.913740e-001	-3.343962e+000
301345	9.918926e-001	-3.481077e+000
306300	9.932054e-001	-3.639276e+000
311255	9.932636e-001	-3.752324e+000
316210	9.948615e-001	-3.914623e+000
321165	9.938443e-001	-4.051515e+000
326120	9.923787e-001	-4.106780e+000
331075	9.938016e-001	-4.211341e+000
336030	9.930094e-001	-4.399921e+000
340985	9.933406e-001	-4.544631e+000
345940	9.943600e-001	-4.562923e+000
350895	9.930812e-001	-4.631222e+000
355850	9.927453e-001	-4.747500e+000
360805	9.926275e-001	-4.923727e+000
365760	9.935163e-001	-4.991091e+000
370715	9.931997e-001	-4.983200e+000
375670	9.922046e-001	-5.141223e+000
380625	9.930698e-001	-5.253669e+000
385580	9.913803e-001	-5.309241e+000
390535	9.907984e-001	-5.374965e+000
395490	9.914086e-001	-5.431133e+000
400445	9.917703e-001	-5.515433e+000
405400	9.908851e-001	-5.563799e+000
410355	9.905331e-001	-5.657592e+000
415310	9.908097e-001	-5.708522e+000
420265	9.904043e-001	-5.765863e+000
425220	9.909181e-001	-5.950230e+000
430175	9.925215e-001	-5.972772e+000
435130	9.927110e-001	-6.007148e+000
440085	9.928730e-001	-6.172130e+000
445040	9.924045e-001	-6.273411e+000
449995	9.924745e-001	-6.321362e+000
454950	9.917650e-001	-6.400328e+000
459905	9.928759e-001	-6.546353e+000
464860	9.924326e-001	-6.592087e+000
469815	9.909068e-001	-6.638768e+000
474770	9.912895e-001	-6.742724e+000
479725	9.920071e-001	-6.782663e+000
484680	9.930132e-001	-6.849236e+000
489635	9.923960e-001	-6.878124e+000
494590	9.926446e-001	-6.997102e+000
499545	9.932547e-001	-7.139073e+000
504500	9.926357e-001	-7.199255e+000
509455	9.934463e-001	-7.382819e+000
514410	9.938137e-001	-7.399394e+000
519365	9.927544e-001	-7.542335e+000
524320	9.926033e-001	-7.565943e+000
529275	9.908701e-001	-7.691716e+000
534230	9.923951e-001	-7.826051e+000
539185	9.920084e-001	-7.920924e+000
544140	9.920499e-001	-7.982550e+000
549095	9.905859e-001	-8.053572e+000
554050	9.897943e-001	-8.134671e+000
559005	9.897679e-001	-8.115243e+000
563960	9.896764e-001	-8.229187e+000
568915	9.906386e-001	-8.276069e+000
573870	9.898600e-001	-8.291067e+000
578825	9.908620e-001	-8.414848e+000
583780	9.905911e-001	-8.553388e+000
588735	9.896808e-001	-8.647601e+000
593690	9.877480e-001	-8.808446e+000
598645	9.892708e-001	-8.862245e+000
603600	9.877217e-001	-9.022394e+000
608555	9.876812e-001	-9.077690e+000
613510	9.862592e-001	-9.165388e+000
618465	9.845961e-001	-9.273333e+000
623420	9.852526e-001	-9.220824e+000
628375	9.837311e-001	-9.199618e+000
633330	9.824492e-001	-9.268723e+000
638285	9.824939e-001	-9.227662e+000
643240	9.819866e-001	-9.295380e+000
648195	9.836552e-001	-9.306131e+000
653150	9.832659e-001	-9.466488e+000
658105	9.829253e-001	-9.474430e+000
663060	9.822250e-001	-9.521610e+000
668015	9.824904e-001	-9.514750e+000
672970	9.842726e-001	-9.589075e+000
677925	9.837968e-001	-9.595807e+000
682880	9.821710e-001	-9.644948e+000
687835	9.838866e-001	-9.606616e+000
692790	9.843911e-001	-9.661128e+000
697745	9.854341e-001	-9.868100e+000
702700	9.863316e-001	-9.786504e+000
707655	9.840989e-001	-9.901566e+000
712610	9.852756e-001	-9.896043e+000
717565	9.846654e-001	-9.994621e+000
722520	9.859963e-001	-1.005862e+001
727475	9.866653e-001	-1.009937e+001
732430	9.861464e-001	-1.012341e+001
737385	9.876273e-001	-1.018592e+001
742340	9.880391e-001	-1.031591e+001
747295	9.903834e-001	-1.032870e+001
752250	9.909531e-001	-1.044312e+001
757205	9.913120e-001	-1.052586e+001
762160	9.915770e-001	-1.062326e+001
767115	9.911333e-001	-1.063583e+001
772070	9.912464e-001	-1.080552e+001
777025	9.911284e-001	-1.084355e+001
781980	9.919095e-001	-1.089777e+001
786935	9.915569e-001	-1.103521e+001
791890	9.926807e-001	-1.113041e+001
796845	9.945801e-001	-1.121561e+001
801800	9.938548e-001	-1.131704e+001
806755	9.933925e-001	-1.140949e+001
811710	9.928644e-001	-1.141782e+001
816665	9.941544e-001	-1.158310e+001
821620	9.938564e-001	-1.168391e+001
826575	9.933733e-001	-1.179328e+001
831530	9.934777e-001	-1.182078e+001
836485	9.929936e-001	-1.194249e+001
841440	9.943669e-001	-1.198701e+001
846395	9.924782e-001	-1.197511e+001
851350	9.932021e-001	-1.211472e+001
856305	9.932980e-001	-1.228237e+001
861260	9.941611e-001	-1.229455e+001
866215	9.941659e-001	-1.235574e+001
871170	9.945108e-001	-1.245173e+001
876125	9.951506e-001	-1.248100e+001
881080	9.945730e-001	-1.258136e+001
886035	9.946814e-001	-1.273113e+001
890990	9.947857e-001	-1.278769e+001
895945	9.951136e-001	-1.293068e+001
900900	9.955284e-001	-1.292540e+001
905855	9.951521e-001	-1.304033e+001
910810	9.941069e-001	-1.310711e+001
915765	9.946932e-001	-1.322393e+001
920720	9.944966e-001	-1.323598e+001
925675	9.937137e-001	-1.326058e+001
930630	9.941763e-001	-1.341558e+001
935585	9.938350e-001	-1.354339e+001
940540	9.953702e-001	-1.361702e+001
945495	9.950012e-001	-1.361759e+001
950450	9.945029e-001	-1.369615e+001
955405	9.954964e-001	-1.386969e+001
960360	9.953375e-001	-1.396868e+001
965315	9.944124e-001	-1.397958e+001
970270	9.948031e-001	-1.408319e+001
975225	9.959123e-001	-1.412637e+001
980180	9.955788e-001	-1.420263e+001
985135	9.952897e-001	-1.430985e+001
990090	9.958060e-001	-1.440628e+001
995045	9.966257e-001	-1.454491e+001
1000000	9.950176e-001	-1.449278e+001
