!Agilent Technologies,E5071C,MY46100305,A.07.02
!Date: Fri Jan 01 00:20:04 1988
!Data & Calibration Information:
!Freq	S11:SOLT1(ON)
# Hz S MA R 50
9000	9.594750e-001	-1.144054e+000
13955	1.027660e+000	2.230795e-001
18910	1.006133e+000	-3.271409e-001
23865	9.984498e-001	-1.226657e-001
28820	1.007679e+000	-4.604388e-001
33775	1.021336e+000	8.326551e-001
38730	9.885834e-001	7.590594e-001
43685	1.017573e+000	6.370116e-001
48640	9.865746e-001	-1.615033e+000
53595	9.997288e-001	-1.128569e+000
58550	1.002797e+000	-1.334013e+000
63505	9.947145e-001	-1.719871e+000
68460	1.003637e+000	-1.317803e+000
73415	9.985179e-001	-1.563953e+000
78370	9.978033e-001	-1.552194e+000
83325	9.971129e-001	-1.677667e+000
88280	9.971233e-001	-1.938237e+000
93235	9.953044e-001	-2.089477e+000
98190	9.943450e-001	-2.131921e+000
103145	9.945431e-001	-2.342150e+000
108100	9.939622e-001	-2.652085e+000
113055	9.902487e-001	-2.967140e+000
118010	9.862607e-001	-3.543839e+000
122965	9.783228e-001	-3.943075e+000
127920	9.681048e-001	-4.235848e+000
132875	9.535685e-001	-4.700089e+000
137830	9.322132e-001	-4.504011e+000
142785	9.194913e-001	-4.219673e+000
147740	8.866570e-001	-3.040365e+000
152695	8.907732e-001	-6.667148e-001
157650	8.896689e-001	3.585470e-001
162605	9.039760e-001	7.411864e-001
167560	9.344007e-001	1.608252e+000
172515	9.393796e-001	1.485958e+000
177470	9.595763e-001	2.152855e+000
182425	9.668854e-001	2.106130e+000
187380	9.706818e-001	1.518015e+000
192335	9.813178e-001	1.506594e+000
197290	9.779761e-001	1.103149e+000
202245	9.867726e-001	5.301361e-001
207200	9.857694e-001	6.091964e-001
212155	9.894749e-001	3.652028e-001
217110	9.924729e-001	4.469003e-001
222065	9.933619e-001	-3.000254e-003
227020	9.911398e-001	-2.486387e-001
231975	9.914294e-001	-2.092437e-001
236930	9.922861e-001	-6.293518e-001
241885	9.901290e-001	-6.428839e-001
246840	9.893993e-001	-7.084068e-001
251795	9.859802e-001	-9.150869e-001
256750	9.832818e-001	-9.054409e-001
261705	9.811428e-001	-8.028509e-001
266660	9.820105e-001	-6.093345e-001
271615	9.816062e-001	-4.556425e-001
276570	9.841890e-001	-4.226635e-001
281525	9.868843e-001	-4.401898e-001
286480	9.887488e-001	-5.824101e-001
291435	9.898238e-001	-5.609736e-001
296390	9.922006e-001	-6.553318e-001
301345	9.917315e-001	-7.283556e-001
306300	9.938679e-001	-8.565972e-001
311255	9.941963e-001	-9.679023e-001
316210	9.939046e-001	-1.065179e+000
321165	9.940263e-001	-1.128513e+000
326120	9.934575e-001	-1.238175e+000
331075	9.936203e-001	-1.213660e+000
336030	9.934726e-001	-1.370209e+000
340985	9.933987e-001	-1.349099e+000
345940	9.934554e-001	-1.419430e+000
350895	9.924315e-001	-1.428984e+000
355850	9.934982e-001	-1.483751e+000
360805	9.927945e-001	-1.563250e+000
365760	9.937308e-001	-1.642292e+000
370715	9.932161e-001	-1.645784e+000
375670	9.930078e-001	-1.776058e+000
380625	9.929397e-001	-1.728599e+000
385580	9.925120e-001	-1.809733e+000
390535	9.915514e-001	-1.824571e+000
395490	9.915826e-001	-1.806157e+000
400445	9.921289e-001	-1.873165e+000
405400	9.908787e-001	-1.924457e+000
410355	9.905932e-001	-1.926203e+000
415310	9.916979e-001	-1.998919e+000
420265	9.903155e-001	-1.925146e+000
425220	9.924357e-001	-2.084754e+000
430175	9.932909e-001	-2.064885e+000
435130	9.935463e-001	-2.108584e+000
440085	9.939704e-001	-2.123962e+000
445040	9.926753e-001	-2.231033e+000
449995	9.936061e-001	-2.206077e+000
454950	9.932134e-001	-2.279058e+000
459905	9.922333e-001	-2.335949e+000
464860	9.933730e-001	-2.391041e+000
469815	9.921631e-001	-2.381383e+000
474770	9.913768e-001	-2.452768e+000
479725	9.924614e-001	-2.417074e+000
484680	9.936085e-001	-2.458951e+000
489635	9.924996e-001	-2.438410e+000
494590	9.932456e-001	-2.508063e+000
499545	9.935307e-001	-2.592621e+000
504500	9.926328e-001	-2.576151e+000
509455	9.939756e-001	-2.693043e+000
514410	9.941512e-001	-2.755460e+000
519365	9.938720e-001	-2.906277e+000
524320	9.925216e-001	-2.825916e+000
529275	9.929857e-001	-2.939237e+000
534230	9.926780e-001	-2.955370e+000
539185	9.924196e-001	-2.958820e+000
544140	9.919307e-001	-3.005799e+000
549095	9.907771e-001	-3.077534e+000
554050	9.900543e-001	-3.080033e+000
559005	9.897973e-001	-3.070245e+000
563960	9.900238e-001	-3.191093e+000
568915	9.906088e-001	-3.118061e+000
573870	9.902738e-001	-3.181304e+000
578825	9.911763e-001	-3.237975e+000
583780	9.912674e-001	-3.268006e+000
588735	9.904463e-001	-3.365197e+000
593690	9.892842e-001	-3.410885e+000
598645	9.892140e-001	-3.429162e+000
603600	9.869971e-001	-3.557059e+000
608555	9.885802e-001	-3.583836e+000
613510	9.866530e-001	-3.687476e+000
618465	9.840994e-001	-3.668899e+000
623420	9.846099e-001	-3.611759e+000
628375	9.837059e-001	-3.505253e+000
633330	9.811381e-001	-3.555230e+000
638285	9.834596e-001	-3.462631e+000
643240	9.830767e-001	-3.463520e+000
648195	9.837708e-001	-3.434083e+000
653150	9.836620e-001	-3.494953e+000
658105	9.831874e-001	-3.484444e+000
663060	9.817935e-001	-3.471225e+000
668015	9.832894e-001	-3.459051e+000
672970	9.842923e-001	-3.443908e+000
677925	9.837725e-001	-3.400942e+000
682880	9.833743e-001	-3.442470e+000
687835	9.833353e-001	-3.398888e+000
692790	9.845452e-001	-3.300211e+000
697745	9.852017e-001	-3.443734e+000
702700	9.864021e-001	-3.438283e+000
707655	9.849539e-001	-3.487142e+000
712610	9.857280e-001	-3.463834e+000
717565	9.853184e-001	-3.497184e+000
722520	9.863278e-001	-3.466583e+000
727475	9.871856e-001	-3.436354e+000
732430	9.871678e-001	-3.432324e+000
737385	9.887874e-001	-3.460338e+000
742340	9.884546e-001	-3.529989e+000
747295	9.908524e-001	-3.588504e+000
752250	9.917858e-001	-3.570534e+000
757205	9.917828e-001	-3.649801e+000
762160	9.920704e-001	-3.706370e+000
767115	9.924841e-001	-3.739828e+000
772070	9.924625e-001	-3.787921e+000
777025	9.914379e-001	-3.802186e+000
781980	9.924182e-001	-3.839268e+000
786935	9.935016e-001	-3.861596e+000
791890	9.944283e-001	-3.935697e+000
796845	9.936647e-001	-3.935820e+000
801800	9.939108e-001	-4.009347e+000
806755	9.952235e-001	-4.084979e+000
811710	9.936772e-001	-4.036400e+000
816665	9.944957e-001	-4.166372e+000
821620	9.946844e-001	-4.164478e+000
826575	9.939640e-001	-4.206648e+000
831530	9.945761e-001	-4.239501e+000
836485	9.945645e-001	-4.307056e+000
841440	9.949972e-001	-4.400623e+000
846395	9.940634e-001	-4.317306e+000
851350	9.957034e-001	-4.393682e+000
856305	9.950691e-001	-4.454645e+000
861260	9.954347e-001	-4.488721e+000
866215	9.942706e-001	-4.498226e+000
871170	9.954002e-001	-4.505035e+000
876125	9.953685e-001	-4.487164e+000
881080	9.959095e-001	-4.527340e+000
886035	9.951698e-001	-4.663580e+000
890990	9.961518e-001	-4.658411e+000
895945	9.955584e-001	-4.716938e+000
900900	9.957050e-001	-4.743988e+000
905855	9.961113e-001	-4.810866e+000
910810	9.953233e-001	-4.782641e+000
915765	9.959375e-001	-4.845176e+000
920720	9.956112e-001	-4.901964e+000
925675	9.952999e-001	-4.886228e+000
930630	9.966767e-001	-4.953973e+000
935585	9.965187e-001	-5.012276e+000
940540	9.961797e-001	-4.934895e+000
945495	9.962134e-001	-5.060849e+000
950450	9.953708e-001	-5.053503e+000
955405	9.964786e-001	-5.186630e+000
960360	9.962185e-001	-5.180978e+000
965315	9.961549e-001	-5.147935e+000
970270	9.967844e-001	-5.264162e+000
975225	9.978725e-001	-5.228839e+000
980180	9.963349e-001	-5.334660e+000
985135	9.961975e-001	-5.308578e+000
990090	9.969849e-001	-5.328537e+000
995045	9.971032e-001	-5.411327e+000
1000000	9.963939e-001	-5.401811e+000
