!Agilent Technologies,E5071C,MY46100305,A.07.02
!Date: Fri Jan 01 00:21:15 1988
!Data & Calibration Information:
!Freq	S11:SOLT1(ON)
# Hz S MA R 50
9000	9.569759e-001	-1.198213e+000
13955	1.023133e+000	1.529213e-001
18910	1.004259e+000	-1.195031e-001
23865	9.978734e-001	-1.091773e-001
28820	1.006239e+000	-3.646272e-001
33775	1.025240e+000	1.276053e+000
38730	9.872549e-001	1.244368e+000
43685	1.023009e+000	1.015460e+000
48640	9.936391e-001	-1.094854e+000
53595	9.979877e-001	-6.772747e-001
58550	1.007679e+000	-1.022401e+000
63505	1.001581e+000	-1.450385e+000
68460	1.008545e+000	-9.686421e-001
73415	1.000030e+000	-1.455110e+000
78370	9.985438e-001	-1.216164e+000
83325	9.983955e-001	-1.268987e+000
88280	9.990279e-001	-1.447478e+000
93235	9.981673e-001	-1.557832e+000
98190	9.982819e-001	-1.701906e+000
103145	9.969725e-001	-1.768918e+000
108100	9.943662e-001	-1.943501e+000
113055	9.947820e-001	-2.094625e+000
118010	9.943335e-001	-2.360257e+000
122965	9.938554e-001	-2.585744e+000
127920	9.918893e-001	-2.762783e+000
132875	9.889875e-001	-3.055421e+000
137830	9.872288e-001	-3.560254e+000
142785	9.829832e-001	-4.177926e+000
147740	9.683044e-001	-5.050003e+000
152695	9.408745e-001	-5.581413e+000
157650	8.998041e-001	-5.489666e+000
162605	8.570406e-001	-2.653773e+000
167560	8.650662e-001	2.372120e+000
172515	9.386963e-001	3.637383e+000
177470	9.626034e-001	2.523816e+000
182425	9.681877e-001	1.631484e+000
187380	9.822886e-001	1.256066e+000
192335	9.816452e-001	6.725693e-001
197290	9.824026e-001	6.532583e-001
202245	9.897090e-001	2.309470e-001
207200	9.922152e-001	1.874517e-001
212155	9.920139e-001	-1.477746e-001
217110	9.928705e-001	-3.048736e-001
222065	9.936099e-001	-6.584612e-001
227020	9.926456e-001	-7.377180e-001
231975	9.914715e-001	-8.398985e-001
236930	9.922076e-001	-9.518572e-001
241885	9.912650e-001	-1.100332e+000
246840	9.923639e-001	-1.209795e+000
251795	9.895639e-001	-1.193923e+000
256750	9.888795e-001	-1.314027e+000
261705	9.880761e-001	-1.406314e+000
266660	9.887090e-001	-1.395227e+000
271615	9.857843e-001	-1.406056e+000
276570	9.855643e-001	-1.457770e+000
281525	9.854604e-001	-1.394796e+000
286480	9.845992e-001	-1.400494e+000
291435	9.861563e-001	-1.423545e+000
296390	9.882561e-001	-1.428189e+000
301345	9.857492e-001	-1.459801e+000
306300	9.878209e-001	-1.561863e+000
311255	9.880136e-001	-1.629159e+000
316210	9.881362e-001	-1.607901e+000
321165	9.877924e-001	-1.687488e+000
326120	9.863502e-001	-1.749350e+000
331075	9.867213e-001	-1.715617e+000
336030	9.863026e-001	-1.774180e+000
340985	9.858536e-001	-1.846211e+000
345940	9.859993e-001	-1.810087e+000
350895	9.853163e-001	-1.825604e+000
355850	9.861701e-001	-1.816899e+000
360805	9.861516e-001	-1.798615e+000
365760	9.862171e-001	-1.875249e+000
370715	9.873112e-001	-1.825942e+000
375670	9.860082e-001	-1.939124e+000
380625	9.866959e-001	-1.943633e+000
385580	9.868278e-001	-1.901778e+000
390535	9.868947e-001	-1.927817e+000
395490	9.870078e-001	-1.951845e+000
400445	9.887694e-001	-1.976112e+000
405400	9.884939e-001	-2.017392e+000
410355	9.881386e-001	-2.059138e+000
415310	9.886449e-001	-1.999886e+000
420265	9.886308e-001	-2.055680e+000
425220	9.905109e-001	-2.123423e+000
430175	9.925319e-001	-2.195899e+000
435130	9.917281e-001	-2.195134e+000
440085	9.926245e-001	-2.217605e+000
445040	9.934177e-001	-2.318653e+000
449995	9.932170e-001	-2.343183e+000
454950	9.927510e-001	-2.377157e+000
459905	9.937921e-001	-2.474171e+000
464860	9.936165e-001	-2.558276e+000
469815	9.949582e-001	-2.528017e+000
474770	9.941515e-001	-2.627770e+000
479725	9.943706e-001	-2.699854e+000
484680	9.952653e-001	-2.748394e+000
489635	9.934690e-001	-2.777811e+000
494590	9.948250e-001	-2.816009e+000
499545	9.943771e-001	-2.919531e+000
504500	9.937349e-001	-2.966065e+000
509455	9.940640e-001	-2.993718e+000
514410	9.951683e-001	-3.060850e+000
519365	9.945008e-001	-3.115674e+000
524320	9.942391e-001	-3.142920e+000
529275	9.944675e-001	-3.252196e+000
534230	9.941209e-001	-3.289735e+000
539185	9.945308e-001	-3.322756e+000
544140	9.933823e-001	-3.385157e+000
549095	9.938139e-001	-3.427516e+000
554050	9.928623e-001	-3.519115e+000
559005	9.924328e-001	-3.502727e+000
563960	9.930002e-001	-3.634522e+000
568915	9.934400e-001	-3.701559e+000
573870	9.915402e-001	-3.744165e+000
578825	9.917744e-001	-3.837773e+000
583780	9.906852e-001	-3.874781e+000
588735	9.886820e-001	-3.912555e+000
593690	9.873862e-001	-3.966691e+000
598645	9.844260e-001	-3.923051e+000
603600	9.842615e-001	-4.044699e+000
608555	9.847311e-001	-4.040077e+000
613510	9.828049e-001	-4.034376e+000
618465	9.810405e-001	-3.929281e+000
623420	9.812570e-001	-3.847589e+000
628375	9.806888e-001	-3.726501e+000
633330	9.802218e-001	-3.728594e+000
638285	9.820822e-001	-3.605195e+000
643240	9.830041e-001	-3.640496e+000
648195	9.848606e-001	-3.594199e+000
653150	9.855628e-001	-3.664279e+000
658105	9.864062e-001	-3.671123e+000
663060	9.869573e-001	-3.700924e+000
668015	9.889547e-001	-3.714098e+000
672970	9.891687e-001	-3.774342e+000
677925	9.897711e-001	-3.851296e+000
682880	9.889382e-001	-3.848605e+000
687835	9.904626e-001	-3.877789e+000
692790	9.901748e-001	-3.890551e+000
697745	9.919366e-001	-3.985469e+000
702700	9.919523e-001	-4.036172e+000
707655	9.915102e-001	-4.026245e+000
712610	9.924964e-001	-4.082487e+000
717565	9.918143e-001	-4.198931e+000
722520	9.921768e-001	-4.172546e+000
727475	9.934676e-001	-4.305959e+000
732430	9.921843e-001	-4.354409e+000
737385	9.930001e-001	-4.431306e+000
742340	9.923368e-001	-4.486567e+000
747295	9.937210e-001	-4.563358e+000
752250	9.939295e-001	-4.554996e+000
757205	9.927916e-001	-4.647860e+000
762160	9.934384e-001	-4.662940e+000
767115	9.923603e-001	-4.717371e+000
772070	9.916792e-001	-4.835225e+000
777025	9.913486e-001	-4.837456e+000
781980	9.924283e-001	-4.859426e+000
786935	9.926737e-001	-4.964749e+000
791890	9.914685e-001	-5.036963e+000
796845	9.919329e-001	-5.055700e+000
801800	9.907478e-001	-5.100409e+000
806755	9.891798e-001	-5.206188e+000
811710	9.876890e-001	-5.182915e+000
816665	9.878530e-001	-5.193530e+000
821620	9.866707e-001	-5.226473e+000
826575	9.860550e-001	-5.206074e+000
831530	9.860401e-001	-5.240140e+000
836485	9.857144e-001	-5.224868e+000
841440	9.856492e-001	-5.208229e+000
846395	9.833749e-001	-5.214895e+000
851350	9.848420e-001	-5.253218e+000
856305	9.846470e-001	-5.243555e+000
861260	9.840807e-001	-5.218114e+000
866215	9.831106e-001	-5.143888e+000
871170	9.848563e-001	-5.087994e+000
876125	9.850733e-001	-5.018381e+000
881080	9.865917e-001	-5.049613e+000
886035	9.866076e-001	-5.080959e+000
890990	9.877753e-001	-5.152190e+000
895945	9.886788e-001	-5.166341e+000
900900	9.901339e-001	-5.227064e+000
905855	9.906064e-001	-5.281299e+000
910810	9.894396e-001	-5.281849e+000
915765	9.907237e-001	-5.386530e+000
920720	9.905358e-001	-5.403555e+000
925675	9.908796e-001	-5.389800e+000
930630	9.921660e-001	-5.538209e+000
935585	9.913210e-001	-5.565581e+000
940540	9.918135e-001	-5.622742e+000
945495	9.916034e-001	-5.671716e+000
950450	9.911517e-001	-5.703607e+000
955405	9.909912e-001	-5.790287e+000
960360	9.904597e-001	-5.819245e+000
965315	9.912335e-001	-5.815168e+000
970270	9.905059e-001	-5.886685e+000
975225	9.913597e-001	-5.913661e+000
980180	9.909638e-001	-5.873313e+000
985135	9.903475e-001	-5.942663e+000
990090	9.922461e-001	-5.927377e+000
995045	9.921312e-001	-6.057149e+000
1000000	9.908657e-001	-6.015800e+000
