!Agilent Technologies,E5071C,MY46100305,A.07.02
!Date: Fri Jan 01 00:42:35 1988
!Data & Calibration Information:
!Freq	S11:SOLT1(ON)
# Hz S MA R 50
9000	9.608631e-001	-1.352974e+000
13955	1.047601e+000	9.463631e-001
18910	1.006477e+000	-4.953559e-001
23865	9.991688e-001	-6.382378e-002
28820	1.007635e+000	-1.092214e+000
33775	1.010151e+000	8.878195e-002
38730	9.907156e-001	-5.743719e-002
43685	1.004372e+000	-3.111841e-001
48640	9.938110e-001	-1.762983e+000
53595	9.933855e-001	-1.169098e+000
58550	1.008393e+000	-1.994300e+000
63505	9.958411e-001	-2.340067e+000
68460	1.003340e+000	-1.457228e+000
73415	1.000137e+000	-2.138887e+000
78370	9.992158e-001	-1.947605e+000
83325	9.981126e-001	-2.055131e+000
88280	9.980495e-001	-2.231839e+000
93235	9.980208e-001	-2.361666e+000
98190	9.979277e-001	-2.556296e+000
103145	9.970764e-001	-2.656562e+000
108100	9.947923e-001	-2.886706e+000
113055	9.940657e-001	-3.034270e+000
118010	9.936547e-001	-3.393776e+000
122965	9.924005e-001	-3.586334e+000
127920	9.895941e-001	-3.800583e+000
132875	9.870388e-001	-4.130188e+000
137830	9.842058e-001	-4.632704e+000
142785	9.777956e-001	-5.161488e+000
147740	9.634761e-001	-5.659376e+000
152695	9.418168e-001	-5.830801e+000
157650	9.147483e-001	-5.321376e+000
162605	8.953008e-001	-3.464220e+000
167560	8.968777e-001	-1.096383e+000
172515	9.248838e-001	7.196517e-002
177470	9.541010e-001	1.903794e-001
182425	9.665245e-001	-2.872807e-001
187380	9.752027e-001	-7.672392e-001
192335	9.766825e-001	-1.222869e+000
197290	9.808183e-001	-1.423914e+000
202245	9.850852e-001	-1.644419e+000
207200	9.885211e-001	-1.874958e+000
212155	9.897261e-001	-2.130506e+000
217110	9.906160e-001	-2.285352e+000
222065	9.919792e-001	-2.476659e+000
227020	9.891905e-001	-2.789141e+000
231975	9.912439e-001	-2.898635e+000
236930	9.913394e-001	-3.080774e+000
241885	9.897905e-001	-3.262679e+000
246840	9.899319e-001	-3.378958e+000
251795	9.888732e-001	-3.424077e+000
256750	9.892121e-001	-3.515664e+000
261705	9.874529e-001	-3.712299e+000
266660	9.884854e-001	-3.808806e+000
271615	9.850179e-001	-3.850040e+000
276570	9.850900e-001	-3.899723e+000
281525	9.862553e-001	-3.940804e+000
286480	9.855873e-001	-4.014631e+000
291435	9.856408e-001	-4.116653e+000
296390	9.876488e-001	-4.156411e+000
301345	9.864505e-001	-4.293148e+000
306300	9.883860e-001	-4.334311e+000
311255	9.885974e-001	-4.404196e+000
316210	9.876218e-001	-4.526361e+000
321165	9.874627e-001	-4.589549e+000
326120	9.863018e-001	-4.723185e+000
331075	9.875528e-001	-4.758159e+000
336030	9.855116e-001	-4.948984e+000
340985	9.863096e-001	-5.000967e+000
345940	9.851093e-001	-5.033419e+000
350895	9.847543e-001	-5.060129e+000
355850	9.855743e-001	-5.081867e+000
360805	9.847823e-001	-5.147784e+000
365760	9.854963e-001	-5.252478e+000
370715	9.862735e-001	-5.185955e+000
375670	9.858205e-001	-5.229859e+000
380625	9.881264e-001	-5.367635e+000
385580	9.866554e-001	-5.417312e+000
390535	9.873285e-001	-5.526587e+000
395490	9.864992e-001	-5.573433e+000
400445	9.877516e-001	-5.608326e+000
405400	9.875269e-001	-5.631447e+000
410355	9.876248e-001	-5.775972e+000
415310	9.877471e-001	-5.808929e+000
420265	9.885084e-001	-5.793384e+000
425220	9.885305e-001	-5.947331e+000
430175	9.915757e-001	-6.046260e+000
435130	9.918799e-001	-6.121310e+000
440085	9.922877e-001	-6.241548e+000
445040	9.927487e-001	-6.356271e+000
449995	9.934257e-001	-6.421703e+000
454950	9.920445e-001	-6.493311e+000
459905	9.929240e-001	-6.599869e+000
464860	9.934269e-001	-6.703773e+000
469815	9.921511e-001	-6.772583e+000
474770	9.928548e-001	-6.873637e+000
479725	9.938822e-001	-7.001649e+000
484680	9.945595e-001	-7.093673e+000
489635	9.934030e-001	-7.159433e+000
494590	9.938124e-001	-7.297023e+000
499545	9.934738e-001	-7.447697e+000
504500	9.936011e-001	-7.488489e+000
509455	9.945944e-001	-7.564891e+000
514410	9.943808e-001	-7.747864e+000
519365	9.950915e-001	-7.810534e+000
524320	9.939510e-001	-7.790696e+000
529275	9.932969e-001	-7.929783e+000
534230	9.942022e-001	-8.095136e+000
539185	9.948002e-001	-8.204503e+000
544140	9.940706e-001	-8.285769e+000
549095	9.933047e-001	-8.426611e+000
554050	9.931610e-001	-8.490342e+000
559005	9.930446e-001	-8.614427e+000
563960	9.923147e-001	-8.713688e+000
568915	9.928777e-001	-8.844056e+000
573870	9.907173e-001	-8.899536e+000
578825	9.912216e-001	-9.056515e+000
583780	9.898490e-001	-9.146038e+000
588735	9.878007e-001	-9.137464e+000
593690	9.871817e-001	-9.309857e+000
598645	9.861713e-001	-9.267719e+000
603600	9.834139e-001	-9.429136e+000
608555	9.852367e-001	-9.471481e+000
613510	9.831272e-001	-9.454114e+000
618465	9.814297e-001	-9.498280e+000
623420	9.820043e-001	-9.486661e+000
628375	9.811024e-001	-9.419736e+000
633330	9.817425e-001	-9.529381e+000
638285	9.829408e-001	-9.469012e+000
643240	9.828659e-001	-9.562802e+000
648195	9.851177e-001	-9.519623e+000
653150	9.852129e-001	-9.573790e+000
658105	9.858431e-001	-9.631091e+000
663060	9.868460e-001	-9.736538e+000
668015	9.874135e-001	-9.827624e+000
672970	9.889128e-001	-9.865429e+000
677925	9.891821e-001	-9.963942e+000
682880	9.883664e-001	-1.006047e+001
687835	9.901665e-001	-1.009071e+001
692790	9.893914e-001	-1.018818e+001
697745	9.906766e-001	-1.036191e+001
702700	9.906726e-001	-1.034864e+001
707655	9.900928e-001	-1.042652e+001
712610	9.913388e-001	-1.056151e+001
717565	9.911670e-001	-1.063691e+001
722520	9.922387e-001	-1.076979e+001
727475	9.922281e-001	-1.088666e+001
732430	9.915759e-001	-1.101774e+001
737385	9.923580e-001	-1.109557e+001
742340	9.922110e-001	-1.120734e+001
747295	9.930094e-001	-1.125598e+001
752250	9.933987e-001	-1.139904e+001
757205	9.925262e-001	-1.144505e+001
762160	9.925590e-001	-1.158913e+001
767115	9.921734e-001	-1.162578e+001
772070	9.909620e-001	-1.178706e+001
777025	9.903270e-001	-1.185540e+001
781980	9.910258e-001	-1.196768e+001
786935	9.915872e-001	-1.206699e+001
791890	9.909695e-001	-1.221731e+001
796845	9.908963e-001	-1.231579e+001
801800	9.903519e-001	-1.234960e+001
806755	9.896796e-001	-1.241938e+001
811710	9.878462e-001	-1.252918e+001
816665	9.876252e-001	-1.260463e+001
821620	9.860213e-001	-1.260510e+001
826575	9.862083e-001	-1.267555e+001
831530	9.850875e-001	-1.276527e+001
836485	9.842919e-001	-1.282212e+001
841440	9.833339e-001	-1.282460e+001
846395	9.826488e-001	-1.282170e+001
851350	9.844392e-001	-1.292994e+001
856305	9.841368e-001	-1.298607e+001
861260	9.826951e-001	-1.309654e+001
866215	9.829359e-001	-1.307061e+001
871170	9.836956e-001	-1.304224e+001
876125	9.835828e-001	-1.298185e+001
881080	9.851325e-001	-1.293784e+001
886035	9.851883e-001	-1.316857e+001
890990	9.863882e-001	-1.320888e+001
895945	9.881329e-001	-1.333164e+001
900900	9.896461e-001	-1.336373e+001
905855	9.890808e-001	-1.350825e+001
910810	9.888603e-001	-1.352743e+001
915765	9.896104e-001	-1.363122e+001
920720	9.892392e-001	-1.374403e+001
925675	9.893580e-001	-1.379115e+001
930630	9.907896e-001	-1.394515e+001
935585	9.899288e-001	-1.403698e+001
940540	9.913978e-001	-1.409141e+001
945495	9.902691e-001	-1.421565e+001
950450	9.891028e-001	-1.431890e+001
955405	9.899605e-001	-1.441554e+001
960360	9.898933e-001	-1.452487e+001
965315	9.900316e-001	-1.454814e+001
970270	9.897190e-001	-1.462607e+001
975225	9.899807e-001	-1.472703e+001
980180	9.903771e-001	-1.478598e+001
985135	9.903197e-001	-1.484931e+001
990090	9.906562e-001	-1.490950e+001
995045	9.914995e-001	-1.502729e+001
1000000	9.902668e-001	-1.504824e+001
