!Agilent Technologies,E5071C,MY46100305,A.07.02
!Date: Fri Jan 01 00:52:39 1988
!Data & Calibration Information:
!Freq	S11:SOLT1(ON)
# Hz S MA R 50
9000	9.585697e-001	-1.297912e+000
13955	1.065494e+000	1.051669e+000
18910	1.009272e+000	-4.125515e-001
23865	9.992048e-001	1.136315e-002
28820	1.007650e+000	-1.169693e+000
33775	1.009935e+000	1.263217e-001
38730	9.900216e-001	-1.776998e-001
43685	1.007009e+000	-1.905523e-001
48640	9.863984e-001	-1.722962e+000
53595	9.953572e-001	-1.385296e+000
58550	1.001464e+000	-1.617416e+000
63505	9.955794e-001	-1.876919e+000
68460	1.005934e+000	-1.605565e+000
73415	9.964024e-001	-1.916871e+000
78370	1.000123e+000	-1.798871e+000
83325	9.998980e-001	-1.877225e+000
88280	1.000862e+000	-2.044341e+000
93235	9.998844e-001	-2.125609e+000
98190	9.997140e-001	-2.261999e+000
103145	1.000094e+000	-2.309301e+000
108100	9.997675e-001	-2.469755e+000
113055	9.999702e-001	-2.551633e+000
118010	9.989985e-001	-2.786279e+000
122965	1.000151e+000	-2.796602e+000
127920	1.000058e+000	-2.955785e+000
132875	1.000326e+000	-3.123842e+000
137830	9.993153e-001	-3.231186e+000
142785	9.995955e-001	-3.363204e+000
147740	9.992486e-001	-3.454130e+000
152695	9.998168e-001	-3.568862e+000
157650	1.000159e+000	-3.738454e+000
162605	9.997058e-001	-3.801246e+000
167560	9.992086e-001	-3.968978e+000
172515	1.000232e+000	-4.114778e+000
177470	1.000844e+000	-4.189986e+000
182425	9.993093e-001	-4.357938e+000
187380	9.998325e-001	-4.450603e+000
192335	9.995236e-001	-4.586366e+000
197290	9.980636e-001	-4.698027e+000
202245	9.989496e-001	-4.858110e+000
207200	1.000471e+000	-5.022475e+000
212155	9.998978e-001	-5.117107e+000
217110	9.995135e-001	-5.232038e+000
222065	9.999950e-001	-5.346263e+000
227020	9.984700e-001	-5.498446e+000
231975	9.999384e-001	-5.523105e+000
236930	1.001420e+000	-5.774431e+000
241885	9.996179e-001	-5.910106e+000
246840	1.000928e+000	-6.114686e+000
251795	9.989072e-001	-6.156642e+000
256750	9.985131e-001	-6.332706e+000
261705	9.988346e-001	-6.531841e+000
266660	9.996166e-001	-6.642171e+000
271615	9.989580e-001	-6.767582e+000
276570	9.992648e-001	-6.880964e+000
281525	1.000336e+000	-7.113755e+000
286480	9.986415e-001	-7.240590e+000
291435	9.991552e-001	-7.500978e+000
296390	9.998602e-001	-7.534635e+000
301345	9.991115e-001	-7.686186e+000
306300	9.994740e-001	-7.910258e+000
311255	9.991710e-001	-8.044123e+000
316210	9.996817e-001	-8.308125e+000
321165	9.995867e-001	-8.422791e+000
326120	9.975195e-001	-8.658362e+000
331075	9.985407e-001	-8.737956e+000
336030	9.982969e-001	-8.924392e+000
340985	9.976913e-001	-9.153758e+000
345940	9.990736e-001	-9.386411e+000
350895	9.981472e-001	-9.472008e+000
355850	9.982860e-001	-9.685981e+000
360805	9.977953e-001	-9.919174e+000
365760	9.983979e-001	-1.011178e+001
370715	9.980063e-001	-1.030638e+001
375670	9.965880e-001	-1.050605e+001
380625	9.973373e-001	-1.072356e+001
385580	9.971782e-001	-1.094808e+001
390535	9.964897e-001	-1.115616e+001
395490	9.969663e-001	-1.138129e+001
400445	9.956103e-001	-1.161554e+001
405400	9.967995e-001	-1.186113e+001
410355	9.952504e-001	-1.209683e+001
415310	9.952203e-001	-1.239975e+001
420265	9.949446e-001	-1.258551e+001
425220	9.949789e-001	-1.289273e+001
430175	9.959530e-001	-1.320510e+001
435130	9.943932e-001	-1.348155e+001
440085	9.946560e-001	-1.374268e+001
445040	9.935902e-001	-1.408759e+001
449995	9.937354e-001	-1.436916e+001
454950	9.926905e-001	-1.470447e+001
459905	9.928430e-001	-1.503363e+001
464860	9.926885e-001	-1.546702e+001
469815	9.921375e-001	-1.579292e+001
474770	9.908606e-001	-1.627102e+001
479725	9.903958e-001	-1.662638e+001
484680	9.904154e-001	-1.708994e+001
489635	9.882054e-001	-1.747504e+001
494590	9.879825e-001	-1.795197e+001
499545	9.853302e-001	-1.850742e+001
504500	9.838162e-001	-1.897551e+001
509455	9.830324e-001	-1.958243e+001
514410	9.817926e-001	-2.016791e+001
519365	9.792461e-001	-2.082961e+001
524320	9.755697e-001	-2.144378e+001
529275	9.734860e-001	-2.223762e+001
534230	9.703286e-001	-2.300709e+001
539185	9.666219e-001	-2.387549e+001
544140	9.602998e-001	-2.487963e+001
549095	9.536236e-001	-2.587657e+001
554050	9.456627e-001	-2.705673e+001
559005	9.362201e-001	-2.818417e+001
563960	9.243816e-001	-2.968272e+001
568915	9.113786e-001	-3.116140e+001
573870	8.910179e-001	-3.287824e+001
578825	8.669857e-001	-3.474324e+001
583780	8.365688e-001	-3.651671e+001
588735	8.007943e-001	-3.835662e+001
593690	7.587004e-001	-4.009090e+001
598645	7.128537e-001	-4.159414e+001
603600	6.633434e-001	-4.289875e+001
608555	6.135827e-001	-4.352011e+001
613510	5.622852e-001	-4.361729e+001
618465	5.122809e-001	-4.292476e+001
623420	4.673606e-001	-4.137624e+001
628375	4.253878e-001	-3.910132e+001
633330	3.851702e-001	-3.627263e+001
638285	3.469839e-001	-3.184961e+001
643240	3.130027e-001	-2.551749e+001
648195	2.885948e-001	-1.683931e+001
653150	2.780662e-001	-6.585131e+000
658105	2.807410e-001	4.393756e+000
663060	3.009746e-001	1.479690e+001
668015	3.385177e-001	2.260572e+001
672970	3.841998e-001	2.732836e+001
677925	4.324884e-001	2.956556e+001
682880	4.754557e-001	3.047599e+001
687835	5.155427e-001	3.063769e+001
692790	5.532280e-001	3.059830e+001
697745	5.872371e-001	3.029199e+001
702700	6.216760e-001	2.973057e+001
707655	6.539527e-001	2.903723e+001
712610	6.838440e-001	2.812590e+001
717565	7.104921e-001	2.712201e+001
722520	7.368124e-001	2.609109e+001
727475	7.595783e-001	2.500626e+001
732430	7.797362e-001	2.385715e+001
737385	7.964075e-001	2.273169e+001
742340	8.125070e-001	2.159886e+001
747295	8.270473e-001	2.062415e+001
752250	8.386481e-001	1.965430e+001
757205	8.484163e-001	1.869754e+001
762160	8.585611e-001	1.784466e+001
767115	8.667138e-001	1.707263e+001
772070	8.749819e-001	1.621958e+001
777025	8.819716e-001	1.550855e+001
781980	8.895273e-001	1.477365e+001
786935	8.952981e-001	1.394972e+001
791890	9.010894e-001	1.323414e+001
796845	9.059173e-001	1.259120e+001
801800	9.089224e-001	1.187711e+001
806755	9.108536e-001	1.120147e+001
811710	9.131688e-001	1.071209e+001
816665	9.149234e-001	1.021957e+001
821620	9.164971e-001	9.746864e+000
826575	9.171177e-001	9.318789e+000
831530	9.188643e-001	8.973756e+000
836485	9.209461e-001	8.580891e+000
841440	9.230400e-001	8.312604e+000
846395	9.240008e-001	8.066782e+000
851350	9.269366e-001	7.602197e+000
856305	9.295689e-001	7.344830e+000
861260	9.301951e-001	6.964609e+000
866215	9.311528e-001	6.785241e+000
871170	9.324523e-001	6.607517e+000
876125	9.360057e-001	6.481010e+000
881080	9.400359e-001	6.308029e+000
886035	9.430073e-001	5.953942e+000
890990	9.471391e-001	5.654718e+000
895945	9.519639e-001	5.350762e+000
900900	9.542363e-001	5.090406e+000
905855	9.558959e-001	4.766145e+000
910810	9.569210e-001	4.430649e+000
915765	9.606878e-001	4.081594e+000
920720	9.623780e-001	3.856673e+000
925675	9.640314e-001	3.595416e+000
930630	9.655981e-001	3.229440e+000
935585	9.662727e-001	2.967375e+000
940540	9.681341e-001	2.697829e+000
945495	9.681169e-001	2.464919e+000
950450	9.676031e-001	2.230355e+000
955405	9.703442e-001	1.914268e+000
960360	9.697774e-001	1.667087e+000
965315	9.701514e-001	1.525549e+000
970270	9.714205e-001	1.292720e+000
975225	9.716114e-001	1.084609e+000
980180	9.728879e-001	8.750073e-001
985135	9.732888e-001	6.660708e-001
990090	9.745752e-001	4.764735e-001
995045	9.760996e-001	2.724326e-001
1000000	9.752249e-001	1.132809e-001
