!Agilent Technologies,E5071C,MY46100305,A.07.02
!Date: Fri Jan 01 00:22:19 1988
!Data & Calibration Information:
!Freq	S11:SOLT1(ON)
# Hz S MA R 50
9000	9.553571e-001	-1.188731e+000
13955	1.027553e+000	3.284452e-001
18910	1.003164e+000	-2.981322e-001
23865	9.994401e-001	1.400830e-002
28820	1.004247e+000	-1.136598e+000
33775	1.000966e+000	-1.046366e+000
38730	1.005314e+000	-1.124678e+000
43685	9.957691e-001	-1.754045e+000
48640	9.843600e-001	-1.608756e+000
53595	1.000155e+000	-1.220266e+000
58550	9.999501e-001	-1.308473e+000
63505	9.937306e-001	-1.562114e+000
68460	1.004377e+000	-1.343164e+000
73415	9.962164e-001	-1.591030e+000
78370	9.986295e-001	-1.534363e+000
83325	9.981949e-001	-1.674891e+000
88280	9.978624e-001	-1.888590e+000
93235	9.966161e-001	-2.053085e+000
98190	9.953820e-001	-2.324014e+000
103145	9.930808e-001	-2.389630e+000
108100	9.933695e-001	-2.737988e+000
113055	9.902652e-001	-3.099360e+000
118010	9.885430e-001	-3.483572e+000
122965	9.778486e-001	-3.981055e+000
127920	9.717856e-001	-4.108141e+000
132875	9.585741e-001	-4.994219e+000
137830	9.456238e-001	-5.351409e+000
142785	9.017949e-001	-5.477389e+000
147740	8.961850e-001	-3.110771e+000
152695	8.602071e-001	-2.931415e+000
157650	8.609541e-001	9.362004e-001
162605	8.816142e-001	1.821084e+000
167560	9.236330e-001	2.089928e+000
172515	9.511671e-001	3.009069e+000
177470	9.615101e-001	3.096509e+000
182425	9.626544e-001	3.320132e+000
187380	9.768300e-001	1.895377e+000
192335	9.832256e-001	1.596414e+000
197290	9.898196e-001	1.225666e+000
202245	9.898330e-001	6.113913e-001
207200	9.901358e-001	5.186721e-001
212155	9.905526e-001	2.980964e-001
217110	9.917805e-001	3.062204e-001
222065	9.920816e-001	3.988123e-003
227020	9.894918e-001	-3.381483e-001
231975	9.915067e-001	-4.079697e-001
236930	9.902617e-001	-6.476066e-001
241885	9.880982e-001	-7.157177e-001
246840	9.851228e-001	-9.527983e-001
251795	9.808625e-001	-9.612412e-001
256750	9.787779e-001	-6.581795e-001
261705	9.773610e-001	-5.550594e-001
266660	9.798922e-001	-4.243404e-001
271615	9.800773e-001	-2.807814e-001
276570	9.825636e-001	-2.957416e-001
281525	9.872237e-001	-4.569980e-001
286480	9.868792e-001	-5.005554e-001
291435	9.881370e-001	-5.553549e-001
296390	9.910231e-001	-4.361379e-001
301345	9.905592e-001	-6.361219e-001
306300	9.907098e-001	-7.360638e-001
311255	9.928840e-001	-8.216625e-001
316210	9.934473e-001	-9.243004e-001
321165	9.934013e-001	-9.561047e-001
326120	9.927602e-001	-1.097285e+000
331075	9.945046e-001	-1.069029e+000
336030	9.934171e-001	-1.179932e+000
340985	9.935013e-001	-1.285155e+000
345940	9.943364e-001	-1.318460e+000
350895	9.938180e-001	-1.353894e+000
355850	9.947817e-001	-1.383850e+000
360805	9.943255e-001	-1.552755e+000
365760	9.930863e-001	-1.538533e+000
370715	9.938450e-001	-1.654432e+000
375670	9.916527e-001	-1.663470e+000
380625	9.928476e-001	-1.723146e+000
385580	9.910636e-001	-1.710517e+000
390535	9.906901e-001	-1.698497e+000
395490	9.916346e-001	-1.749775e+000
400445	9.923005e-001	-1.801405e+000
405400	9.916554e-001	-1.746871e+000
410355	9.915287e-001	-1.832532e+000
415310	9.928304e-001	-1.879798e+000
420265	9.923037e-001	-1.867196e+000
425220	9.932587e-001	-1.997548e+000
430175	9.947708e-001	-2.040100e+000
435130	9.936528e-001	-2.084538e+000
440085	9.942450e-001	-2.088572e+000
445040	9.940630e-001	-2.229606e+000
449995	9.929255e-001	-2.172765e+000
454950	9.923097e-001	-2.256870e+000
459905	9.917545e-001	-2.281616e+000
464860	9.921780e-001	-2.414264e+000
469815	9.914601e-001	-2.311940e+000
474770	9.921213e-001	-2.397416e+000
479725	9.931160e-001	-2.433289e+000
484680	9.929042e-001	-2.373105e+000
489635	9.920583e-001	-2.376620e+000
494590	9.942543e-001	-2.436675e+000
499545	9.934742e-001	-2.529099e+000
504500	9.937155e-001	-2.583391e+000
509455	9.946389e-001	-2.599466e+000
514410	9.950864e-001	-2.659123e+000
519365	9.952102e-001	-2.771242e+000
524320	9.937443e-001	-2.775804e+000
529275	9.944133e-001	-2.881032e+000
534230	9.942477e-001	-2.939213e+000
539185	9.933107e-001	-3.008708e+000
544140	9.933004e-001	-3.018600e+000
549095	9.911117e-001	-3.026346e+000
554050	9.915244e-001	-3.054999e+000
559005	9.918259e-001	-2.990253e+000
563960	9.921307e-001	-3.188479e+000
568915	9.930743e-001	-3.253914e+000
573870	9.920621e-001	-3.278405e+000
578825	9.914745e-001	-3.388193e+000
583780	9.902696e-001	-3.429970e+000
588735	9.888674e-001	-3.491856e+000
593690	9.864312e-001	-3.475256e+000
598645	9.848981e-001	-3.463694e+000
603600	9.840052e-001	-3.599566e+000
608555	9.834721e-001	-3.567184e+000
613510	9.820366e-001	-3.458148e+000
618465	9.809533e-001	-3.411372e+000
623420	9.828531e-001	-3.423785e+000
628375	9.807499e-001	-3.352623e+000
633330	9.820807e-001	-3.304943e+000
638285	9.839584e-001	-3.270558e+000
643240	9.833255e-001	-3.369609e+000
648195	9.833294e-001	-3.372096e+000
653150	9.840606e-001	-3.337665e+000
658105	9.821735e-001	-3.351129e+000
663060	9.808266e-001	-3.415750e+000
668015	9.824333e-001	-3.348353e+000
672970	9.832259e-001	-3.173963e+000
677925	9.837749e-001	-3.158063e+000
682880	9.833608e-001	-3.242487e+000
687835	9.857224e-001	-3.137454e+000
692790	9.867232e-001	-3.106306e+000
697745	9.892144e-001	-3.275105e+000
702700	9.897104e-001	-3.232281e+000
707655	9.886844e-001	-3.366396e+000
712610	9.895636e-001	-3.314312e+000
717565	9.885592e-001	-3.455466e+000
722520	9.898426e-001	-3.471058e+000
727475	9.908567e-001	-3.566276e+000
732430	9.896470e-001	-3.514295e+000
737385	9.896530e-001	-3.554909e+000
742340	9.908012e-001	-3.625936e+000
747295	9.916293e-001	-3.582257e+000
752250	9.916720e-001	-3.557041e+000
757205	9.933263e-001	-3.656995e+000
762160	9.924878e-001	-3.767154e+000
767115	9.927013e-001	-3.800752e+000
772070	9.922615e-001	-3.773329e+000
777025	9.929593e-001	-3.823508e+000
781980	9.941458e-001	-3.848585e+000
786935	9.931442e-001	-3.909493e+000
791890	9.944989e-001	-3.930968e+000
796845	9.949360e-001	-3.907822e+000
801800	9.951073e-001	-4.028995e+000
806755	9.960636e-001	-4.126649e+000
811710	9.944141e-001	-4.084746e+000
816665	9.956012e-001	-4.159903e+000
821620	9.958481e-001	-4.199436e+000
826575	9.947703e-001	-4.267470e+000
831530	9.952514e-001	-4.282112e+000
836485	9.947056e-001	-4.332537e+000
841440	9.949338e-001	-4.344874e+000
846395	9.947644e-001	-4.379292e+000
851350	9.958301e-001	-4.469907e+000
856305	9.947838e-001	-4.506536e+000
861260	9.956262e-001	-4.509684e+000
866215	9.948057e-001	-4.479747e+000
871170	9.955473e-001	-4.497192e+000
876125	9.954619e-001	-4.507511e+000
881080	9.954653e-001	-4.570381e+000
886035	9.949027e-001	-4.672452e+000
890990	9.944568e-001	-4.688186e+000
895945	9.950774e-001	-4.722081e+000
900900	9.963561e-001	-4.727461e+000
905855	9.957741e-001	-4.784517e+000
910810	9.946762e-001	-4.836252e+000
915765	9.956824e-001	-4.806963e+000
920720	9.955277e-001	-4.801696e+000
925675	9.955225e-001	-4.846425e+000
930630	9.959969e-001	-4.956583e+000
935585	9.962542e-001	-4.976450e+000
940540	9.972097e-001	-5.001748e+000
945495	9.964715e-001	-4.998345e+000
950450	9.960542e-001	-5.034288e+000
955405	9.960546e-001	-5.217030e+000
960360	9.973399e-001	-5.169651e+000
965315	9.967419e-001	-5.186643e+000
970270	9.970158e-001	-5.215417e+000
975225	9.973187e-001	-5.211305e+000
980180	9.964481e-001	-5.316511e+000
985135	9.965287e-001	-5.321679e+000
990090	9.967197e-001	-5.329760e+000
995045	9.984328e-001	-5.400726e+000
1000000	9.964036e-001	-5.421685e+000
