!Agilent Technologies,E5071C,MY46100305,A.07.02
!Date: Fri Jan 01 00:43:29 1988
!Data & Calibration Information:
!Freq	S11:SOLT1(ON)
# Hz S MA R 50
9000	9.592357e-001	-1.321685e+000
13955	1.052191e+000	8.605034e-001
18910	1.007096e+000	-3.886434e-001
23865	1.000311e+000	-8.339329e-002
28820	1.008099e+000	-1.036435e+000
33775	1.021494e+000	7.591262e-001
38730	9.843668e-001	3.371976e-001
43685	1.014488e+000	1.704934e-001
48640	9.871411e-001	-2.073994e+000
53595	9.938850e-001	-1.501389e+000
58550	1.004354e+000	-2.091143e+000
63505	9.940834e-001	-2.470489e+000
68460	1.004842e+000	-1.626093e+000
73415	1.000645e+000	-2.282025e+000
78370	9.980692e-001	-2.246360e+000
83325	9.975509e-001	-2.397984e+000
88280	9.971196e-001	-2.755299e+000
93235	9.956999e-001	-2.873050e+000
98190	9.942303e-001	-3.160545e+000
103145	9.932343e-001	-3.358642e+000
108100	9.923104e-001	-3.598044e+000
113055	9.891671e-001	-4.000994e+000
118010	9.851721e-001	-4.471165e+000
122965	9.790202e-001	-4.855702e+000
127920	9.719733e-001	-5.199880e+000
132875	9.617516e-001	-5.572843e+000
137830	9.467387e-001	-5.979747e+000
142785	9.239693e-001	-5.988245e+000
147740	8.987160e-001	-5.388717e+000
152695	8.811535e-001	-3.906860e+000
157650	8.706094e-001	-1.570570e+000
162605	8.836142e-001	2.296632e-001
167560	9.267545e-001	1.073256e+000
172515	9.491124e-001	2.160063e+000
177470	9.609406e-001	1.298682e+000
182425	9.749455e-001	3.224600e-001
187380	9.754513e-001	1.712843e-003
192335	9.828641e-001	-4.931627e-001
197290	9.876780e-001	-6.918225e-001
202245	9.880059e-001	-1.090442e+000
207200	9.892934e-001	-1.426398e+000
212155	9.924683e-001	-1.620863e+000
217110	9.902945e-001	-1.909235e+000
222065	9.898704e-001	-2.127640e+000
227020	9.892550e-001	-2.355985e+000
231975	9.901192e-001	-2.424552e+000
236930	9.908347e-001	-2.744235e+000
241885	9.876265e-001	-2.960448e+000
246840	9.860112e-001	-3.143807e+000
251795	9.811414e-001	-3.187837e+000
256750	9.778588e-001	-3.086825e+000
261705	9.773311e-001	-3.050184e+000
266660	9.795553e-001	-2.856929e+000
271615	9.809066e-001	-2.792033e+000
276570	9.836709e-001	-2.824279e+000
281525	9.867514e-001	-2.973047e+000
286480	9.866541e-001	-3.100234e+000
291435	9.880712e-001	-3.230780e+000
296390	9.908810e-001	-3.253956e+000
301345	9.904681e-001	-3.330375e+000
306300	9.921470e-001	-3.466926e+000
311255	9.929517e-001	-3.673093e+000
316210	9.936689e-001	-3.790214e+000
321165	9.940022e-001	-3.884704e+000
326120	9.921125e-001	-4.049200e+000
331075	9.929109e-001	-4.075205e+000
336030	9.937157e-001	-4.261393e+000
340985	9.938878e-001	-4.368061e+000
345940	9.938371e-001	-4.466877e+000
350895	9.937468e-001	-4.565702e+000
355850	9.942170e-001	-4.687342e+000
360805	9.931726e-001	-4.839879e+000
365760	9.931570e-001	-4.893297e+000
370715	9.933064e-001	-4.972038e+000
375670	9.921996e-001	-5.084120e+000
380625	9.920982e-001	-5.200017e+000
385580	9.919704e-001	-5.169232e+000
390535	9.907909e-001	-5.285560e+000
395490	9.912999e-001	-5.346433e+000
400445	9.916668e-001	-5.409175e+000
405400	9.914696e-001	-5.446555e+000
410355	9.911391e-001	-5.576096e+000
415310	9.914365e-001	-5.634477e+000
420265	9.924899e-001	-5.707263e+000
425220	9.921790e-001	-5.812712e+000
430175	9.934222e-001	-6.000889e+000
435130	9.928605e-001	-6.012956e+000
440085	9.933760e-001	-6.124844e+000
445040	9.926807e-001	-6.238363e+000
449995	9.927457e-001	-6.279369e+000
454950	9.921301e-001	-6.365261e+000
459905	9.920177e-001	-6.459476e+000
464860	9.926824e-001	-6.550912e+000
469815	9.915958e-001	-6.588261e+000
474770	9.914970e-001	-6.641037e+000
479725	9.918098e-001	-6.660642e+000
484680	9.923965e-001	-6.702301e+000
489635	9.919050e-001	-6.829688e+000
494590	9.944352e-001	-6.927699e+000
499545	9.929889e-001	-7.014759e+000
504500	9.944193e-001	-7.077489e+000
509455	9.941978e-001	-7.243472e+000
514410	9.949546e-001	-7.369744e+000
519365	9.938263e-001	-7.439638e+000
524320	9.941113e-001	-7.483624e+000
529275	9.938672e-001	-7.610958e+000
534230	9.940697e-001	-7.743679e+000
539185	9.929228e-001	-7.825802e+000
544140	9.919817e-001	-7.907437e+000
549095	9.913743e-001	-7.946935e+000
554050	9.905958e-001	-8.062772e+000
559005	9.906715e-001	-8.091918e+000
563960	9.920101e-001	-8.274012e+000
568915	9.929907e-001	-8.309736e+000
573870	9.920192e-001	-8.464974e+000
578825	9.909176e-001	-8.588821e+000
583780	9.897964e-001	-8.709015e+000
588735	9.890935e-001	-8.745330e+000
593690	9.868115e-001	-8.845528e+000
598645	9.854061e-001	-8.862488e+000
603600	9.845247e-001	-9.044021e+000
608555	9.840506e-001	-9.027406e+000
613510	9.834013e-001	-8.992229e+000
618465	9.816722e-001	-9.050447e+000
623420	9.821312e-001	-8.914246e+000
628375	9.815805e-001	-8.998879e+000
633330	9.819288e-001	-9.057741e+000
638285	9.833253e-001	-9.031425e+000
643240	9.832605e-001	-9.190342e+000
648195	9.835415e-001	-9.214495e+000
653150	9.849080e-001	-9.306878e+000
658105	9.831229e-001	-9.340571e+000
663060	9.815635e-001	-9.396704e+000
668015	9.825575e-001	-9.402191e+000
672970	9.825128e-001	-9.364819e+000
677925	9.836360e-001	-9.339633e+000
682880	9.837803e-001	-9.397981e+000
687835	9.857764e-001	-9.395109e+000
692790	9.860809e-001	-9.413007e+000
697745	9.877000e-001	-9.530675e+000
702700	9.887056e-001	-9.619496e+000
707655	9.884695e-001	-9.705923e+000
712610	9.900810e-001	-9.838297e+000
717565	9.890649e-001	-1.000910e+001
722520	9.899243e-001	-1.000836e+001
727475	9.901022e-001	-1.008931e+001
732430	9.891567e-001	-1.018801e+001
737385	9.897638e-001	-1.021425e+001
742340	9.895184e-001	-1.035912e+001
747295	9.908894e-001	-1.039173e+001
752250	9.914977e-001	-1.040564e+001
757205	9.913111e-001	-1.050873e+001
762160	9.923016e-001	-1.061077e+001
767115	9.916736e-001	-1.069472e+001
772070	9.924384e-001	-1.077795e+001
777025	9.916199e-001	-1.088435e+001
781980	9.930542e-001	-1.087816e+001
786935	9.934071e-001	-1.099452e+001
791890	9.934452e-001	-1.114698e+001
796845	9.942800e-001	-1.119980e+001
801800	9.937799e-001	-1.133349e+001
806755	9.942796e-001	-1.137616e+001
811710	9.931131e-001	-1.142834e+001
816665	9.944879e-001	-1.156867e+001
821620	9.949419e-001	-1.161939e+001
826575	9.942935e-001	-1.171539e+001
831530	9.945854e-001	-1.181190e+001
836485	9.936209e-001	-1.192872e+001
841440	9.950161e-001	-1.199780e+001
846395	9.936313e-001	-1.204154e+001
851350	9.952413e-001	-1.210917e+001
856305	9.945178e-001	-1.225084e+001
861260	9.952076e-001	-1.235215e+001
866215	9.943210e-001	-1.232222e+001
871170	9.945013e-001	-1.240933e+001
876125	9.944921e-001	-1.248398e+001
881080	9.943537e-001	-1.257491e+001
886035	9.937333e-001	-1.272415e+001
890990	9.942341e-001	-1.274437e+001
895945	9.955869e-001	-1.286984e+001
900900	9.946421e-001	-1.295174e+001
905855	9.936025e-001	-1.303301e+001
910810	9.932069e-001	-1.305128e+001
915765	9.940754e-001	-1.310757e+001
920720	9.943435e-001	-1.320128e+001
925675	9.935189e-001	-1.322927e+001
930630	9.963970e-001	-1.333799e+001
935585	9.953877e-001	-1.348008e+001
940540	9.969502e-001	-1.346910e+001
945495	9.949134e-001	-1.360986e+001
950450	9.948672e-001	-1.372364e+001
955405	9.964770e-001	-1.384435e+001
960360	9.957912e-001	-1.389656e+001
965315	9.952197e-001	-1.392756e+001
970270	9.951771e-001	-1.402012e+001
975225	9.960794e-001	-1.407128e+001
980180	9.954711e-001	-1.418282e+001
985135	9.947734e-001	-1.422451e+001
990090	9.955391e-001	-1.433269e+001
995045	9.958227e-001	-1.443419e+001
1000000	9.954133e-001	-1.445932e+001
