!Agilent Technologies,E5071C,MY46100305,A.07.02
!Date: Fri Jan 01 00:53:33 1988
!Data & Calibration Information:
!Freq	S11:SOLT1(ON)
# Hz S MA R 50
9000	9.589404e-001	-1.325391e+000
13955	1.055440e+000	8.011496e-001
18910	1.006145e+000	-3.611518e-001
23865	1.002316e+000	6.400669e-002
28820	9.998522e-001	-1.437970e+000
33775	1.000780e+000	-8.171549e-001
38730	9.961137e-001	-1.030687e+000
43685	9.915107e-001	-1.288507e+000
48640	9.898257e-001	-1.717885e+000
53595	9.929573e-001	-1.368627e+000
58550	1.001440e+000	-1.286859e+000
63505	9.977972e-001	-1.603623e+000
68460	1.007775e+000	-1.555400e+000
73415	9.976340e-001	-1.964915e+000
78370	9.988642e-001	-1.818534e+000
83325	9.996750e-001	-1.829355e+000
88280	1.000386e+000	-2.080822e+000
93235	9.995398e-001	-2.157639e+000
98190	1.000326e+000	-2.311213e+000
103145	9.998966e-001	-2.304397e+000
108100	9.996597e-001	-2.501888e+000
113055	9.992512e-001	-2.610521e+000
118010	9.992560e-001	-2.705568e+000
122965	1.000238e+000	-2.874977e+000
127920	1.000904e+000	-2.906285e+000
132875	9.998242e-001	-3.127272e+000
137830	9.992571e-001	-3.240745e+000
142785	9.991856e-001	-3.337477e+000
147740	9.994407e-001	-3.474709e+000
152695	9.997185e-001	-3.548701e+000
157650	9.999538e-001	-3.715334e+000
162605	1.000467e+000	-3.843493e+000
167560	9.990068e-001	-3.965970e+000
172515	9.998529e-001	-4.127736e+000
177470	1.000294e+000	-4.160942e+000
182425	9.993645e-001	-4.390605e+000
187380	9.991677e-001	-4.424939e+000
192335	1.000287e+000	-4.574936e+000
197290	9.985030e-001	-4.743585e+000
202245	9.992396e-001	-4.898953e+000
207200	1.000799e+000	-5.023983e+000
212155	1.000291e+000	-5.096216e+000
217110	9.995284e-001	-5.217181e+000
222065	1.000347e+000	-5.353602e+000
227020	9.985756e-001	-5.537671e+000
231975	9.998603e-001	-5.569872e+000
236930	1.000871e+000	-5.771412e+000
241885	1.000194e+000	-5.951494e+000
246840	1.000906e+000	-6.123786e+000
251795	9.993596e-001	-6.197297e+000
256750	9.995864e-001	-6.339883e+000
261705	9.993061e-001	-6.537964e+000
266660	1.000058e+000	-6.681810e+000
271615	9.989122e-001	-6.734151e+000
276570	9.996489e-001	-6.947820e+000
281525	9.997794e-001	-7.110141e+000
286480	9.981494e-001	-7.225490e+000
291435	9.983355e-001	-7.369723e+000
296390	1.000980e+000	-7.572216e+000
301345	9.987717e-001	-7.691745e+000
306300	9.994921e-001	-7.903889e+000
311255	9.996396e-001	-8.017196e+000
316210	9.990470e-001	-8.276933e+000
321165	9.993252e-001	-8.375758e+000
326120	9.980274e-001	-8.603744e+000
331075	9.993391e-001	-8.658395e+000
336030	9.993571e-001	-8.937983e+000
340985	9.992514e-001	-9.126633e+000
345940	9.989062e-001	-9.288057e+000
350895	9.986416e-001	-9.482970e+000
355850	9.982825e-001	-9.654591e+000
360805	9.980787e-001	-9.896512e+000
365760	9.983994e-001	-1.011644e+001
370715	9.993090e-001	-1.027513e+001
375670	9.979394e-001	-1.049923e+001
380625	9.985176e-001	-1.072548e+001
385580	9.981945e-001	-1.092938e+001
390535	9.966311e-001	-1.112460e+001
395490	9.971872e-001	-1.137438e+001
400445	9.977116e-001	-1.160391e+001
405400	9.969194e-001	-1.185389e+001
410355	9.963967e-001	-1.210391e+001
415310	9.959877e-001	-1.232791e+001
420265	9.948729e-001	-1.260959e+001
425220	9.955759e-001	-1.292017e+001
430175	9.962631e-001	-1.320880e+001
435130	9.949673e-001	-1.343376e+001
440085	9.951238e-001	-1.374579e+001
445040	9.950946e-001	-1.410381e+001
449995	9.946498e-001	-1.435389e+001
454950	9.923486e-001	-1.468288e+001
459905	9.915467e-001	-1.501792e+001
464860	9.920488e-001	-1.539516e+001
469815	9.920751e-001	-1.574104e+001
474770	9.899042e-001	-1.614095e+001
479725	9.904282e-001	-1.650080e+001
484680	9.897078e-001	-1.693139e+001
489635	9.884982e-001	-1.729055e+001
494590	9.878525e-001	-1.778326e+001
499545	9.865743e-001	-1.831665e+001
504500	9.853637e-001	-1.879561e+001
509455	9.847497e-001	-1.944826e+001
514410	9.830703e-001	-1.994464e+001
519365	9.806128e-001	-2.055380e+001
524320	9.779146e-001	-2.118641e+001
529275	9.748593e-001	-2.201177e+001
534230	9.714035e-001	-2.278139e+001
539185	9.666420e-001	-2.354776e+001
544140	9.613283e-001	-2.435725e+001
549095	9.568092e-001	-2.527016e+001
554050	9.502345e-001	-2.620139e+001
559005	9.442545e-001	-2.720753e+001
563960	9.348421e-001	-2.855653e+001
568915	9.239852e-001	-2.994896e+001
573870	9.073472e-001	-3.157459e+001
578825	8.873768e-001	-3.325823e+001
583780	8.630230e-001	-3.502854e+001
588735	8.316914e-001	-3.675922e+001
593690	7.971887e-001	-3.841862e+001
598645	7.583495e-001	-3.975472e+001
603600	7.176202e-001	-4.101021e+001
608555	6.801988e-001	-4.177751e+001
613510	6.414109e-001	-4.254801e+001
618465	5.998531e-001	-4.320775e+001
623420	5.560004e-001	-4.372544e+001
628375	5.037034e-001	-4.370762e+001
633330	4.485578e-001	-4.316161e+001
638285	3.905415e-001	-4.070202e+001
643240	3.344755e-001	-3.548751e+001
648195	2.947826e-001	-2.681073e+001
653150	2.778248e-001	-1.585979e+001
658105	2.816102e-001	-6.592139e+000
663060	2.927496e-001	3.676350e-001
668015	3.075593e-001	5.785722e+000
672970	3.200651e-001	1.104561e+001
677925	3.373958e-001	1.650059e+001
682880	3.621343e-001	2.181591e+001
687835	3.956664e-001	2.622839e+001
692790	4.378834e-001	2.916584e+001
697745	4.817762e-001	3.087503e+001
702700	5.248259e-001	3.149977e+001
707655	5.654494e-001	3.139607e+001
712610	6.015400e-001	3.081875e+001
717565	6.339241e-001	3.009142e+001
722520	6.626516e-001	2.905980e+001
727475	6.888663e-001	2.806172e+001
732430	7.106194e-001	2.717830e+001
737385	7.328325e-001	2.619750e+001
742340	7.526203e-001	2.512345e+001
747295	7.700009e-001	2.438493e+001
752250	7.878491e-001	2.350241e+001
757205	8.052448e-001	2.264371e+001
762160	8.198878e-001	2.173582e+001
767115	8.329233e-001	2.091171e+001
772070	8.455118e-001	1.999416e+001
777025	8.555645e-001	1.923719e+001
781980	8.662220e-001	1.841041e+001
786935	8.750645e-001	1.767626e+001
791890	8.837575e-001	1.686600e+001
796845	8.920858e-001	1.621804e+001
801800	9.002611e-001	1.547285e+001
806755	9.067326e-001	1.476573e+001
811710	9.116721e-001	1.413499e+001
816665	9.178440e-001	1.347662e+001
821620	9.212428e-001	1.289345e+001
826575	9.263592e-001	1.232415e+001
831530	9.304299e-001	1.175745e+001
836485	9.330617e-001	1.117187e+001
841440	9.359878e-001	1.065482e+001
846395	9.389026e-001	1.024922e+001
851350	9.424780e-001	9.763122e+000
856305	9.452540e-001	9.336531e+000
861260	9.470372e-001	8.832651e+000
866215	9.485666e-001	8.508015e+000
871170	9.527725e-001	8.166180e+000
876125	9.550340e-001	7.751044e+000
881080	9.568344e-001	7.353582e+000
886035	9.581535e-001	6.944183e+000
890990	9.604472e-001	6.593530e+000
895945	9.615961e-001	6.279887e+000
900900	9.618836e-001	5.943732e+000
905855	9.642890e-001	5.601036e+000
910810	9.635065e-001	5.322870e+000
915765	9.665574e-001	4.983462e+000
920720	9.670875e-001	4.756324e+000
925675	9.686958e-001	4.562129e+000
930630	9.716094e-001	4.224635e+000
935585	9.726462e-001	3.862449e+000
940540	9.731346e-001	3.619409e+000
945495	9.738920e-001	3.316207e+000
950450	9.743160e-001	3.095505e+000
955405	9.757907e-001	2.806117e+000
960360	9.760946e-001	2.548118e+000
965315	9.769659e-001	2.351433e+000
970270	9.776561e-001	2.149030e+000
975225	9.791781e-001	1.897434e+000
980180	9.786861e-001	1.675880e+000
985135	9.787896e-001	1.457149e+000
990090	9.807480e-001	1.292834e+000
995045	9.809655e-001	1.023085e+000
1000000	9.799989e-001	8.950191e-001
