!Agilent Technologies,E5071C,MY46100305,A.07.02
!Date: Fri Jan 01 00:23:40 1988
!Data & Calibration Information:
!Freq	S11:SOLT1(ON)
# Hz S MA R 50
9000	9.568237e-001	-1.200712e+000
13955	1.025647e+000	4.126600e-001
18910	1.003431e+000	-3.204905e-001
23865	9.986102e-001	-1.498475e-001
28820	1.007230e+000	-5.443953e-001
33775	1.035315e+000	1.792457e+000
38730	9.797042e-001	1.797594e+000
43685	1.027612e+000	1.627981e+000
48640	9.841822e-001	-1.549906e+000
53595	9.988730e-001	-1.212516e+000
58550	9.968603e-001	-9.193896e-001
63505	9.959156e-001	-1.143682e+000
68460	1.003757e+000	-1.332141e+000
73415	9.962562e-001	-1.556356e+000
78370	9.987864e-001	-1.485581e+000
83325	9.976465e-001	-1.612031e+000
88280	9.979131e-001	-1.806301e+000
93235	9.966304e-001	-1.896217e+000
98190	9.972704e-001	-2.090725e+000
103145	9.961240e-001	-2.285678e+000
108100	9.959092e-001	-2.606080e+000
113055	9.935864e-001	-2.912405e+000
118010	9.907908e-001	-3.373361e+000
122965	9.854778e-001	-3.676365e+000
127920	9.795014e-001	-4.163209e+000
132875	9.678283e-001	-4.917037e+000
137830	9.496176e-001	-5.059390e+000
142785	9.241357e-001	-5.785701e+000
147740	8.870377e-001	-4.628778e+000
152695	8.683771e-001	-2.842195e+000
157650	8.723797e-001	6.913321e-001
162605	8.965388e-001	1.189428e+000
167560	9.321726e-001	2.854545e+000
172515	9.325958e-001	2.803142e+000
177470	9.397306e-001	2.254372e+000
182425	9.558694e-001	1.885326e+000
187380	9.572173e-001	2.147826e+000
192335	9.703275e-001	1.265278e+000
197290	9.791730e-001	1.768766e+000
202245	9.917697e-001	9.659213e-001
207200	9.865655e-001	9.836663e-001
212155	9.865423e-001	5.065179e-001
217110	9.857240e-001	6.207327e-001
222065	9.895961e-001	3.619892e-001
227020	9.907028e-001	1.127674e-001
231975	9.960874e-001	2.233761e-002
236930	9.910378e-001	-9.508416e-002
241885	9.898322e-001	-4.411352e-001
246840	9.904130e-001	-5.181067e-001
251795	9.861536e-001	-5.400767e-001
256750	9.862839e-001	-4.774241e-001
261705	9.867939e-001	-3.901171e-001
266660	9.889909e-001	-3.078032e-001
271615	9.877763e-001	-3.209914e-001
276570	9.911546e-001	-4.936944e-001
281525	9.926207e-001	-6.014609e-001
286480	9.931469e-001	-6.630110e-001
291435	9.934505e-001	-7.711875e-001
296390	9.957472e-001	-7.751392e-001
301345	9.927501e-001	-8.642345e-001
306300	9.945078e-001	-9.970614e-001
311255	9.943258e-001	-1.056706e+000
316210	9.944727e-001	-1.102628e+000
321165	9.951105e-001	-1.188130e+000
326120	9.937048e-001	-1.239502e+000
331075	9.939837e-001	-1.194149e+000
336030	9.935123e-001	-1.368701e+000
340985	9.950678e-001	-1.438632e+000
345940	9.952213e-001	-1.411482e+000
350895	9.946834e-001	-1.499948e+000
355850	9.938975e-001	-1.497160e+000
360805	9.948769e-001	-1.579876e+000
365760	9.952380e-001	-1.613310e+000
370715	9.955801e-001	-1.643454e+000
375670	9.952667e-001	-1.755028e+000
380625	9.949941e-001	-1.799778e+000
385580	9.945973e-001	-1.776377e+000
390535	9.949146e-001	-1.800039e+000
395490	9.947035e-001	-1.826458e+000
400445	9.959265e-001	-1.910306e+000
405400	9.952684e-001	-2.011293e+000
410355	9.950236e-001	-2.075688e+000
415310	9.952511e-001	-2.090530e+000
420265	9.939426e-001	-2.149615e+000
425220	9.946270e-001	-2.269888e+000
430175	9.953752e-001	-2.323936e+000
435130	9.949909e-001	-2.292499e+000
440085	9.947505e-001	-2.323268e+000
445040	9.953029e-001	-2.441343e+000
449995	9.938357e-001	-2.427136e+000
454950	9.926120e-001	-2.558496e+000
459905	9.930627e-001	-2.514169e+000
464860	9.922638e-001	-2.599319e+000
469815	9.918248e-001	-2.551990e+000
474770	9.921668e-001	-2.649186e+000
479725	9.929919e-001	-2.663657e+000
484680	9.917110e-001	-2.684354e+000
489635	9.911930e-001	-2.692791e+000
494590	9.924090e-001	-2.777193e+000
499545	9.902209e-001	-2.756233e+000
504500	9.902031e-001	-2.796535e+000
509455	9.907421e-001	-2.839491e+000
514410	9.906314e-001	-2.858849e+000
519365	9.918263e-001	-2.870514e+000
524320	9.912463e-001	-2.817894e+000
529275	9.912967e-001	-2.917113e+000
534230	9.920965e-001	-3.027753e+000
539185	9.915941e-001	-3.095702e+000
544140	9.914808e-001	-3.134311e+000
549095	9.902096e-001	-3.203938e+000
554050	9.889763e-001	-3.233930e+000
559005	9.887042e-001	-3.249362e+000
563960	9.869960e-001	-3.324475e+000
568915	9.866538e-001	-3.274260e+000
573870	9.854987e-001	-3.235528e+000
578825	9.866819e-001	-3.243822e+000
583780	9.870774e-001	-3.214906e+000
588735	9.872884e-001	-3.238307e+000
593690	9.877341e-001	-3.246366e+000
598645	9.867929e-001	-3.204194e+000
603600	9.879225e-001	-3.391294e+000
608555	9.884085e-001	-3.406255e+000
613510	9.889998e-001	-3.439629e+000
618465	9.871193e-001	-3.556568e+000
623420	9.882127e-001	-3.505025e+000
628375	9.864084e-001	-3.499167e+000
633330	9.855677e-001	-3.645716e+000
638285	9.869400e-001	-3.624962e+000
643240	9.861412e-001	-3.686429e+000
648195	9.857439e-001	-3.704773e+000
653150	9.858747e-001	-3.777611e+000
658105	9.834948e-001	-3.806179e+000
663060	9.806141e-001	-3.866241e+000
668015	9.796495e-001	-3.873100e+000
672970	9.791563e-001	-3.747844e+000
677925	9.765834e-001	-3.647765e+000
682880	9.753719e-001	-3.641832e+000
687835	9.764139e-001	-3.513399e+000
692790	9.760833e-001	-3.225275e+000
697745	9.780333e-001	-3.171483e+000
702700	9.803001e-001	-3.059358e+000
707655	9.824910e-001	-3.108531e+000
712610	9.844899e-001	-2.983870e+000
717565	9.852361e-001	-3.078974e+000
722520	9.886555e-001	-3.226116e+000
727475	9.902865e-001	-3.208749e+000
732430	9.895634e-001	-3.340711e+000
737385	9.912999e-001	-3.316208e+000
742340	9.924044e-001	-3.454893e+000
747295	9.944364e-001	-3.463758e+000
752250	9.945368e-001	-3.540422e+000
757205	9.951325e-001	-3.621621e+000
762160	9.946642e-001	-3.688321e+000
767115	9.948972e-001	-3.729663e+000
772070	9.946620e-001	-3.811282e+000
777025	9.949328e-001	-3.789503e+000
781980	9.945439e-001	-3.816178e+000
786935	9.951035e-001	-3.878280e+000
791890	9.949095e-001	-4.002444e+000
796845	9.964792e-001	-4.087157e+000
801800	9.961279e-001	-4.105432e+000
806755	9.960951e-001	-4.139456e+000
811710	9.957222e-001	-4.154880e+000
816665	9.970573e-001	-4.220677e+000
821620	9.965323e-001	-4.263644e+000
826575	9.953257e-001	-4.293790e+000
831530	9.961422e-001	-4.314227e+000
836485	9.952787e-001	-4.303686e+000
841440	9.967611e-001	-4.400450e+000
846395	9.962320e-001	-4.430314e+000
851350	9.973163e-001	-4.507681e+000
856305	9.966978e-001	-4.557645e+000
861260	9.966807e-001	-4.545453e+000
866215	9.965127e-001	-4.528342e+000
871170	9.967109e-001	-4.598943e+000
876125	9.962065e-001	-4.590757e+000
881080	9.962816e-001	-4.636391e+000
886035	9.964906e-001	-4.799643e+000
890990	9.962276e-001	-4.784929e+000
895945	9.965752e-001	-4.859154e+000
900900	9.973519e-001	-4.838284e+000
905855	9.962124e-001	-4.957385e+000
910810	9.960159e-001	-4.955073e+000
915765	9.961593e-001	-5.009269e+000
920720	9.962033e-001	-4.996626e+000
925675	9.961335e-001	-5.026957e+000
930630	9.959874e-001	-5.045913e+000
935585	9.962296e-001	-5.075080e+000
940540	9.967051e-001	-5.097140e+000
945495	9.968700e-001	-5.151471e+000
950450	9.961774e-001	-5.187102e+000
955405	9.964035e-001	-5.250250e+000
960360	9.959592e-001	-5.255741e+000
965315	9.969498e-001	-5.290776e+000
970270	9.976767e-001	-5.317847e+000
975225	9.967001e-001	-5.344268e+000
980180	9.975462e-001	-5.423268e+000
985135	9.973605e-001	-5.345883e+000
990090	9.968930e-001	-5.468799e+000
995045	9.979557e-001	-5.527936e+000
1000000	9.966945e-001	-5.527502e+000
