!Agilent Technologies,E5071C,MY46100305,A.07.02
!Date: Fri Jan 01 00:55:03 1988
!Data & Calibration Information:
!Freq	S11:SOLT1(ON)
# Hz S MA R 50
9000	9.592703e-001	-1.365943e+000
13955	1.060677e+000	1.038584e+000
18910	1.008446e+000	-5.698504e-001
23865	9.997497e-001	-5.388133e-002
28820	1.007307e+000	-1.253373e+000
33775	1.007532e+000	6.883626e-002
38730	9.895259e-001	-4.866339e-001
43685	1.003986e+000	-5.904567e-001
48640	9.909652e-001	-1.731864e+000
53595	9.944322e-001	-1.306974e+000
58550	1.003266e+000	-1.850742e+000
63505	9.931185e-001	-2.064725e+000
68460	1.006984e+000	-1.476882e+000
73415	9.981831e-001	-2.035802e+000
78370	9.998560e-001	-1.806594e+000
83325	1.000210e+000	-1.885432e+000
88280	1.000149e+000	-2.078874e+000
93235	1.000099e+000	-2.126683e+000
98190	1.001190e+000	-2.230219e+000
103145	1.000509e+000	-2.364476e+000
108100	1.000061e+000	-2.514917e+000
113055	9.999543e-001	-2.627899e+000
118010	9.991914e-001	-2.726087e+000
122965	1.000111e+000	-2.828127e+000
127920	1.001131e+000	-2.946747e+000
132875	9.989095e-001	-3.109682e+000
137830	9.989964e-001	-3.237691e+000
142785	9.986633e-001	-3.320654e+000
147740	9.988729e-001	-3.446316e+000
152695	9.987910e-001	-3.509079e+000
157650	1.000329e+000	-3.720122e+000
162605	1.000569e+000	-3.869103e+000
167560	9.984099e-001	-3.939705e+000
172515	9.993591e-001	-4.119171e+000
177470	9.994618e-001	-4.137586e+000
182425	9.993826e-001	-4.343057e+000
187380	9.992672e-001	-4.420158e+000
192335	9.998868e-001	-4.624687e+000
197290	9.991416e-001	-4.771200e+000
202245	9.995444e-001	-4.902595e+000
207200	9.997419e-001	-4.998421e+000
212155	9.994927e-001	-5.144193e+000
217110	9.994917e-001	-5.211163e+000
222065	1.000908e+000	-5.358083e+000
227020	9.988995e-001	-5.432711e+000
231975	1.000590e+000	-5.544038e+000
236930	1.000799e+000	-5.741014e+000
241885	9.995504e-001	-5.925701e+000
246840	1.000693e+000	-6.131995e+000
251795	9.997234e-001	-6.192387e+000
256750	1.000049e+000	-6.317139e+000
261705	9.995891e-001	-6.561489e+000
266660	1.000678e+000	-6.641363e+000
271615	9.994028e-001	-6.788491e+000
276570	9.990944e-001	-6.900594e+000
281525	1.000039e+000	-7.119836e+000
286480	9.991484e-001	-7.235336e+000
291435	9.992118e-001	-7.412558e+000
296390	1.000884e+000	-7.531898e+000
301345	9.994990e-001	-7.686206e+000
306300	9.998345e-001	-7.875334e+000
311255	1.000419e+000	-8.032939e+000
316210	9.992505e-001	-8.260250e+000
321165	9.996710e-001	-8.427683e+000
326120	9.977792e-001	-8.639593e+000
331075	9.996644e-001	-8.686193e+000
336030	9.984526e-001	-8.926966e+000
340985	9.988659e-001	-9.166477e+000
345940	9.985312e-001	-9.290164e+000
350895	9.982882e-001	-9.495735e+000
355850	9.990101e-001	-9.634271e+000
360805	9.984126e-001	-9.915583e+000
365760	9.984838e-001	-1.007516e+001
370715	9.996498e-001	-1.027393e+001
375670	9.974822e-001	-1.052127e+001
380625	9.980677e-001	-1.071007e+001
385580	9.990358e-001	-1.095299e+001
390535	9.979157e-001	-1.109409e+001
395490	9.973655e-001	-1.136585e+001
400445	9.979217e-001	-1.160347e+001
405400	9.964834e-001	-1.186162e+001
410355	9.959250e-001	-1.212483e+001
415310	9.958827e-001	-1.243302e+001
420265	9.963582e-001	-1.264767e+001
425220	9.955878e-001	-1.292489e+001
430175	9.969383e-001	-1.324540e+001
435130	9.943971e-001	-1.347880e+001
440085	9.952536e-001	-1.381256e+001
445040	9.954554e-001	-1.413775e+001
449995	9.944606e-001	-1.442200e+001
454950	9.925765e-001	-1.474983e+001
459905	9.923305e-001	-1.513640e+001
464860	9.916796e-001	-1.553179e+001
469815	9.922598e-001	-1.589265e+001
474770	9.901289e-001	-1.622487e+001
479725	9.906451e-001	-1.665268e+001
484680	9.886100e-001	-1.712125e+001
489635	9.867857e-001	-1.748954e+001
494590	9.865485e-001	-1.796695e+001
499545	9.841957e-001	-1.845530e+001
504500	9.829697e-001	-1.888127e+001
509455	9.806393e-001	-1.946219e+001
514410	9.790274e-001	-1.998366e+001
519365	9.770449e-001	-2.054635e+001
524320	9.747999e-001	-2.117935e+001
529275	9.719189e-001	-2.190361e+001
534230	9.691728e-001	-2.269474e+001
539185	9.664651e-001	-2.352948e+001
544140	9.596758e-001	-2.447214e+001
549095	9.522690e-001	-2.537134e+001
554050	9.437393e-001	-2.640967e+001
559005	9.355624e-001	-2.739128e+001
563960	9.231498e-001	-2.848783e+001
568915	9.138758e-001	-2.951761e+001
573870	9.013074e-001	-3.061422e+001
578825	8.891978e-001	-3.196857e+001
583780	8.736581e-001	-3.354147e+001
588735	8.520092e-001	-3.530895e+001
593690	8.252154e-001	-3.733769e+001
598645	7.897642e-001	-3.948599e+001
603600	7.472902e-001	-4.178401e+001
608555	6.972836e-001	-4.383823e+001
613510	6.395025e-001	-4.576238e+001
618465	5.739427e-001	-4.721267e+001
623420	5.040503e-001	-4.764650e+001
628375	4.316641e-001	-4.629013e+001
633330	3.652969e-001	-4.297881e+001
638285	3.067155e-001	-3.608390e+001
643240	2.666046e-001	-2.462671e+001
648195	2.548230e-001	-1.036301e+001
653150	2.707460e-001	2.463364e+000
658105	3.044675e-001	1.102313e+001
663060	3.396153e-001	1.524053e+001
668015	3.751975e-001	1.693484e+001
672970	4.035305e-001	1.735191e+001
677925	4.263974e-001	1.731649e+001
682880	4.430531e-001	1.701826e+001
687835	4.540483e-001	1.643671e+001
692790	4.574168e-001	1.652214e+001
697745	4.583518e-001	1.785783e+001
702700	4.667671e-001	2.062637e+001
707655	4.872662e-001	2.412980e+001
712610	5.195310e-001	2.701550e+001
717565	5.605216e-001	2.881437e+001
722520	6.051449e-001	2.952218e+001
727475	6.471648e-001	2.935249e+001
732430	6.842417e-001	2.875588e+001
737385	7.164236e-001	2.780749e+001
742340	7.458510e-001	2.666278e+001
747295	7.698624e-001	2.562769e+001
752250	7.924823e-001	2.446207e+001
757205	8.111775e-001	2.337617e+001
762160	8.268154e-001	2.228027e+001
767115	8.405546e-001	2.125550e+001
772070	8.523487e-001	2.033021e+001
777025	8.634322e-001	1.944095e+001
781980	8.755196e-001	1.852686e+001
786935	8.835001e-001	1.766978e+001
791890	8.910195e-001	1.683713e+001
796845	8.976673e-001	1.610885e+001
801800	9.049460e-001	1.538853e+001
806755	9.094178e-001	1.461366e+001
811710	9.150499e-001	1.404432e+001
816665	9.208693e-001	1.341636e+001
821620	9.243864e-001	1.281210e+001
826575	9.287883e-001	1.223821e+001
831530	9.337423e-001	1.166928e+001
836485	9.361550e-001	1.113028e+001
841440	9.402569e-001	1.060571e+001
846395	9.421982e-001	1.021113e+001
851350	9.472580e-001	9.668922e+000
856305	9.492515e-001	9.224827e+000
861260	9.511431e-001	8.796924e+000
866215	9.536201e-001	8.396463e+000
871170	9.566665e-001	8.042467e+000
876125	9.582171e-001	7.596636e+000
881080	9.596631e-001	7.189826e+000
886035	9.610738e-001	6.743053e+000
890990	9.625235e-001	6.367896e+000
895945	9.636555e-001	6.049322e+000
900900	9.651442e-001	5.787440e+000
905855	9.665904e-001	5.392542e+000
910810	9.666596e-001	5.082895e+000
915765	9.689723e-001	4.707453e+000
920720	9.688363e-001	4.475289e+000
925675	9.697539e-001	4.282695e+000
930630	9.717973e-001	3.943240e+000
935585	9.726007e-001	3.703106e+000
940540	9.740680e-001	3.455413e+000
945495	9.739342e-001	3.199757e+000
950450	9.735132e-001	2.971575e+000
955405	9.756743e-001	2.710142e+000
960360	9.766093e-001	2.394943e+000
965315	9.774958e-001	2.259537e+000
970270	9.790363e-001	2.028233e+000
975225	9.799720e-001	1.808112e+000
980180	9.791239e-001	1.560519e+000
985135	9.799717e-001	1.404219e+000
990090	9.809061e-001	1.178827e+000
995045	9.818181e-001	8.819567e-001
1000000	9.824457e-001	7.433258e-001
