!Agilent Technologies,E5071C,MY46100305,A.07.02
!Date: Fri Jan 01 00:44:19 1988
!Data & Calibration Information:
!Freq	S11:SOLT1(ON)
# Hz S MA R 50
9000	9.558167e-001	-1.301408e+000
13955	1.050431e+000	8.856589e-001
18910	1.003961e+000	-4.706498e-001
23865	1.002508e+000	5.908243e-002
28820	1.000595e+000	-1.569636e+000
33775	1.011880e+000	2.124719e-001
38730	9.877889e-001	-3.948551e-001
43685	1.007637e+000	-6.215016e-001
48640	9.878725e-001	-1.989318e+000
53595	9.933824e-001	-1.506397e+000
58550	1.001745e+000	-1.949520e+000
63505	9.929615e-001	-2.173299e+000
68460	1.007108e+000	-1.661943e+000
73415	9.988963e-001	-2.346239e+000
78370	9.990571e-001	-2.197839e+000
83325	9.976267e-001	-2.349939e+000
88280	9.975812e-001	-2.577460e+000
93235	9.969823e-001	-2.706634e+000
98190	9.971473e-001	-2.938209e+000
103145	9.970389e-001	-3.118632e+000
108100	9.952523e-001	-3.545436e+000
113055	9.935017e-001	-3.845340e+000
118010	9.905141e-001	-4.214400e+000
122965	9.866440e-001	-4.564387e+000
127920	9.830289e-001	-5.103173e+000
132875	9.717232e-001	-5.676641e+000
137830	9.566325e-001	-6.349352e+000
142785	9.341727e-001	-6.896459e+000
147740	9.037723e-001	-6.824806e+000
152695	8.647290e-001	-4.708989e+000
157650	8.558443e-001	-1.708420e+000
162605	8.852440e-001	-2.519873e-001
167560	9.196116e-001	1.053529e+000
172515	9.309064e-001	1.053233e+000
177470	9.458595e-001	1.059341e+000
182425	9.639949e-001	6.456744e-001
187380	9.686012e-001	1.782118e-001
192335	9.766033e-001	1.391765e-001
197290	9.778914e-001	-2.941347e-001
202245	9.854043e-001	-7.008970e-001
207200	9.879934e-001	-8.605192e-001
212155	9.889711e-001	-1.237565e+000
217110	9.904612e-001	-1.473281e+000
222065	9.929878e-001	-1.740287e+000
227020	9.924833e-001	-1.956564e+000
231975	9.934561e-001	-2.154793e+000
236930	9.940984e-001	-2.427556e+000
241885	9.907747e-001	-2.685031e+000
246840	9.914565e-001	-2.873198e+000
251795	9.876696e-001	-2.881357e+000
256750	9.861554e-001	-2.893213e+000
261705	9.851161e-001	-2.915692e+000
266660	9.879798e-001	-2.869866e+000
271615	9.888468e-001	-2.905593e+000
276570	9.914563e-001	-2.976916e+000
281525	9.932642e-001	-3.159991e+000
286480	9.924693e-001	-3.255386e+000
291435	9.926101e-001	-3.449674e+000
296390	9.947536e-001	-3.523428e+000
301345	9.937364e-001	-3.672103e+000
306300	9.938427e-001	-3.775381e+000
311255	9.942831e-001	-3.869514e+000
316210	9.937594e-001	-3.983997e+000
321165	9.944116e-001	-4.069783e+000
326120	9.935705e-001	-4.220161e+000
331075	9.950933e-001	-4.280130e+000
336030	9.941597e-001	-4.362786e+000
340985	9.941756e-001	-4.480756e+000
345940	9.944858e-001	-4.587335e+000
350895	9.945588e-001	-4.631741e+000
355850	9.943400e-001	-4.700782e+000
360805	9.938849e-001	-4.847431e+000
365760	9.952183e-001	-4.963055e+000
370715	9.958476e-001	-4.978107e+000
375670	9.943278e-001	-5.130132e+000
380625	9.949631e-001	-5.222988e+000
385580	9.946030e-001	-5.256176e+000
390535	9.948893e-001	-5.365375e+000
395490	9.945035e-001	-5.447242e+000
400445	9.948991e-001	-5.549318e+000
405400	9.953988e-001	-5.648975e+000
410355	9.952935e-001	-5.713769e+000
415310	9.955507e-001	-5.838929e+000
420265	9.941395e-001	-5.971551e+000
425220	9.956140e-001	-6.104376e+000
430175	9.954517e-001	-6.166950e+000
435130	9.945642e-001	-6.245773e+000
440085	9.947699e-001	-6.303101e+000
445040	9.950984e-001	-6.469919e+000
449995	9.943040e-001	-6.507162e+000
454950	9.932909e-001	-6.647328e+000
459905	9.923671e-001	-6.750392e+000
464860	9.933717e-001	-6.806413e+000
469815	9.919358e-001	-6.843291e+000
474770	9.914693e-001	-7.020090e+000
479725	9.913655e-001	-7.026679e+000
484680	9.923976e-001	-7.094408e+000
489635	9.923759e-001	-7.135358e+000
494590	9.913812e-001	-7.226973e+000
499545	9.903087e-001	-7.324579e+000
504500	9.900511e-001	-7.307597e+000
509455	9.907005e-001	-7.464998e+000
514410	9.909624e-001	-7.487288e+000
519365	9.913081e-001	-7.576020e+000
524320	9.914101e-001	-7.591399e+000
529275	9.909331e-001	-7.723282e+000
534230	9.919942e-001	-7.804025e+000
539185	9.924728e-001	-7.915430e+000
544140	9.927820e-001	-8.018849e+000
549095	9.897423e-001	-8.148178e+000
554050	9.887268e-001	-8.253953e+000
559005	9.890216e-001	-8.297613e+000
563960	9.877664e-001	-8.381562e+000
568915	9.876300e-001	-8.452555e+000
573870	9.863836e-001	-8.463697e+000
578825	9.876401e-001	-8.451175e+000
583780	9.868571e-001	-8.473507e+000
588735	9.868048e-001	-8.550051e+000
593690	9.866470e-001	-8.591870e+000
598645	9.880302e-001	-8.689969e+000
603600	9.878245e-001	-8.797332e+000
608555	9.884202e-001	-8.897330e+000
613510	9.884548e-001	-8.952656e+000
618465	9.876704e-001	-9.130897e+000
623420	9.882302e-001	-9.147092e+000
628375	9.860060e-001	-9.203423e+000
633330	9.857795e-001	-9.357152e+000
638285	9.867018e-001	-9.380094e+000
643240	9.847369e-001	-9.467085e+000
648195	9.862936e-001	-9.536265e+000
653150	9.845270e-001	-9.675396e+000
658105	9.845016e-001	-9.780135e+000
663060	9.819486e-001	-9.887029e+000
668015	9.813339e-001	-9.921172e+000
672970	9.798588e-001	-9.888407e+000
677925	9.773521e-001	-9.841830e+000
682880	9.771373e-001	-9.884891e+000
687835	9.756697e-001	-9.720799e+000
692790	9.757350e-001	-9.583050e+000
697745	9.772293e-001	-9.638264e+000
702700	9.780171e-001	-9.505293e+000
707655	9.802576e-001	-9.495065e+000
712610	9.835069e-001	-9.500366e+000
717565	9.852125e-001	-9.624545e+000
722520	9.874585e-001	-9.710270e+000
727475	9.882901e-001	-9.772285e+000
732430	9.894256e-001	-9.914591e+000
737385	9.906666e-001	-9.997380e+000
742340	9.923704e-001	-1.018581e+001
747295	9.934929e-001	-1.018723e+001
752250	9.938308e-001	-1.036025e+001
757205	9.932062e-001	-1.043408e+001
762160	9.943255e-001	-1.055809e+001
767115	9.930779e-001	-1.059069e+001
772070	9.931934e-001	-1.076417e+001
777025	9.943677e-001	-1.089999e+001
781980	9.941393e-001	-1.096074e+001
786935	9.943089e-001	-1.106284e+001
791890	9.953725e-001	-1.118654e+001
796845	9.957379e-001	-1.124638e+001
801800	9.959894e-001	-1.135013e+001
806755	9.953623e-001	-1.140049e+001
811710	9.946449e-001	-1.150124e+001
816665	9.956167e-001	-1.160247e+001
821620	9.956181e-001	-1.170645e+001
826575	9.955976e-001	-1.170901e+001
831530	9.956678e-001	-1.178090e+001
836485	9.945061e-001	-1.194905e+001
841440	9.948486e-001	-1.203205e+001
846395	9.944541e-001	-1.203816e+001
851350	9.960591e-001	-1.217863e+001
856305	9.960582e-001	-1.232128e+001
861260	9.955795e-001	-1.240960e+001
866215	9.957366e-001	-1.241122e+001
871170	9.957080e-001	-1.254479e+001
876125	9.959269e-001	-1.253910e+001
881080	9.953039e-001	-1.262742e+001
886035	9.953084e-001	-1.274888e+001
890990	9.951079e-001	-1.286893e+001
895945	9.966314e-001	-1.292824e+001
900900	9.971491e-001	-1.298548e+001
905855	9.956618e-001	-1.309241e+001
910810	9.940933e-001	-1.321054e+001
915765	9.953074e-001	-1.326981e+001
920720	9.953242e-001	-1.329131e+001
925675	9.936191e-001	-1.334376e+001
930630	9.955564e-001	-1.348056e+001
935585	9.947791e-001	-1.358445e+001
940540	9.955919e-001	-1.362668e+001
945495	9.957720e-001	-1.372950e+001
950450	9.960022e-001	-1.381880e+001
955405	9.953731e-001	-1.396825e+001
960360	9.953795e-001	-1.396110e+001
965315	9.948424e-001	-1.401103e+001
970270	9.957171e-001	-1.412190e+001
975225	9.971353e-001	-1.420268e+001
980180	9.964717e-001	-1.425710e+001
985135	9.956490e-001	-1.432487e+001
990090	9.957638e-001	-1.439446e+001
995045	9.971413e-001	-1.450268e+001
1000000	9.956623e-001	-1.449399e+001
