!Agilent Technologies,E5071C,MY46100305,A.07.02
!Date: Fri Jan 01 00:25:02 1988
!Data & Calibration Information:
!Freq	S11:SOLT1(ON)
# Hz S MA R 50
9000	9.577018e-001	-1.173908e+000
13955	1.027760e+000	5.061094e-001
18910	1.002765e+000	-3.273580e-001
23865	9.994413e-001	-5.642927e-002
28820	1.003134e+000	-7.335459e-001
33775	1.015790e+000	6.278596e-001
38730	9.902304e-001	3.836360e-001
43685	1.013793e+000	1.872224e-001
48640	9.863196e-001	-1.686386e+000
53595	9.985073e-001	-1.115610e+000
58550	1.001752e+000	-6.495609e-001
63505	1.000520e+000	-1.237682e+000
68460	1.005128e+000	-1.174926e+000
73415	1.000222e+000	-1.723299e+000
78370	9.992325e-001	-1.521804e+000
83325	9.981436e-001	-1.656207e+000
88280	9.988348e-001	-1.920427e+000
93235	9.971982e-001	-1.990790e+000
98190	9.976114e-001	-2.198159e+000
103145	9.966165e-001	-2.426857e+000
108100	9.959305e-001	-2.738442e+000
113055	9.938455e-001	-3.079884e+000
118010	9.907937e-001	-3.470053e+000
122965	9.869754e-001	-3.906040e+000
127920	9.795452e-001	-4.448297e+000
132875	9.713304e-001	-5.239996e+000
137830	9.527492e-001	-6.111503e+000
142785	9.227096e-001	-6.568044e+000
147740	8.817759e-001	-6.005098e+000
152695	8.449011e-001	-3.835038e+000
157650	8.396740e-001	1.854591e-001
162605	8.726016e-001	2.843698e+000
167560	9.101138e-001	3.853424e+000
172515	9.303036e-001	3.846875e+000
177470	9.491859e-001	3.457391e+000
182425	9.689754e-001	3.114882e+000
187380	9.759538e-001	2.221870e+000
192335	9.828174e-001	1.875609e+000
197290	9.853836e-001	1.152254e+000
202245	9.861994e-001	1.085202e+000
207200	9.889945e-001	8.164635e-001
212155	9.892723e-001	4.933394e-001
217110	9.885739e-001	4.020638e-001
222065	9.926736e-001	9.420818e-002
227020	9.905808e-001	-1.311428e-001
231975	9.894921e-001	-1.705303e-001
236930	9.894714e-001	-3.914492e-001
241885	9.855397e-001	-6.631931e-001
246840	9.834470e-001	-7.020842e-001
251795	9.779850e-001	-6.143845e-001
256750	9.769185e-001	-3.073900e-001
261705	9.814409e-001	-7.559735e-002
266660	9.872575e-001	-1.044645e-001
271615	9.872166e-001	-1.498211e-001
276570	9.908905e-001	-2.875215e-001
281525	9.909525e-001	-4.078937e-001
286480	9.916480e-001	-5.555314e-001
291435	9.920977e-001	-6.317507e-001
296390	9.946034e-001	-7.581384e-001
301345	9.935515e-001	-7.518936e-001
306300	9.942857e-001	-9.189383e-001
311255	9.941985e-001	-9.695729e-001
316210	9.935724e-001	-1.013466e+000
321165	9.938853e-001	-1.046793e+000
326120	9.937209e-001	-1.164545e+000
331075	9.947415e-001	-1.154852e+000
336030	9.936362e-001	-1.281153e+000
340985	9.936725e-001	-1.295694e+000
345940	9.938873e-001	-1.421271e+000
350895	9.941307e-001	-1.420397e+000
355850	9.954179e-001	-1.473963e+000
360805	9.940925e-001	-1.590819e+000
365760	9.937987e-001	-1.601611e+000
370715	9.953900e-001	-1.645317e+000
375670	9.938647e-001	-1.710919e+000
380625	9.937791e-001	-1.810515e+000
385580	9.937818e-001	-1.793284e+000
390535	9.931036e-001	-1.826898e+000
395490	9.924119e-001	-1.884036e+000
400445	9.923555e-001	-1.898712e+000
405400	9.917381e-001	-1.960474e+000
410355	9.899967e-001	-1.978824e+000
415310	9.907620e-001	-1.970005e+000
420265	9.923374e-001	-1.932246e+000
425220	9.938716e-001	-2.008708e+000
430175	9.952064e-001	-2.143699e+000
435130	9.941349e-001	-2.190303e+000
440085	9.949368e-001	-2.210092e+000
445040	9.943750e-001	-2.355501e+000
449995	9.927652e-001	-2.379091e+000
454950	9.919148e-001	-2.395779e+000
459905	9.917831e-001	-2.423976e+000
464860	9.923968e-001	-2.407622e+000
469815	9.927224e-001	-2.456615e+000
474770	9.924508e-001	-2.455281e+000
479725	9.939761e-001	-2.522306e+000
484680	9.944285e-001	-2.572702e+000
489635	9.940217e-001	-2.615062e+000
494590	9.947694e-001	-2.718089e+000
499545	9.926815e-001	-2.794636e+000
504500	9.917120e-001	-2.862435e+000
509455	9.926314e-001	-2.927980e+000
514410	9.918750e-001	-2.933517e+000
519365	9.911526e-001	-2.963244e+000
524320	9.906667e-001	-2.969989e+000
529275	9.914072e-001	-3.038989e+000
534230	9.920407e-001	-3.109722e+000
539185	9.920643e-001	-3.126469e+000
544140	9.902621e-001	-3.217915e+000
549095	9.909307e-001	-3.264208e+000
554050	9.889435e-001	-3.332077e+000
559005	9.870520e-001	-3.331509e+000
563960	9.855466e-001	-3.352672e+000
568915	9.852522e-001	-3.296127e+000
573870	9.855813e-001	-3.312511e+000
578825	9.868480e-001	-3.332290e+000
583780	9.870097e-001	-3.333245e+000
588735	9.862798e-001	-3.401355e+000
593690	9.857018e-001	-3.479328e+000
598645	9.852121e-001	-3.551535e+000
603600	9.844168e-001	-3.691664e+000
608555	9.838586e-001	-3.762360e+000
613510	9.811563e-001	-3.758224e+000
618465	9.784134e-001	-3.832968e+000
623420	9.771123e-001	-3.697657e+000
628375	9.744191e-001	-3.469361e+000
633330	9.744505e-001	-3.420728e+000
638285	9.765029e-001	-3.226473e+000
643240	9.781966e-001	-3.266239e+000
648195	9.790321e-001	-3.206363e+000
653150	9.801159e-001	-3.293294e+000
658105	9.791472e-001	-3.340639e+000
663060	9.786890e-001	-3.322045e+000
668015	9.768933e-001	-3.261246e+000
672970	9.787922e-001	-3.218097e+000
677925	9.796477e-001	-3.204647e+000
682880	9.792589e-001	-3.187992e+000
687835	9.798204e-001	-3.152020e+000
692790	9.802100e-001	-3.097059e+000
697745	9.813862e-001	-3.153706e+000
702700	9.827277e-001	-3.104976e+000
707655	9.821768e-001	-3.063231e+000
712610	9.841861e-001	-3.073954e+000
717565	9.845702e-001	-3.070811e+000
722520	9.863570e-001	-3.094040e+000
727475	9.881004e-001	-3.120126e+000
732430	9.886841e-001	-3.151768e+000
737385	9.900905e-001	-3.242717e+000
742340	9.904115e-001	-3.378326e+000
747295	9.917803e-001	-3.443126e+000
752250	9.922255e-001	-3.423542e+000
757205	9.919012e-001	-3.494790e+000
762160	9.925840e-001	-3.538934e+000
767115	9.924626e-001	-3.518181e+000
772070	9.925381e-001	-3.631534e+000
777025	9.923289e-001	-3.646667e+000
781980	9.937686e-001	-3.695855e+000
786935	9.938970e-001	-3.730550e+000
791890	9.955920e-001	-3.866735e+000
796845	9.960002e-001	-3.845435e+000
801800	9.953180e-001	-3.900496e+000
806755	9.955916e-001	-3.999286e+000
811710	9.953678e-001	-3.959877e+000
816665	9.964135e-001	-4.046566e+000
821620	9.953909e-001	-4.071343e+000
826575	9.958361e-001	-4.174228e+000
831530	9.964496e-001	-4.175518e+000
836485	9.955252e-001	-4.268328e+000
841440	9.957359e-001	-4.250059e+000
846395	9.952716e-001	-4.335450e+000
851350	9.964123e-001	-4.408931e+000
856305	9.957882e-001	-4.420330e+000
861260	9.951649e-001	-4.458823e+000
866215	9.949203e-001	-4.457167e+000
871170	9.960984e-001	-4.542107e+000
876125	9.962213e-001	-4.506428e+000
881080	9.955318e-001	-4.525430e+000
886035	9.955152e-001	-4.669495e+000
890990	9.953290e-001	-4.665977e+000
895945	9.950951e-001	-4.704124e+000
900900	9.966059e-001	-4.717908e+000
905855	9.959377e-001	-4.803244e+000
910810	9.955695e-001	-4.788255e+000
915765	9.957665e-001	-4.854711e+000
920720	9.961676e-001	-4.835236e+000
925675	9.953929e-001	-4.846686e+000
930630	9.964971e-001	-4.876765e+000
935585	9.967694e-001	-4.938191e+000
940540	9.974529e-001	-4.945376e+000
945495	9.964286e-001	-5.018640e+000
950450	9.966128e-001	-5.072768e+000
955405	9.968206e-001	-5.164188e+000
960360	9.969475e-001	-5.169422e+000
965315	9.972930e-001	-5.165164e+000
970270	9.965798e-001	-5.188784e+000
975225	9.978191e-001	-5.225201e+000
980180	9.970941e-001	-5.232539e+000
985135	9.969848e-001	-5.317248e+000
990090	9.975345e-001	-5.331880e+000
995045	9.990583e-001	-5.421572e+000
1000000	9.972495e-001	-5.388344e+000
