!Agilent Technologies,E5071C,MY46100305,A.07.02
!Date: Fri Jan 01 00:45:17 1988
!Data & Calibration Information:
!Freq	S11:SOLT1(ON)
# Hz S MA R 50
9000	9.560842e-001	-1.381042e+000
13955	1.052614e+000	7.426949e-001
18910	1.003741e+000	-3.262094e-001
23865	1.002249e+000	-3.667207e-002
28820	1.000820e+000	-1.292696e+000
33775	1.009316e+000	2.453692e-001
38730	9.869777e-001	-4.427259e-001
43685	1.005298e+000	-6.727159e-001
48640	9.886841e-001	-2.057665e+000
53595	9.909442e-001	-1.450909e+000
58550	1.004277e+000	-1.353958e+000
63505	1.000353e+000	-2.051616e+000
68460	1.004096e+000	-1.534690e+000
73415	1.000918e+000	-2.200247e+000
78370	9.989170e-001	-2.213807e+000
83325	9.984239e-001	-2.353736e+000
88280	9.973300e-001	-2.639963e+000
93235	9.978425e-001	-2.780861e+000
98190	9.974982e-001	-3.028420e+000
103145	9.971013e-001	-3.317227e+000
108100	9.958147e-001	-3.675662e+000
113055	9.947392e-001	-4.130463e+000
118010	9.925441e-001	-4.623355e+000
122965	9.883223e-001	-5.124313e+000
127920	9.786280e-001	-5.652131e+000
132875	9.677875e-001	-6.242883e+000
137830	9.502230e-001	-6.995937e+000
142785	9.254988e-001	-7.370727e+000
147740	8.811740e-001	-6.636161e+000
152695	8.629189e-001	-4.460860e+000
157650	8.608955e-001	-1.590865e+000
162605	8.607250e-001	6.850060e-001
167560	9.126329e-001	1.686156e+000
172515	9.418461e-001	1.694577e+000
177470	9.410738e-001	1.105162e+000
182425	9.622567e-001	1.043910e+000
187380	9.734191e-001	5.755446e-001
192335	9.759823e-001	1.545467e-001
197290	9.869686e-001	-6.310705e-001
202245	9.882032e-001	-7.506236e-001
207200	9.858406e-001	-1.126053e+000
212155	9.939819e-001	-1.255077e+000
217110	9.929392e-001	-1.608189e+000
222065	9.911379e-001	-1.866291e+000
227020	9.901767e-001	-1.912668e+000
231975	9.918829e-001	-2.299562e+000
236930	9.899128e-001	-2.558194e+000
241885	9.873760e-001	-2.883055e+000
246840	9.842550e-001	-2.973508e+000
251795	9.785972e-001	-3.027314e+000
256750	9.760309e-001	-2.696232e+000
261705	9.793015e-001	-2.529992e+000
266660	9.861197e-001	-2.546111e+000
271615	9.873226e-001	-2.582579e+000
276570	9.899074e-001	-2.758635e+000
281525	9.920254e-001	-2.925744e+000
286480	9.913868e-001	-3.088696e+000
291435	9.920713e-001	-3.298661e+000
296390	9.945917e-001	-3.358870e+000
301345	9.922652e-001	-3.525220e+000
306300	9.942528e-001	-3.686296e+000
311255	9.942372e-001	-3.752452e+000
316210	9.941045e-001	-3.880834e+000
321165	9.934643e-001	-3.951538e+000
326120	9.927922e-001	-4.114092e+000
331075	9.935407e-001	-4.193209e+000
336030	9.939487e-001	-4.331084e+000
340985	9.932385e-001	-4.430525e+000
345940	9.948741e-001	-4.557578e+000
350895	9.939708e-001	-4.576164e+000
355850	9.959214e-001	-4.701789e+000
360805	9.941117e-001	-4.848371e+000
365760	9.946440e-001	-4.986012e+000
370715	9.939099e-001	-5.035314e+000
375670	9.935371e-001	-5.146323e+000
380625	9.937440e-001	-5.219200e+000
385580	9.931420e-001	-5.270152e+000
390535	9.923460e-001	-5.356241e+000
395490	9.930096e-001	-5.468783e+000
400445	9.927797e-001	-5.583518e+000
405400	9.927214e-001	-5.645277e+000
410355	9.902076e-001	-5.738397e+000
415310	9.912416e-001	-5.710119e+000
420265	9.923172e-001	-5.729167e+000
425220	9.930152e-001	-5.877585e+000
430175	9.946009e-001	-5.969158e+000
435130	9.943510e-001	-6.090435e+000
440085	9.937790e-001	-6.246585e+000
445040	9.944273e-001	-6.330468e+000
449995	9.928674e-001	-6.444100e+000
454950	9.921541e-001	-6.512888e+000
459905	9.918940e-001	-6.544840e+000
464860	9.918895e-001	-6.670762e+000
469815	9.914921e-001	-6.687907e+000
474770	9.922228e-001	-6.760753e+000
479725	9.940297e-001	-6.940788e+000
484680	9.949420e-001	-6.973665e+000
489635	9.933779e-001	-7.036095e+000
494590	9.936170e-001	-7.186793e+000
499545	9.928941e-001	-7.311218e+000
504500	9.924163e-001	-7.337191e+000
509455	9.927261e-001	-7.490620e+000
514410	9.928180e-001	-7.609594e+000
519365	9.914480e-001	-7.652262e+000
524320	9.909955e-001	-7.698677e+000
529275	9.914662e-001	-7.771513e+000
534230	9.915648e-001	-7.909440e+000
539185	9.912914e-001	-8.000415e+000
544140	9.913372e-001	-8.125878e+000
549095	9.907479e-001	-8.305095e+000
554050	9.887418e-001	-8.344966e+000
559005	9.877969e-001	-8.393737e+000
563960	9.853278e-001	-8.471632e+000
568915	9.867466e-001	-8.477808e+000
573870	9.855112e-001	-8.486691e+000
578825	9.867260e-001	-8.617629e+000
583780	9.857903e-001	-8.694975e+000
588735	9.846860e-001	-8.790620e+000
593690	9.852107e-001	-8.840135e+000
598645	9.848945e-001	-8.905260e+000
603600	9.835585e-001	-9.166327e+000
608555	9.840991e-001	-9.139938e+000
613510	9.824809e-001	-9.312897e+000
618465	9.793239e-001	-9.409750e+000
623420	9.783622e-001	-9.319752e+000
628375	9.751545e-001	-9.242480e+000
633330	9.739686e-001	-9.226201e+000
638285	9.755733e-001	-9.066943e+000
643240	9.764621e-001	-9.069958e+000
648195	9.794351e-001	-9.093148e+000
653150	9.797247e-001	-9.280981e+000
658105	9.788518e-001	-9.338757e+000
663060	9.769124e-001	-9.348995e+000
668015	9.766952e-001	-9.344100e+000
672970	9.785034e-001	-9.307954e+000
677925	9.795309e-001	-9.289920e+000
682880	9.786356e-001	-9.399552e+000
687835	9.810795e-001	-9.381392e+000
692790	9.802542e-001	-9.461719e+000
697745	9.805127e-001	-9.567505e+000
702700	9.814947e-001	-9.472955e+000
707655	9.800598e-001	-9.562496e+000
712610	9.824622e-001	-9.528848e+000
717565	9.836521e-001	-9.581482e+000
722520	9.861084e-001	-9.632480e+000
727475	9.882038e-001	-9.688293e+000
732430	9.880603e-001	-9.841316e+000
737385	9.886811e-001	-9.899859e+000
742340	9.903929e-001	-1.009643e+001
747295	9.914076e-001	-1.023664e+001
752250	9.920681e-001	-1.027337e+001
757205	9.909126e-001	-1.039874e+001
762160	9.923902e-001	-1.043079e+001
767115	9.916918e-001	-1.050566e+001
772070	9.914261e-001	-1.058002e+001
777025	9.916843e-001	-1.067302e+001
781980	9.929731e-001	-1.077611e+001
786935	9.931984e-001	-1.085781e+001
791890	9.939477e-001	-1.100866e+001
796845	9.946565e-001	-1.107641e+001
801800	9.946673e-001	-1.118657e+001
806755	9.954008e-001	-1.125940e+001
811710	9.943998e-001	-1.135841e+001
816665	9.943783e-001	-1.145081e+001
821620	9.949190e-001	-1.148352e+001
826575	9.942277e-001	-1.162864e+001
831530	9.947976e-001	-1.175601e+001
836485	9.949666e-001	-1.189577e+001
841440	9.955606e-001	-1.194293e+001
846395	9.939539e-001	-1.196552e+001
851350	9.950782e-001	-1.204814e+001
856305	9.951364e-001	-1.215822e+001
861260	9.958937e-001	-1.224787e+001
866215	9.946786e-001	-1.225309e+001
871170	9.956170e-001	-1.232859e+001
876125	9.954400e-001	-1.242018e+001
881080	9.950706e-001	-1.247928e+001
886035	9.947853e-001	-1.268679e+001
890990	9.951512e-001	-1.272880e+001
895945	9.965934e-001	-1.285070e+001
900900	9.953776e-001	-1.288979e+001
905855	9.947848e-001	-1.299402e+001
910810	9.943984e-001	-1.301151e+001
915765	9.946720e-001	-1.310203e+001
920720	9.951767e-001	-1.313546e+001
925675	9.943734e-001	-1.321038e+001
930630	9.971521e-001	-1.330544e+001
935585	9.959311e-001	-1.345905e+001
940540	9.965770e-001	-1.348407e+001
945495	9.956766e-001	-1.357446e+001
950450	9.943661e-001	-1.365146e+001
955405	9.958933e-001	-1.381093e+001
960360	9.948637e-001	-1.381575e+001
965315	9.948888e-001	-1.391638e+001
970270	9.960533e-001	-1.401058e+001
975225	9.965453e-001	-1.409058e+001
980180	9.966036e-001	-1.414772e+001
985135	9.965604e-001	-1.425101e+001
990090	9.968205e-001	-1.430607e+001
995045	9.959517e-001	-1.434181e+001
1000000	9.962698e-001	-1.444204e+001
