!Agilent Technologies,E5071C,MY46100305,A.07.02
!Date: Fri Jan 01 00:56:04 1988
!Data & Calibration Information:
!Freq	S11:SOLT1(ON)
# Hz S MA R 50
9000	9.615428e-001	-1.408453e+000
13955	1.062882e+000	1.005966e+000
18910	1.006822e+000	-4.739071e-001
23865	9.984422e-001	-1.244086e-002
28820	1.009504e+000	-1.250955e+000
33775	9.901570e-001	-1.183444e+000
38730	9.980819e-001	-1.660136e+000
43685	9.896441e-001	-1.767480e+000
48640	9.996147e-001	-1.328641e+000
53595	9.894798e-001	-9.897240e-001
58550	1.012402e+000	-1.872945e+000
63505	1.001739e+000	-2.344266e+000
68460	1.007844e+000	-1.416129e+000
73415	9.989453e-001	-2.041375e+000
78370	1.000124e+000	-1.761620e+000
83325	9.998816e-001	-1.885106e+000
88280	9.996743e-001	-2.056588e+000
93235	9.997580e-001	-2.125585e+000
98190	1.000449e+000	-2.273027e+000
103145	1.001218e+000	-2.315779e+000
108100	9.999179e-001	-2.496823e+000
113055	9.997932e-001	-2.582162e+000
118010	9.992621e-001	-2.791859e+000
122965	1.000476e+000	-2.877012e+000
127920	9.998562e-001	-2.978932e+000
132875	9.994481e-001	-3.127327e+000
137830	9.990320e-001	-3.239398e+000
142785	9.987932e-001	-3.407532e+000
147740	9.993169e-001	-3.409431e+000
152695	9.994145e-001	-3.531582e+000
157650	1.000356e+000	-3.693970e+000
162605	1.000138e+000	-3.855995e+000
167560	9.987708e-001	-3.964454e+000
172515	9.992165e-001	-4.075506e+000
177470	9.996229e-001	-4.191797e+000
182425	9.994498e-001	-4.396967e+000
187380	9.990794e-001	-4.398816e+000
192335	9.987944e-001	-4.481102e+000
197290	9.994363e-001	-4.791720e+000
202245	9.995264e-001	-4.874746e+000
207200	9.998336e-001	-5.021827e+000
212155	9.999379e-001	-5.081801e+000
217110	9.992358e-001	-5.248697e+000
222065	9.996877e-001	-5.386716e+000
227020	9.988447e-001	-5.451420e+000
231975	9.990388e-001	-5.558535e+000
236930	1.000973e+000	-5.802367e+000
241885	9.998122e-001	-5.942244e+000
246840	1.000342e+000	-6.043342e+000
251795	9.989297e-001	-6.204196e+000
256750	9.989428e-001	-6.381673e+000
261705	9.989541e-001	-6.470385e+000
266660	1.001086e+000	-6.648464e+000
271615	9.982613e-001	-6.698351e+000
276570	9.995149e-001	-6.877372e+000
281525	1.000262e+000	-7.060155e+000
286480	9.988054e-001	-7.252750e+000
291435	9.980534e-001	-7.389630e+000
296390	1.000352e+000	-7.539176e+000
301345	9.994086e-001	-7.741052e+000
306300	1.000007e+000	-7.912302e+000
311255	1.000457e+000	-8.029795e+000
316210	9.994507e-001	-8.225657e+000
321165	9.998694e-001	-8.415633e+000
326120	9.982737e-001	-8.634064e+000
331075	9.990697e-001	-8.706127e+000
336030	9.994709e-001	-9.018463e+000
340985	9.989225e-001	-9.134212e+000
345940	9.994372e-001	-9.305061e+000
350895	9.980313e-001	-9.468139e+000
355850	9.990911e-001	-9.672807e+000
360805	9.988125e-001	-9.928729e+000
365760	9.991142e-001	-1.009968e+001
370715	9.982662e-001	-1.028239e+001
375670	9.968155e-001	-1.054176e+001
380625	9.987041e-001	-1.063776e+001
385580	9.980813e-001	-1.089485e+001
390535	9.963719e-001	-1.113120e+001
395490	9.975207e-001	-1.134762e+001
400445	9.974022e-001	-1.161184e+001
405400	9.966652e-001	-1.185562e+001
410355	9.963164e-001	-1.210923e+001
415310	9.962119e-001	-1.237947e+001
420265	9.945728e-001	-1.264910e+001
425220	9.952268e-001	-1.289446e+001
430175	9.972200e-001	-1.321311e+001
435130	9.944131e-001	-1.345766e+001
440085	9.953479e-001	-1.376781e+001
445040	9.942433e-001	-1.409687e+001
449995	9.937970e-001	-1.440305e+001
454950	9.931570e-001	-1.472328e+001
459905	9.929897e-001	-1.508975e+001
464860	9.926483e-001	-1.541142e+001
469815	9.921588e-001	-1.577093e+001
474770	9.899869e-001	-1.619660e+001
479725	9.905605e-001	-1.653855e+001
484680	9.905496e-001	-1.703411e+001
489635	9.879985e-001	-1.741684e+001
494590	9.878275e-001	-1.789284e+001
499545	9.856764e-001	-1.841209e+001
504500	9.837052e-001	-1.894325e+001
509455	9.822805e-001	-1.956139e+001
514410	9.799768e-001	-2.006435e+001
519365	9.775784e-001	-2.065109e+001
524320	9.748067e-001	-2.125099e+001
529275	9.712686e-001	-2.201458e+001
534230	9.687684e-001	-2.280957e+001
539185	9.637444e-001	-2.369636e+001
544140	9.588025e-001	-2.462464e+001
549095	9.510206e-001	-2.554331e+001
554050	9.411077e-001	-2.655663e+001
559005	9.316476e-001	-2.745492e+001
563960	9.215827e-001	-2.855760e+001
568915	9.121925e-001	-2.966823e+001
573870	8.973223e-001	-3.095411e+001
578825	8.825981e-001	-3.248909e+001
583780	8.618220e-001	-3.406062e+001
588735	8.361744e-001	-3.587445e+001
593690	8.028810e-001	-3.783134e+001
598645	7.624373e-001	-3.971141e+001
603600	7.105730e-001	-4.164339e+001
608555	6.554463e-001	-4.261509e+001
613510	5.980524e-001	-4.291673e+001
618465	5.500210e-001	-4.149289e+001
623420	5.198140e-001	-3.944389e+001
628375	5.016440e-001	-3.756229e+001
633330	4.885092e-001	-3.719040e+001
638285	4.607378e-001	-3.731911e+001
643240	4.057551e-001	-3.631433e+001
648195	3.472192e-001	-3.086431e+001
653150	3.120515e-001	-2.117252e+001
658105	3.067611e-001	-1.231191e+001
663060	3.138389e-001	-5.997560e+000
668015	3.202750e-001	-4.796899e-001
672970	3.272722e-001	4.055955e+000
677925	3.395877e-001	1.091171e+001
682880	3.618965e-001	1.657739e+001
687835	3.934091e-001	2.075752e+001
692790	4.243222e-001	2.316851e+001
697745	4.543304e-001	2.459563e+001
702700	4.787991e-001	2.551555e+001
707655	5.056855e-001	2.674513e+001
712610	5.338823e-001	2.788379e+001
717565	5.664702e-001	2.884557e+001
722520	6.030346e-001	2.923039e+001
727475	6.406203e-001	2.909266e+001
732430	6.751668e-001	2.845693e+001
737385	7.065680e-001	2.764758e+001
742340	7.320964e-001	2.660036e+001
747295	7.564910e-001	2.558685e+001
752250	7.769724e-001	2.451822e+001
757205	7.935737e-001	2.356675e+001
762160	8.082602e-001	2.259419e+001
767115	8.224478e-001	2.168904e+001
772070	8.366132e-001	2.082744e+001
777025	8.493370e-001	2.006105e+001
781980	8.616992e-001	1.913195e+001
786935	8.719131e-001	1.832127e+001
791890	8.816261e-001	1.740596e+001
796845	8.885101e-001	1.676533e+001
801800	8.973924e-001	1.597748e+001
806755	9.037376e-001	1.525757e+001
811710	9.098570e-001	1.464349e+001
816665	9.164274e-001	1.390819e+001
821620	9.215305e-001	1.329938e+001
826575	9.261637e-001	1.266275e+001
831530	9.307069e-001	1.210313e+001
836485	9.344438e-001	1.152882e+001
841440	9.373934e-001	1.101459e+001
846395	9.400657e-001	1.054622e+001
851350	9.444907e-001	1.001417e+001
856305	9.473894e-001	9.539920e+000
861260	9.489380e-001	9.095484e+000
866215	9.510940e-001	8.662657e+000
871170	9.531073e-001	8.269900e+000
876125	9.557301e-001	7.904304e+000
881080	9.576683e-001	7.516443e+000
886035	9.585056e-001	7.073160e+000
890990	9.605369e-001	6.761828e+000
895945	9.618237e-001	6.321201e+000
900900	9.638769e-001	6.045427e+000
905855	9.645417e-001	5.703151e+000
910810	9.653817e-001	5.391676e+000
915765	9.675302e-001	4.996184e+000
920720	9.686009e-001	4.860174e+000
925675	9.701791e-001	4.597425e+000
930630	9.709664e-001	4.208945e+000
935585	9.728315e-001	3.897988e+000
940540	9.736084e-001	3.707841e+000
945495	9.740717e-001	3.399792e+000
950450	9.743353e-001	3.103749e+000
955405	9.769135e-001	2.844381e+000
960360	9.766300e-001	2.598161e+000
965315	9.766750e-001	2.395325e+000
970270	9.775791e-001	2.139631e+000
975225	9.788922e-001	1.941067e+000
980180	9.794654e-001	1.750659e+000
985135	9.798675e-001	1.521079e+000
990090	9.808968e-001	1.304191e+000
995045	9.815248e-001	1.096086e+000
1000000	9.818250e-001	9.188073e-001
