!Agilent Technologies,E5071C,MY46100305,A.07.02
!Date: Fri Jan 01 02:20:04 1988
!Data & Calibration Information:
!Freq	S11:SOLT1(ON)
# Hz S MA R 50
100000	9.934546e-001	-1.820056e+000
107000	9.952440e-001	-1.961146e+000
114000	9.909570e-001	-2.315202e+000
121000	9.894211e-001	-2.507227e+000
128000	9.867073e-001	-3.172300e+000
135000	9.757203e-001	-4.120648e+000
142000	9.470875e-001	-5.029632e+000
149000	8.948256e-001	-4.380267e+000
156000	8.620740e-001	-2.714777e-001
163000	9.256304e-001	3.585082e+000
170000	9.520969e-001	2.175334e+000
177000	9.596957e-001	1.627193e+000
184000	9.712553e-001	2.259382e+000
191000	9.803108e-001	1.008241e+000
198000	9.788923e-001	9.852719e-001
205000	9.847275e-001	5.880774e-001
212000	9.860249e-001	6.378829e-001
219000	9.863881e-001	3.999875e-001
226000	9.910486e-001	7.982778e-002
233000	9.923275e-001	-2.745327e-001
240000	9.900101e-001	-2.956635e-001
247000	9.886275e-001	-6.623026e-001
254000	9.832140e-001	-7.985296e-001
261000	9.775844e-001	-7.517187e-001
268000	9.759024e-001	-4.515113e-001
275000	9.748732e-001	-1.062570e-001
282000	9.792253e-001	1.408433e-001
289000	9.853172e-001	-4.013112e-002
296000	9.864526e-001	-9.769793e-002
303000	9.886481e-001	-1.622445e-001
310000	9.872737e-001	-3.257042e-001
317000	9.884218e-001	-3.872936e-001
324000	9.894169e-001	-4.788097e-001
331000	9.882614e-001	-5.808719e-001
338000	9.880692e-001	-6.298927e-001
345000	9.880245e-001	-7.320411e-001
352000	9.873865e-001	-8.737900e-001
359000	9.826240e-001	-8.644150e-001
366000	9.797203e-001	-8.638055e-001
373000	9.779869e-001	-5.251957e-001
380000	9.808979e-001	-3.799588e-001
387000	9.858171e-001	-2.855675e-001
394000	9.882830e-001	-3.151613e-001
401000	9.883583e-001	-3.703888e-001
408000	9.902339e-001	-4.141016e-001
415000	9.931416e-001	-5.359066e-001
422000	9.939611e-001	-5.639869e-001
429000	9.949282e-001	-6.974793e-001
436000	9.942198e-001	-7.673820e-001
443000	9.946521e-001	-7.200553e-001
450000	9.950338e-001	-8.370342e-001
457000	9.961407e-001	-9.409552e-001
464000	9.960085e-001	-1.006891e+000
471000	9.959432e-001	-1.094772e+000
478000	9.967072e-001	-1.073654e+000
485000	9.976966e-001	-1.190147e+000
492000	9.971564e-001	-1.253889e+000
499000	9.977191e-001	-1.350403e+000
506000	9.971025e-001	-1.386077e+000
513000	9.967943e-001	-1.531303e+000
520000	9.965344e-001	-1.554987e+000
527000	9.961259e-001	-1.646475e+000
534000	9.955941e-001	-1.756355e+000
541000	9.946648e-001	-1.827952e+000
548000	9.927052e-001	-1.849258e+000
555000	9.925597e-001	-1.957379e+000
562000	9.914042e-001	-1.883623e+000
569000	9.910295e-001	-2.040262e+000
576000	9.900839e-001	-2.032868e+000
583000	9.897707e-001	-2.046660e+000
590000	9.880278e-001	-2.104276e+000
597000	9.859486e-001	-2.132302e+000
604000	9.833798e-001	-2.161271e+000
611000	9.821235e-001	-2.033315e+000
618000	9.806050e-001	-1.905775e+000
625000	9.818065e-001	-1.860319e+000
632000	9.822979e-001	-1.930781e+000
639000	9.823758e-001	-1.874803e+000
646000	9.794660e-001	-1.854239e+000
653000	9.791634e-001	-1.694430e+000
660000	9.792025e-001	-1.378085e+000
667000	9.814327e-001	-1.354216e+000
674000	9.833123e-001	-1.263943e+000
681000	9.846916e-001	-1.278268e+000
688000	9.884356e-001	-1.333876e+000
695000	9.908051e-001	-1.370180e+000
702000	9.915827e-001	-1.354165e+000
709000	9.925672e-001	-1.502874e+000
716000	9.943721e-001	-1.529359e+000
723000	9.958014e-001	-1.584042e+000
730000	9.959144e-001	-1.690713e+000
737000	9.951752e-001	-1.731175e+000
744000	9.963672e-001	-1.839876e+000
751000	9.957745e-001	-1.835913e+000
758000	9.966909e-001	-1.939274e+000
765000	9.968808e-001	-1.994334e+000
772000	9.965475e-001	-2.055447e+000
779000	9.975349e-001	-2.075440e+000
786000	9.975069e-001	-2.163123e+000
793000	9.963946e-001	-2.200405e+000
800000	9.964655e-001	-2.302737e+000
807000	9.969187e-001	-2.291936e+000
814000	9.960127e-001	-2.379895e+000
821000	9.952264e-001	-2.423000e+000
828000	9.947971e-001	-2.568558e+000
835000	9.960388e-001	-2.496716e+000
842000	9.934311e-001	-2.551876e+000
849000	9.951507e-001	-2.564142e+000
856000	9.930914e-001	-2.517522e+000
863000	9.935262e-001	-2.565969e+000
870000	9.928425e-001	-2.585951e+000
877000	9.933251e-001	-2.578164e+000
884000	9.923324e-001	-2.678271e+000
891000	9.930456e-001	-2.506577e+000
898000	9.926964e-001	-2.549207e+000
905000	9.930283e-001	-2.576865e+000
912000	9.931707e-001	-2.577592e+000
919000	9.951593e-001	-2.517844e+000
926000	9.960017e-001	-2.610518e+000
933000	9.978572e-001	-2.713790e+000
940000	9.968974e-001	-2.667328e+000
947000	9.965203e-001	-2.740286e+000
954000	9.988740e-001	-2.734306e+000
961000	9.961291e-001	-2.800676e+000
968000	9.972097e-001	-2.832280e+000
975000	9.976449e-001	-2.887390e+000
982000	9.962214e-001	-2.954809e+000
989000	9.973034e-001	-2.975553e+000
996000	9.963572e-001	-3.004634e+000
1003000	9.984748e-001	-2.962454e+000
1010000	9.971126e-001	-3.035728e+000
1017000	9.979328e-001	-3.141920e+000
1024000	9.989419e-001	-3.163437e+000
1031000	9.975535e-001	-3.186443e+000
1038000	9.970188e-001	-3.243557e+000
1045000	9.962083e-001	-3.321075e+000
1052000	9.975702e-001	-3.328877e+000
1059000	9.964517e-001	-3.478982e+000
1066000	9.975066e-001	-3.308179e+000
1073000	9.964408e-001	-3.421292e+000
1080000	9.972126e-001	-3.439145e+000
1087000	9.956499e-001	-3.419281e+000
1094000	9.963479e-001	-3.454435e+000
1101000	9.955572e-001	-3.510389e+000
1108000	9.970513e-001	-3.498823e+000
1115000	9.990020e-001	-3.533286e+000
1122000	9.967503e-001	-3.512341e+000
1129000	9.965300e-001	-3.621928e+000
1136000	9.972627e-001	-3.706448e+000
1143000	9.987461e-001	-3.692895e+000
1150000	9.967809e-001	-3.743081e+000
1157000	9.991318e-001	-3.794441e+000
1164000	9.970099e-001	-3.814390e+000
1171000	9.973772e-001	-3.845511e+000
1178000	9.975240e-001	-3.897076e+000
1185000	9.974045e-001	-3.909234e+000
1192000	9.973857e-001	-3.946359e+000
1199000	9.962437e-001	-3.940017e+000
1206000	9.959830e-001	-3.963097e+000
1213000	9.961981e-001	-4.034698e+000
1220000	9.969261e-001	-4.053806e+000
1227000	9.963868e-001	-4.114268e+000
1234000	9.971590e-001	-4.164200e+000
1241000	9.966450e-001	-4.155811e+000
1248000	9.955368e-001	-4.265384e+000
1255000	9.967411e-001	-4.229810e+000
1262000	9.948651e-001	-4.249515e+000
1269000	9.951509e-001	-4.234182e+000
1276000	9.950535e-001	-4.259412e+000
1283000	9.946529e-001	-4.268206e+000
1290000	9.949929e-001	-4.324888e+000
1297000	9.955711e-001	-4.291859e+000
1304000	9.944673e-001	-4.337961e+000
1311000	9.949511e-001	-4.398555e+000
1318000	9.944622e-001	-4.410370e+000
1325000	9.953292e-001	-4.415340e+000
1332000	9.948498e-001	-4.450400e+000
1339000	9.952029e-001	-4.431126e+000
1346000	9.957609e-001	-4.487864e+000
1353000	9.941230e-001	-4.559549e+000
1360000	9.951484e-001	-4.574906e+000
1367000	9.947424e-001	-4.557114e+000
1374000	9.950652e-001	-4.571072e+000
1381000	9.961297e-001	-4.574431e+000
1388000	9.957533e-001	-4.633991e+000
1395000	9.966371e-001	-4.588809e+000
1402000	9.965029e-001	-4.709670e+000
1409000	9.961194e-001	-4.698374e+000
1416000	9.954216e-001	-4.730301e+000
1423000	9.955676e-001	-4.819178e+000
1430000	9.956515e-001	-4.745441e+000
1437000	9.944327e-001	-4.875187e+000
1444000	9.956967e-001	-4.847054e+000
1451000	9.954178e-001	-4.853947e+000
1458000	9.963219e-001	-4.916498e+000
1465000	9.962248e-001	-4.954022e+000
1472000	9.970969e-001	-4.977614e+000
1479000	9.968523e-001	-4.954764e+000
1486000	9.967781e-001	-5.029897e+000
1493000	9.965671e-001	-5.117401e+000
1500000	9.949496e-001	-5.140926e+000
