!Agilent Technologies,E5071C,MY46100305,A.07.02
!Date: Fri Jan 01 02:13:01 1988
!Data & Calibration Information:
!Freq	S11:SOLT1(ON)
# Hz S MA R 50
100000	9.966048e-001	-2.675158e+000
107000	9.963088e-001	-3.051021e+000
114000	9.935575e-001	-3.405902e+000
121000	9.930129e-001	-3.862356e+000
128000	9.887905e-001	-4.526347e+000
135000	9.766688e-001	-5.905905e+000
142000	9.437131e-001	-6.784774e+000
149000	8.938879e-001	-6.433258e+000
156000	8.444729e-001	-2.752484e+000
163000	8.786358e-001	3.368037e+000
170000	9.560467e-001	2.092690e+000
177000	9.709347e-001	1.045280e+000
184000	9.791764e-001	7.650855e-001
191000	9.811140e-001	-2.054305e-001
198000	9.890624e-001	-4.966399e-001
205000	9.870048e-001	-9.247068e-001
212000	9.912833e-001	-1.071849e+000
219000	9.919626e-001	-1.600548e+000
226000	9.921320e-001	-1.964832e+000
233000	9.939605e-001	-2.182550e+000
240000	9.913274e-001	-2.412266e+000
247000	9.906874e-001	-2.778439e+000
254000	9.870795e-001	-3.082523e+000
261000	9.808325e-001	-3.156258e+000
268000	9.751333e-001	-3.081621e+000
275000	9.724652e-001	-2.696945e+000
282000	9.777462e-001	-2.445486e+000
289000	9.820342e-001	-2.479328e+000
296000	9.844384e-001	-2.616087e+000
303000	9.882985e-001	-2.777732e+000
310000	9.880939e-001	-2.986779e+000
317000	9.882509e-001	-3.253999e+000
324000	9.869288e-001	-3.373770e+000
331000	9.876506e-001	-3.512560e+000
338000	9.865300e-001	-3.588795e+000
345000	9.844277e-001	-3.731626e+000
352000	9.837880e-001	-3.793565e+000
359000	9.839490e-001	-3.896495e+000
366000	9.811687e-001	-3.911381e+000
373000	9.805202e-001	-3.793453e+000
380000	9.825322e-001	-3.749885e+000
387000	9.848112e-001	-3.771037e+000
394000	9.874386e-001	-3.827903e+000
401000	9.898393e-001	-3.848221e+000
408000	9.906061e-001	-4.037503e+000
415000	9.934224e-001	-4.175275e+000
422000	9.929272e-001	-4.243825e+000
429000	9.940025e-001	-4.441978e+000
436000	9.947234e-001	-4.579840e+000
443000	9.949193e-001	-4.638150e+000
450000	9.945642e-001	-4.824723e+000
457000	9.957588e-001	-4.906281e+000
464000	9.957582e-001	-5.083844e+000
471000	9.965243e-001	-5.214075e+000
478000	9.964282e-001	-5.342726e+000
485000	9.976809e-001	-5.420176e+000
492000	9.958798e-001	-5.642414e+000
499000	9.965720e-001	-5.719716e+000
506000	9.961843e-001	-5.829004e+000
513000	9.961901e-001	-6.061522e+000
520000	9.959253e-001	-6.147689e+000
527000	9.943762e-001	-6.309360e+000
534000	9.941344e-001	-6.496937e+000
541000	9.934634e-001	-6.574689e+000
548000	9.919421e-001	-6.708772e+000
555000	9.920196e-001	-6.870078e+000
562000	9.906124e-001	-6.869339e+000
569000	9.899058e-001	-7.057243e+000
576000	9.885188e-001	-7.069828e+000
583000	9.886915e-001	-7.180805e+000
590000	9.869319e-001	-7.236772e+000
597000	9.851937e-001	-7.277083e+000
604000	9.849644e-001	-7.385938e+000
611000	9.841897e-001	-7.349383e+000
618000	9.826024e-001	-7.449628e+000
625000	9.820560e-001	-7.511114e+000
632000	9.826312e-001	-7.581766e+000
639000	9.793380e-001	-7.712350e+000
646000	9.766325e-001	-7.551167e+000
653000	9.764069e-001	-7.468858e+000
660000	9.772018e-001	-7.193972e+000
667000	9.783091e-001	-7.222916e+000
674000	9.816152e-001	-7.137384e+000
681000	9.838626e-001	-7.156524e+000
688000	9.872462e-001	-7.323337e+000
695000	9.895443e-001	-7.403387e+000
702000	9.917128e-001	-7.521548e+000
709000	9.916635e-001	-7.688723e+000
716000	9.941869e-001	-7.821070e+000
723000	9.942488e-001	-7.983724e+000
730000	9.945832e-001	-8.120220e+000
737000	9.941189e-001	-8.285402e+000
744000	9.962553e-001	-8.371811e+000
751000	9.951803e-001	-8.510620e+000
758000	9.966094e-001	-8.599822e+000
765000	9.960770e-001	-8.777684e+000
772000	9.972023e-001	-8.822268e+000
779000	9.954825e-001	-8.980970e+000
786000	9.958313e-001	-9.135172e+000
793000	9.962172e-001	-9.153162e+000
800000	9.955608e-001	-9.359333e+000
807000	9.957585e-001	-9.510693e+000
814000	9.953902e-001	-9.618309e+000
821000	9.934578e-001	-9.701286e+000
828000	9.933097e-001	-9.856530e+000
835000	9.942436e-001	-9.824782e+000
842000	9.933594e-001	-9.926329e+000
849000	9.940215e-001	-1.003856e+001
856000	9.916051e-001	-1.009762e+001
863000	9.917421e-001	-1.016960e+001
870000	9.910130e-001	-1.025646e+001
877000	9.914206e-001	-1.029913e+001
884000	9.910719e-001	-1.035879e+001
891000	9.922653e-001	-1.039421e+001
898000	9.920699e-001	-1.046690e+001
905000	9.917192e-001	-1.045738e+001
912000	9.924117e-001	-1.057567e+001
919000	9.951214e-001	-1.072857e+001
926000	9.941662e-001	-1.080810e+001
933000	9.944883e-001	-1.090465e+001
940000	9.962118e-001	-1.098228e+001
947000	9.957087e-001	-1.104647e+001
954000	9.975330e-001	-1.116112e+001
961000	9.958634e-001	-1.126975e+001
968000	9.966299e-001	-1.139051e+001
975000	9.971915e-001	-1.144724e+001
982000	9.954387e-001	-1.157869e+001
989000	9.976006e-001	-1.166082e+001
996000	9.967273e-001	-1.174458e+001
1003000	9.969123e-001	-1.187120e+001
1010000	9.950626e-001	-1.192596e+001
1017000	9.979106e-001	-1.212645e+001
1024000	9.967371e-001	-1.221155e+001
1031000	9.961101e-001	-1.227276e+001
1038000	9.958278e-001	-1.239708e+001
1045000	9.959199e-001	-1.253018e+001
1052000	9.965414e-001	-1.253372e+001
1059000	9.958770e-001	-1.279062e+001
1066000	9.953590e-001	-1.274646e+001
1073000	9.949502e-001	-1.289561e+001
1080000	9.955248e-001	-1.301883e+001
1087000	9.944431e-001	-1.301774e+001
1094000	9.947576e-001	-1.313252e+001
1101000	9.951138e-001	-1.317472e+001
1108000	9.961206e-001	-1.323162e+001
1115000	9.963619e-001	-1.340259e+001
1122000	9.961100e-001	-1.350012e+001
1129000	9.964670e-001	-1.357934e+001
1136000	9.956565e-001	-1.371412e+001
1143000	9.962834e-001	-1.379886e+001
1150000	9.956976e-001	-1.386380e+001
1157000	9.963274e-001	-1.404860e+001
1164000	9.946667e-001	-1.411705e+001
1171000	9.955858e-001	-1.419503e+001
1178000	9.958875e-001	-1.427295e+001
1185000	9.958115e-001	-1.437487e+001
1192000	9.959136e-001	-1.443547e+001
1199000	9.943374e-001	-1.454330e+001
1206000	9.941408e-001	-1.466086e+001
1213000	9.934622e-001	-1.475090e+001
1220000	9.940097e-001	-1.486477e+001
1227000	9.952133e-001	-1.493799e+001
1234000	9.942755e-001	-1.504659e+001
1241000	9.937974e-001	-1.514244e+001
1248000	9.933099e-001	-1.521650e+001
1255000	9.940976e-001	-1.522552e+001
1262000	9.931970e-001	-1.536167e+001
1269000	9.940890e-001	-1.546207e+001
1276000	9.931893e-001	-1.557786e+001
1283000	9.929336e-001	-1.556428e+001
1290000	9.934137e-001	-1.570798e+001
1297000	9.919781e-001	-1.572052e+001
1304000	9.922653e-001	-1.587262e+001
1311000	9.936685e-001	-1.600853e+001
1318000	9.914824e-001	-1.597058e+001
1325000	9.932230e-001	-1.616194e+001
1332000	9.925483e-001	-1.616134e+001
1339000	9.923127e-001	-1.621517e+001
1346000	9.935777e-001	-1.640726e+001
1353000	9.927873e-001	-1.653594e+001
1360000	9.933780e-001	-1.657064e+001
1367000	9.926496e-001	-1.665499e+001
1374000	9.918839e-001	-1.670636e+001
1381000	9.929802e-001	-1.683510e+001
1388000	9.937205e-001	-1.696972e+001
1395000	9.937436e-001	-1.692807e+001
1402000	9.925145e-001	-1.712880e+001
1409000	9.929553e-001	-1.717568e+001
1416000	9.925860e-001	-1.723943e+001
1423000	9.928271e-001	-1.738364e+001
1430000	9.925299e-001	-1.743626e+001
1437000	9.935803e-001	-1.751538e+001
1444000	9.940484e-001	-1.758548e+001
1451000	9.930311e-001	-1.767766e+001
1458000	9.935528e-001	-1.777643e+001
1465000	9.926327e-001	-1.793349e+001
1472000	9.941486e-001	-1.798173e+001
1479000	9.935324e-001	-1.812759e+001
1486000	9.938730e-001	-1.819782e+001
1493000	9.942091e-001	-1.827295e+001
1500000	9.914547e-001	-1.842630e+001
