!Agilent Technologies,E5071C,MY46100305,A.07.02
!Date: Fri Jan 01 01:31:14 1988
!Data & Calibration Information:
!Freq	S11:SOLT1(ON)
# Hz S MA R 50
100000	9.938468e-001	-2.771183e+000
107000	9.931054e-001	-2.970294e+000
114000	9.915950e-001	-3.270965e+000
121000	9.919658e-001	-3.981404e+000
128000	9.821406e-001	-4.667874e+000
135000	9.646531e-001	-5.293978e+000
142000	9.353631e-001	-5.612215e+000
149000	8.958301e-001	-4.751943e+000
156000	8.947195e-001	-1.745680e+000
163000	9.188588e-001	4.344678e-001
170000	9.340153e-001	2.038539e-001
177000	9.624347e-001	4.698520e-002
184000	9.588008e-001	-1.185332e-001
191000	9.827752e-001	1.351783e-001
198000	9.803097e-001	-4.642619e-001
205000	9.864263e-001	-8.778253e-001
212000	9.859535e-001	-2.026417e+000
219000	9.968780e-001	-1.607126e+000
226000	9.877691e-001	-1.824619e+000
233000	9.886216e-001	-2.102177e+000
240000	9.884354e-001	-2.661597e+000
247000	9.836666e-001	-2.922036e+000
254000	9.815113e-001	-2.869967e+000
261000	9.775223e-001	-2.896868e+000
268000	9.726633e-001	-2.628918e+000
275000	9.794845e-001	-2.600879e+000
282000	9.821455e-001	-2.519862e+000
289000	9.882521e-001	-2.763402e+000
296000	9.853820e-001	-2.801013e+000
303000	9.890071e-001	-2.980996e+000
310000	9.880456e-001	-3.146390e+000
317000	9.880107e-001	-3.330478e+000
324000	9.858556e-001	-3.521374e+000
331000	9.845434e-001	-3.616874e+000
338000	9.850355e-001	-3.632138e+000
345000	9.842468e-001	-3.765804e+000
352000	9.834539e-001	-3.828428e+000
359000	9.820948e-001	-3.919244e+000
366000	9.798673e-001	-3.894114e+000
373000	9.805937e-001	-3.643151e+000
380000	9.823984e-001	-3.724094e+000
387000	9.860617e-001	-3.622578e+000
394000	9.905771e-001	-3.790265e+000
401000	9.881215e-001	-4.024304e+000
408000	9.895063e-001	-4.069042e+000
415000	9.921000e-001	-4.261692e+000
422000	9.913215e-001	-4.275310e+000
429000	9.940800e-001	-4.389488e+000
436000	9.927435e-001	-4.550359e+000
443000	9.940986e-001	-4.638272e+000
450000	9.948534e-001	-4.777825e+000
457000	9.949658e-001	-4.969505e+000
464000	9.963091e-001	-5.007059e+000
471000	9.968179e-001	-5.247860e+000
478000	9.957394e-001	-5.301413e+000
485000	9.975751e-001	-5.470093e+000
492000	9.968837e-001	-5.591323e+000
499000	9.976119e-001	-5.712775e+000
506000	9.961476e-001	-5.905317e+000
513000	9.957640e-001	-6.056534e+000
520000	9.959432e-001	-6.208536e+000
527000	9.954881e-001	-6.360688e+000
534000	9.955295e-001	-6.517142e+000
541000	9.941217e-001	-6.588336e+000
548000	9.918863e-001	-6.766610e+000
555000	9.921079e-001	-6.891822e+000
562000	9.907522e-001	-6.927189e+000
569000	9.907197e-001	-7.107311e+000
576000	9.892028e-001	-7.124417e+000
583000	9.886108e-001	-7.240900e+000
590000	9.849990e-001	-7.409583e+000
597000	9.836541e-001	-7.495494e+000
604000	9.815024e-001	-7.482721e+000
611000	9.807367e-001	-7.441919e+000
618000	9.801824e-001	-7.418496e+000
625000	9.794720e-001	-7.453632e+000
632000	9.810157e-001	-7.410079e+000
639000	9.800712e-001	-7.412902e+000
646000	9.775895e-001	-7.321837e+000
653000	9.753724e-001	-7.379387e+000
660000	9.785922e-001	-7.147268e+000
667000	9.804875e-001	-7.109401e+000
674000	9.842472e-001	-7.159232e+000
681000	9.850234e-001	-7.246833e+000
688000	9.879729e-001	-7.408039e+000
695000	9.905730e-001	-7.410911e+000
702000	9.918769e-001	-7.535726e+000
709000	9.936615e-001	-7.737734e+000
716000	9.946173e-001	-7.847126e+000
723000	9.941020e-001	-8.028792e+000
730000	9.951866e-001	-8.195100e+000
737000	9.937298e-001	-8.340456e+000
744000	9.953260e-001	-8.417421e+000
751000	9.947607e-001	-8.429339e+000
758000	9.963732e-001	-8.649270e+000
765000	9.959226e-001	-8.784083e+000
772000	9.966087e-001	-8.876403e+000
779000	9.964841e-001	-9.070225e+000
786000	9.955688e-001	-9.075904e+000
793000	9.957756e-001	-9.250010e+000
800000	9.946923e-001	-9.369530e+000
807000	9.958534e-001	-9.502391e+000
814000	9.954162e-001	-9.618654e+000
821000	9.938974e-001	-9.697638e+000
828000	9.925641e-001	-9.871261e+000
835000	9.934435e-001	-9.914326e+000
842000	9.924184e-001	-9.968794e+000
849000	9.926213e-001	-1.011081e+001
856000	9.927000e-001	-1.007750e+001
863000	9.910605e-001	-1.016465e+001
870000	9.915381e-001	-1.024615e+001
877000	9.919457e-001	-1.028944e+001
884000	9.912901e-001	-1.041350e+001
891000	9.922001e-001	-1.046319e+001
898000	9.927625e-001	-1.049353e+001
905000	9.925056e-001	-1.057020e+001
912000	9.926866e-001	-1.062371e+001
919000	9.954956e-001	-1.072366e+001
926000	9.942563e-001	-1.081595e+001
933000	9.954099e-001	-1.094338e+001
940000	9.941473e-001	-1.101920e+001
947000	9.966781e-001	-1.114501e+001
954000	9.970609e-001	-1.121359e+001
961000	9.951782e-001	-1.127783e+001
968000	9.964483e-001	-1.141796e+001
975000	9.973510e-001	-1.150467e+001
982000	9.958762e-001	-1.162610e+001
989000	9.967847e-001	-1.173171e+001
996000	9.964622e-001	-1.176924e+001
1003000	9.952548e-001	-1.192034e+001
1010000	9.956096e-001	-1.198297e+001
1017000	9.967208e-001	-1.217676e+001
1024000	9.963887e-001	-1.225373e+001
1031000	9.962085e-001	-1.234087e+001
1038000	9.959948e-001	-1.239478e+001
1045000	9.959910e-001	-1.257142e+001
1052000	9.957024e-001	-1.262585e+001
1059000	9.944304e-001	-1.281181e+001
1066000	9.959884e-001	-1.279533e+001
1073000	9.940886e-001	-1.295057e+001
1080000	9.958845e-001	-1.298220e+001
1087000	9.935424e-001	-1.307846e+001
1094000	9.952500e-001	-1.312231e+001
1101000	9.942528e-001	-1.322993e+001
1108000	9.967023e-001	-1.332709e+001
1115000	9.968929e-001	-1.347710e+001
1122000	9.947387e-001	-1.349819e+001
1129000	9.959060e-001	-1.362728e+001
1136000	9.950470e-001	-1.375787e+001
1143000	9.972755e-001	-1.380646e+001
1150000	9.961330e-001	-1.389511e+001
1157000	9.970681e-001	-1.408431e+001
1164000	9.956909e-001	-1.414236e+001
1171000	9.958695e-001	-1.424889e+001
1178000	9.959436e-001	-1.433255e+001
1185000	9.954506e-001	-1.437854e+001
1192000	9.956356e-001	-1.455549e+001
1199000	9.943234e-001	-1.461529e+001
1206000	9.954849e-001	-1.468407e+001
1213000	9.940986e-001	-1.481204e+001
1220000	9.947041e-001	-1.487727e+001
1227000	9.951027e-001	-1.498812e+001
1234000	9.943892e-001	-1.514470e+001
1241000	9.940958e-001	-1.521841e+001
1248000	9.929056e-001	-1.531612e+001
1255000	9.945534e-001	-1.532425e+001
1262000	9.920468e-001	-1.544273e+001
1269000	9.926934e-001	-1.552354e+001
1276000	9.925129e-001	-1.557897e+001
1283000	9.936048e-001	-1.567704e+001
1290000	9.938944e-001	-1.575545e+001
1297000	9.927419e-001	-1.583142e+001
1304000	9.916382e-001	-1.584069e+001
1311000	9.927451e-001	-1.596230e+001
1318000	9.915363e-001	-1.607368e+001
1325000	9.936993e-001	-1.620759e+001
1332000	9.927885e-001	-1.620767e+001
1339000	9.936551e-001	-1.626603e+001
1346000	9.946632e-001	-1.646307e+001
1353000	9.924902e-001	-1.650806e+001
1360000	9.931210e-001	-1.666019e+001
1367000	9.920435e-001	-1.671128e+001
1374000	9.918706e-001	-1.679839e+001
1381000	9.937605e-001	-1.682496e+001
1388000	9.931989e-001	-1.703451e+001
1395000	9.942340e-001	-1.697017e+001
1402000	9.933653e-001	-1.719041e+001
1409000	9.930916e-001	-1.720791e+001
1416000	9.932517e-001	-1.726924e+001
1423000	9.923303e-001	-1.738823e+001
1430000	9.929925e-001	-1.744256e+001
1437000	9.940012e-001	-1.754650e+001
1444000	9.933292e-001	-1.767575e+001
1451000	9.925104e-001	-1.771616e+001
1458000	9.938162e-001	-1.782241e+001
1465000	9.925419e-001	-1.801719e+001
1472000	9.939835e-001	-1.809194e+001
1479000	9.935605e-001	-1.815083e+001
1486000	9.935181e-001	-1.823870e+001
1493000	9.935118e-001	-1.835901e+001
1500000	9.918735e-001	-1.852750e+001
