!Agilent Technologies,E5071C,MY46100305,A.07.02
!Date: Fri Jan 01 01:31:31 1988
!Data & Calibration Information:
!Freq	S11:SOLT1(ON)
# Hz S MA R 50
100000	9.951949e-001	-2.742826e+000
107000	9.936008e-001	-3.033181e+000
114000	9.922567e-001	-3.422814e+000
121000	9.884396e-001	-3.846589e+000
128000	9.811675e-001	-4.618428e+000
135000	9.665176e-001	-4.957096e+000
142000	9.438012e-001	-5.542523e+000
149000	9.000694e-001	-5.464450e+000
156000	8.744790e-001	-9.512109e-001
163000	9.337834e-001	7.708441e-001
170000	9.404254e-001	3.255677e-001
177000	9.624786e-001	-1.645065e-003
184000	9.611725e-001	-8.022758e-002
191000	9.736756e-001	-2.437136e-001
198000	9.889729e-001	-6.382139e-001
205000	9.873901e-001	-1.236768e+000
212000	9.906285e-001	-1.275125e+000
219000	9.889275e-001	-1.564178e+000
226000	9.915754e-001	-1.523252e+000
233000	9.942778e-001	-2.282203e+000
240000	9.915888e-001	-2.546044e+000
247000	9.877043e-001	-2.896383e+000
254000	9.787921e-001	-3.036844e+000
261000	9.739298e-001	-2.947430e+000
268000	9.734706e-001	-2.662495e+000
275000	9.764891e-001	-2.375959e+000
282000	9.815787e-001	-2.398246e+000
289000	9.831496e-001	-2.419106e+000
296000	9.860304e-001	-2.452095e+000
303000	9.919819e-001	-2.865682e+000
310000	9.879802e-001	-3.178097e+000
317000	9.883894e-001	-3.191510e+000
324000	9.883821e-001	-3.411080e+000
331000	9.866872e-001	-3.603827e+000
338000	9.852771e-001	-3.689566e+000
345000	9.846983e-001	-3.774187e+000
352000	9.830127e-001	-4.007691e+000
359000	9.802819e-001	-3.811719e+000
366000	9.800538e-001	-3.836532e+000
373000	9.809090e-001	-3.764018e+000
380000	9.816972e-001	-3.796215e+000
387000	9.849572e-001	-3.748446e+000
394000	9.864339e-001	-3.920148e+000
401000	9.878310e-001	-3.845764e+000
408000	9.895894e-001	-4.054691e+000
415000	9.923766e-001	-4.172434e+000
422000	9.928238e-001	-4.224563e+000
429000	9.944579e-001	-4.434769e+000
436000	9.951877e-001	-4.602853e+000
443000	9.952200e-001	-4.640144e+000
450000	9.961668e-001	-4.781641e+000
457000	9.961685e-001	-4.960977e+000
464000	9.955658e-001	-5.029560e+000
471000	9.972524e-001	-5.267813e+000
478000	9.971487e-001	-5.323710e+000
485000	9.978967e-001	-5.447112e+000
492000	9.969579e-001	-5.674941e+000
499000	9.972112e-001	-5.742581e+000
506000	9.958950e-001	-5.925660e+000
513000	9.959572e-001	-6.044248e+000
520000	9.954379e-001	-6.167917e+000
527000	9.944941e-001	-6.378632e+000
534000	9.953359e-001	-6.544801e+000
541000	9.933319e-001	-6.618612e+000
548000	9.924937e-001	-6.714621e+000
555000	9.912740e-001	-6.829794e+000
562000	9.913924e-001	-6.936118e+000
569000	9.906551e-001	-7.066670e+000
576000	9.891033e-001	-7.103076e+000
583000	9.891045e-001	-7.306279e+000
590000	9.857577e-001	-7.354765e+000
597000	9.832940e-001	-7.552930e+000
604000	9.802926e-001	-7.458033e+000
611000	9.795800e-001	-7.442511e+000
618000	9.782719e-001	-7.460418e+000
625000	9.779138e-001	-7.348455e+000
632000	9.800007e-001	-7.534050e+000
639000	9.784694e-001	-7.472011e+000
646000	9.788223e-001	-7.309137e+000
653000	9.778165e-001	-7.239152e+000
660000	9.798080e-001	-7.096535e+000
667000	9.840613e-001	-7.182516e+000
674000	9.851335e-001	-7.230437e+000
681000	9.862614e-001	-7.223458e+000
688000	9.890080e-001	-7.443797e+000
695000	9.899396e-001	-7.485122e+000
702000	9.924857e-001	-7.561721e+000
709000	9.931140e-001	-7.727284e+000
716000	9.946917e-001	-7.769886e+000
723000	9.949062e-001	-8.028321e+000
730000	9.946626e-001	-8.201901e+000
737000	9.937310e-001	-8.280008e+000
744000	9.952519e-001	-8.379246e+000
751000	9.956586e-001	-8.507713e+000
758000	9.963102e-001	-8.639302e+000
765000	9.955919e-001	-8.787871e+000
772000	9.957674e-001	-8.829093e+000
779000	9.953337e-001	-9.033064e+000
786000	9.960383e-001	-9.139879e+000
793000	9.957766e-001	-9.218934e+000
800000	9.957030e-001	-9.359802e+000
807000	9.967793e-001	-9.500917e+000
814000	9.959661e-001	-9.601504e+000
821000	9.931137e-001	-9.737095e+000
828000	9.936914e-001	-9.888264e+000
835000	9.933815e-001	-9.868628e+000
842000	9.924681e-001	-1.000681e+001
849000	9.936524e-001	-1.011121e+001
856000	9.917734e-001	-1.010513e+001
863000	9.926212e-001	-1.021471e+001
870000	9.914119e-001	-1.027781e+001
877000	9.914283e-001	-1.029629e+001
884000	9.910331e-001	-1.039769e+001
891000	9.920611e-001	-1.039459e+001
898000	9.919312e-001	-1.049977e+001
905000	9.920041e-001	-1.053037e+001
912000	9.933250e-001	-1.064904e+001
919000	9.950946e-001	-1.070595e+001
926000	9.938424e-001	-1.078667e+001
933000	9.954615e-001	-1.089993e+001
940000	9.951530e-001	-1.103084e+001
947000	9.956461e-001	-1.112048e+001
954000	9.978089e-001	-1.120185e+001
961000	9.954061e-001	-1.128952e+001
968000	9.965452e-001	-1.137789e+001
975000	9.969867e-001	-1.152293e+001
982000	9.964211e-001	-1.163762e+001
989000	9.963471e-001	-1.175200e+001
996000	9.962547e-001	-1.185074e+001
1003000	9.964808e-001	-1.193194e+001
1010000	9.960810e-001	-1.200266e+001
1017000	9.971251e-001	-1.216499e+001
1024000	9.967822e-001	-1.218479e+001
1031000	9.965832e-001	-1.236157e+001
1038000	9.962977e-001	-1.247525e+001
1045000	9.957968e-001	-1.256975e+001
1052000	9.962524e-001	-1.267506e+001
1059000	9.954762e-001	-1.283262e+001
1066000	9.963847e-001	-1.277433e+001
1073000	9.949375e-001	-1.289649e+001
1080000	9.954269e-001	-1.301122e+001
1087000	9.940135e-001	-1.301735e+001
1094000	9.951357e-001	-1.316997e+001
1101000	9.949434e-001	-1.323383e+001
1108000	9.953387e-001	-1.331796e+001
1115000	9.966306e-001	-1.341016e+001
1122000	9.955581e-001	-1.352001e+001
1129000	9.960524e-001	-1.366270e+001
1136000	9.955589e-001	-1.376061e+001
1143000	9.970228e-001	-1.382521e+001
1150000	9.959288e-001	-1.386419e+001
1157000	9.968884e-001	-1.412541e+001
1164000	9.957622e-001	-1.412200e+001
1171000	9.957113e-001	-1.425216e+001
1178000	9.953899e-001	-1.429722e+001
1185000	9.959809e-001	-1.438807e+001
1192000	9.953866e-001	-1.443972e+001
1199000	9.954155e-001	-1.458869e+001
1206000	9.938867e-001	-1.465850e+001
1213000	9.942003e-001	-1.476966e+001
1220000	9.942775e-001	-1.483368e+001
1227000	9.953457e-001	-1.499252e+001
1234000	9.944720e-001	-1.503100e+001
1241000	9.938623e-001	-1.522323e+001
1248000	9.937182e-001	-1.526397e+001
1255000	9.938310e-001	-1.536278e+001
1262000	9.928677e-001	-1.538348e+001
1269000	9.929742e-001	-1.556389e+001
1276000	9.923464e-001	-1.557748e+001
1283000	9.921883e-001	-1.562634e+001
1290000	9.934416e-001	-1.574704e+001
1297000	9.927872e-001	-1.586695e+001
1304000	9.917645e-001	-1.581688e+001
1311000	9.932754e-001	-1.601724e+001
1318000	9.916144e-001	-1.606381e+001
1325000	9.939186e-001	-1.619878e+001
1332000	9.921890e-001	-1.625166e+001
1339000	9.924322e-001	-1.622643e+001
1346000	9.921604e-001	-1.643928e+001
1353000	9.919961e-001	-1.655247e+001
1360000	9.935347e-001	-1.662387e+001
1367000	9.928040e-001	-1.672407e+001
1374000	9.916929e-001	-1.680947e+001
1381000	9.932937e-001	-1.691110e+001
1388000	9.938847e-001	-1.696251e+001
1395000	9.944003e-001	-1.699178e+001
1402000	9.932716e-001	-1.717566e+001
1409000	9.934831e-001	-1.724651e+001
1416000	9.922444e-001	-1.727957e+001
1423000	9.916333e-001	-1.740567e+001
1430000	9.930079e-001	-1.747956e+001
1437000	9.927888e-001	-1.750404e+001
1444000	9.933657e-001	-1.765927e+001
1451000	9.925325e-001	-1.771985e+001
1458000	9.931531e-001	-1.782033e+001
1465000	9.929159e-001	-1.795699e+001
1472000	9.941828e-001	-1.808207e+001
1479000	9.939735e-001	-1.814720e+001
1486000	9.926147e-001	-1.824865e+001
1493000	9.938706e-001	-1.836492e+001
1500000	9.912199e-001	-1.849114e+001
