!Agilent Technologies,E5071C,MY46100305,A.07.02
!Date: Fri Jan 01 01:31:46 1988
!Data & Calibration Information:
!Freq	S11:SOLT1(ON)
# Hz S MA R 50
100000	9.948006e-001	-2.690046e+000
107000	9.943835e-001	-3.026214e+000
114000	9.929368e-001	-3.395416e+000
121000	9.905777e-001	-3.932085e+000
128000	9.806387e-001	-4.660213e+000
135000	9.624155e-001	-5.202415e+000
142000	9.396339e-001	-5.674623e+000
149000	9.101286e-001	-4.735527e+000
156000	8.900501e-001	-2.113344e+000
163000	9.149287e-001	1.082313e+000
170000	9.528899e-001	8.399339e-001
177000	9.675153e-001	-6.836921e-002
184000	9.505934e-001	-1.054511e+000
191000	9.857510e-001	-3.058418e-001
198000	9.884384e-001	-3.983054e-001
205000	9.989006e-001	-1.314879e+000
212000	9.858886e-001	-1.158637e+000
219000	9.857109e-001	-1.488425e+000
226000	9.935025e-001	-1.725226e+000
233000	9.942252e-001	-2.681175e+000
240000	9.894597e-001	-2.574148e+000
247000	9.868930e-001	-2.812976e+000
254000	9.816069e-001	-3.065761e+000
261000	9.775557e-001	-2.765590e+000
268000	9.702871e-001	-2.558690e+000
275000	9.764200e-001	-2.303158e+000
282000	9.854498e-001	-2.463460e+000
289000	9.828763e-001	-2.602598e+000
296000	9.838269e-001	-2.644401e+000
303000	9.908857e-001	-2.698551e+000
310000	9.939048e-001	-3.063086e+000
317000	9.921858e-001	-3.246260e+000
324000	9.886978e-001	-3.606925e+000
331000	9.893726e-001	-3.807866e+000
338000	9.857628e-001	-3.767348e+000
345000	9.834476e-001	-3.879360e+000
352000	9.824702e-001	-3.891964e+000
359000	9.812858e-001	-3.993257e+000
366000	9.780948e-001	-3.883431e+000
373000	9.778176e-001	-3.824869e+000
380000	9.781924e-001	-3.681407e+000
387000	9.840750e-001	-3.445306e+000
394000	9.895110e-001	-3.705491e+000
401000	9.904737e-001	-3.988775e+000
408000	9.893596e-001	-4.145194e+000
415000	9.918105e-001	-4.163095e+000
422000	9.923058e-001	-4.269240e+000
429000	9.940013e-001	-4.355690e+000
436000	9.938578e-001	-4.686428e+000
443000	9.938964e-001	-4.602690e+000
450000	9.941356e-001	-4.714474e+000
457000	9.964331e-001	-4.908495e+000
464000	9.963404e-001	-5.028839e+000
471000	9.960733e-001	-5.203453e+000
478000	9.964049e-001	-5.348426e+000
485000	9.966552e-001	-5.419544e+000
492000	9.957699e-001	-5.715929e+000
499000	9.973142e-001	-5.785109e+000
506000	9.961188e-001	-5.871810e+000
513000	9.960214e-001	-6.096154e+000
520000	9.952439e-001	-6.201802e+000
527000	9.951157e-001	-6.336459e+000
534000	9.956057e-001	-6.528361e+000
541000	9.936460e-001	-6.606639e+000
548000	9.918598e-001	-6.757876e+000
555000	9.917093e-001	-6.840179e+000
562000	9.910566e-001	-6.866664e+000
569000	9.903582e-001	-7.015815e+000
576000	9.898199e-001	-7.145177e+000
583000	9.885270e-001	-7.331919e+000
590000	9.852476e-001	-7.380559e+000
597000	9.848453e-001	-7.472376e+000
604000	9.818387e-001	-7.530048e+000
611000	9.811589e-001	-7.530326e+000
618000	9.789256e-001	-7.581587e+000
625000	9.779981e-001	-7.552930e+000
632000	9.813261e-001	-7.502744e+000
639000	9.790779e-001	-7.522463e+000
646000	9.796132e-001	-7.338814e+000
653000	9.757979e-001	-7.128816e+000
660000	9.792927e-001	-6.882664e+000
667000	9.830630e-001	-6.951413e+000
674000	9.883878e-001	-6.990204e+000
681000	9.900765e-001	-7.270168e+000
688000	9.921360e-001	-7.443060e+000
695000	9.909937e-001	-7.377865e+000
702000	9.920136e-001	-7.574090e+000
709000	9.916785e-001	-7.806662e+000
716000	9.936463e-001	-7.920411e+000
723000	9.954492e-001	-8.039841e+000
730000	9.942857e-001	-8.118808e+000
737000	9.945219e-001	-8.246034e+000
744000	9.967000e-001	-8.423834e+000
751000	9.961033e-001	-8.529354e+000
758000	9.958829e-001	-8.645707e+000
765000	9.954837e-001	-8.710768e+000
772000	9.964011e-001	-8.867601e+000
779000	9.958016e-001	-8.991817e+000
786000	9.959947e-001	-9.093748e+000
793000	9.963345e-001	-9.230720e+000
800000	9.952958e-001	-9.363222e+000
807000	9.965656e-001	-9.519965e+000
814000	9.944840e-001	-9.609664e+000
821000	9.935458e-001	-9.739417e+000
828000	9.941876e-001	-9.904489e+000
835000	9.934567e-001	-9.921830e+000
842000	9.935609e-001	-9.939706e+000
849000	9.925106e-001	-1.009120e+001
856000	9.918531e-001	-1.015299e+001
863000	9.928412e-001	-1.020701e+001
870000	9.912700e-001	-1.026384e+001
877000	9.911592e-001	-1.034600e+001
884000	9.917458e-001	-1.041652e+001
891000	9.924078e-001	-1.041425e+001
898000	9.927588e-001	-1.055480e+001
905000	9.925345e-001	-1.053696e+001
912000	9.930246e-001	-1.061488e+001
919000	9.950085e-001	-1.075190e+001
926000	9.942805e-001	-1.076484e+001
933000	9.954926e-001	-1.094941e+001
940000	9.945565e-001	-1.105255e+001
947000	9.954548e-001	-1.117430e+001
954000	9.973533e-001	-1.121662e+001
961000	9.956489e-001	-1.126238e+001
968000	9.950301e-001	-1.139309e+001
975000	9.964923e-001	-1.152143e+001
982000	9.957358e-001	-1.164427e+001
989000	9.966911e-001	-1.175099e+001
996000	9.959863e-001	-1.182681e+001
1003000	9.968226e-001	-1.194682e+001
1010000	9.952363e-001	-1.201280e+001
1017000	9.962268e-001	-1.218761e+001
1024000	9.971803e-001	-1.227431e+001
1031000	9.959393e-001	-1.236834e+001
1038000	9.958052e-001	-1.246787e+001
1045000	9.952811e-001	-1.258723e+001
1052000	9.963376e-001	-1.271764e+001
1059000	9.950840e-001	-1.278658e+001
1066000	9.959829e-001	-1.280286e+001
1073000	9.938466e-001	-1.288496e+001
1080000	9.954016e-001	-1.304754e+001
1087000	9.932172e-001	-1.305806e+001
1094000	9.957608e-001	-1.313717e+001
1101000	9.947667e-001	-1.320907e+001
1108000	9.961007e-001	-1.330218e+001
1115000	9.972879e-001	-1.343040e+001
1122000	9.950418e-001	-1.353485e+001
1129000	9.953802e-001	-1.362716e+001
1136000	9.956082e-001	-1.376254e+001
1143000	9.975566e-001	-1.384238e+001
1150000	9.953318e-001	-1.384356e+001
1157000	9.958610e-001	-1.406567e+001
1164000	9.954237e-001	-1.411781e+001
1171000	9.953584e-001	-1.424710e+001
1178000	9.955166e-001	-1.430585e+001
1185000	9.951970e-001	-1.442727e+001
1192000	9.950698e-001	-1.449912e+001
1199000	9.946260e-001	-1.461487e+001
1206000	9.947372e-001	-1.466079e+001
1213000	9.937118e-001	-1.478831e+001
1220000	9.941333e-001	-1.489176e+001
1227000	9.954672e-001	-1.497843e+001
1234000	9.938617e-001	-1.508087e+001
1241000	9.942779e-001	-1.518039e+001
1248000	9.942455e-001	-1.525797e+001
1255000	9.942939e-001	-1.533237e+001
1262000	9.925039e-001	-1.538762e+001
1269000	9.926346e-001	-1.556358e+001
1276000	9.930582e-001	-1.557289e+001
1283000	9.925372e-001	-1.571479e+001
1290000	9.931412e-001	-1.571057e+001
1297000	9.923400e-001	-1.578219e+001
1304000	9.919301e-001	-1.590113e+001
1311000	9.943244e-001	-1.601490e+001
1318000	9.921349e-001	-1.609141e+001
1325000	9.928023e-001	-1.623530e+001
1332000	9.927116e-001	-1.623665e+001
1339000	9.921968e-001	-1.628459e+001
1346000	9.927946e-001	-1.636473e+001
1353000	9.923849e-001	-1.658611e+001
1360000	9.935577e-001	-1.664246e+001
1367000	9.923388e-001	-1.669152e+001
1374000	9.922943e-001	-1.675811e+001
1381000	9.930389e-001	-1.683403e+001
1388000	9.932947e-001	-1.701765e+001
1395000	9.943958e-001	-1.700620e+001
1402000	9.923800e-001	-1.717360e+001
1409000	9.932325e-001	-1.721792e+001
1416000	9.924317e-001	-1.726524e+001
1423000	9.930680e-001	-1.741702e+001
1430000	9.920658e-001	-1.749051e+001
1437000	9.931599e-001	-1.762154e+001
1444000	9.938381e-001	-1.766270e+001
1451000	9.937723e-001	-1.769080e+001
1458000	9.943703e-001	-1.782985e+001
1465000	9.927799e-001	-1.798658e+001
1472000	9.928549e-001	-1.807583e+001
1479000	9.948342e-001	-1.809843e+001
1486000	9.930896e-001	-1.825378e+001
1493000	9.937448e-001	-1.834889e+001
1500000	9.912190e-001	-1.850880e+001
