!Agilent Technologies,E5071C,MY46100305,A.07.02
!Date: Fri Jan 01 01:32:52 1988
!Data & Calibration Information:
!Freq	S11:SOLT1(ON)
# Hz S MA R 50
100000	9.965096e-001	-2.664395e+000
107000	9.967109e-001	-2.966241e+000
114000	9.929535e-001	-3.389952e+000
121000	9.891279e-001	-3.978748e+000
128000	9.794984e-001	-4.483871e+000
135000	9.591833e-001	-4.773036e+000
142000	9.444200e-001	-4.664999e+000
149000	9.213732e-001	-4.084961e+000
156000	8.989995e-001	-1.601375e+000
163000	9.367619e-001	8.664720e-001
170000	9.649658e-001	-2.126690e-001
177000	9.654137e-001	-4.885897e-001
184000	9.803210e-001	-3.894095e-001
191000	9.835194e-001	-1.083242e+000
198000	9.820448e-001	-1.086215e+000
205000	9.859313e-001	-1.402745e+000
212000	9.950307e-001	-1.920903e+000
219000	9.905323e-001	-2.051018e+000
226000	9.928286e-001	-2.253466e+000
233000	9.934119e-001	-2.590694e+000
240000	9.913555e-001	-2.736865e+000
247000	9.933363e-001	-2.837859e+000
254000	9.920336e-001	-3.187795e+000
261000	9.931268e-001	-3.208518e+000
268000	9.928030e-001	-3.429366e+000
275000	9.896721e-001	-3.631877e+000
282000	9.875762e-001	-3.692192e+000
289000	9.854453e-001	-3.735442e+000
296000	9.839424e-001	-3.631104e+000
303000	9.869470e-001	-3.635434e+000
310000	9.868487e-001	-3.759575e+000
317000	9.895676e-001	-3.904249e+000
324000	9.881894e-001	-3.977408e+000
331000	9.887380e-001	-4.097384e+000
338000	9.901016e-001	-4.163797e+000
345000	9.887731e-001	-4.281509e+000
352000	9.882700e-001	-4.420525e+000
359000	9.896080e-001	-4.508197e+000
366000	9.897845e-001	-4.647671e+000
373000	9.904730e-001	-4.711134e+000
380000	9.914777e-001	-4.876225e+000
387000	9.923333e-001	-4.992869e+000
394000	9.918993e-001	-5.202583e+000
401000	9.891200e-001	-5.246152e+000
408000	9.891447e-001	-5.348095e+000
415000	9.903278e-001	-5.406919e+000
422000	9.896673e-001	-5.402157e+000
429000	9.909848e-001	-5.548490e+000
436000	9.917900e-001	-5.605880e+000
443000	9.919295e-001	-5.697183e+000
450000	9.925025e-001	-5.888465e+000
457000	9.925444e-001	-5.988553e+000
464000	9.917591e-001	-6.053605e+000
471000	9.929170e-001	-6.260528e+000
478000	9.911422e-001	-6.354322e+000
485000	9.918815e-001	-6.334998e+000
492000	9.919546e-001	-6.500989e+000
499000	9.933581e-001	-6.576436e+000
506000	9.925410e-001	-6.715056e+000
513000	9.930102e-001	-6.898244e+000
520000	9.954458e-001	-6.996611e+000
527000	9.941489e-001	-7.165633e+000
534000	9.939666e-001	-7.344033e+000
541000	9.935732e-001	-7.473611e+000
548000	9.911009e-001	-7.648266e+000
555000	9.911668e-001	-7.850591e+000
562000	9.894919e-001	-7.940431e+000
569000	9.880917e-001	-7.959131e+000
576000	9.851756e-001	-7.904188e+000
583000	9.863437e-001	-7.987909e+000
590000	9.862480e-001	-7.969523e+000
597000	9.857000e-001	-8.112977e+000
604000	9.880060e-001	-8.116443e+000
611000	9.882231e-001	-8.256141e+000
618000	9.878416e-001	-8.364014e+000
625000	9.884312e-001	-8.459244e+000
632000	9.890431e-001	-8.644592e+000
639000	9.883466e-001	-8.704874e+000
646000	9.879206e-001	-8.775659e+000
653000	9.873422e-001	-8.813986e+000
660000	9.892761e-001	-8.846301e+000
667000	9.901870e-001	-8.940384e+000
674000	9.916835e-001	-9.104993e+000
681000	9.904698e-001	-9.280099e+000
688000	9.902165e-001	-9.406707e+000
695000	9.903258e-001	-9.503483e+000
702000	9.899480e-001	-9.588965e+000
709000	9.888960e-001	-9.754427e+000
716000	9.901416e-001	-9.902800e+000
723000	9.911806e-001	-9.953537e+000
730000	9.890122e-001	-1.014614e+001
737000	9.882547e-001	-1.024259e+001
744000	9.874670e-001	-1.038266e+001
751000	9.873532e-001	-1.048208e+001
758000	9.867009e-001	-1.057980e+001
765000	9.858261e-001	-1.069280e+001
772000	9.859382e-001	-1.079885e+001
779000	9.849218e-001	-1.096265e+001
786000	9.831934e-001	-1.106846e+001
793000	9.826238e-001	-1.111896e+001
800000	9.812436e-001	-1.119529e+001
807000	9.796669e-001	-1.132543e+001
814000	9.777566e-001	-1.134271e+001
821000	9.752657e-001	-1.137304e+001
828000	9.736153e-001	-1.132973e+001
835000	9.756546e-001	-1.125919e+001
842000	9.761662e-001	-1.127093e+001
849000	9.785202e-001	-1.130510e+001
856000	9.788222e-001	-1.131096e+001
863000	9.804894e-001	-1.146359e+001
870000	9.795432e-001	-1.161004e+001
877000	9.813810e-001	-1.173979e+001
884000	9.806798e-001	-1.184167e+001
891000	9.814979e-001	-1.188757e+001
898000	9.803318e-001	-1.197664e+001
905000	9.806088e-001	-1.194097e+001
912000	9.803966e-001	-1.205564e+001
919000	9.840177e-001	-1.215762e+001
926000	9.839227e-001	-1.231964e+001
933000	9.841129e-001	-1.239705e+001
940000	9.840790e-001	-1.251833e+001
947000	9.848588e-001	-1.262842e+001
954000	9.862056e-001	-1.272734e+001
961000	9.836168e-001	-1.283626e+001
968000	9.835311e-001	-1.292618e+001
975000	9.844165e-001	-1.301032e+001
982000	9.836171e-001	-1.316566e+001
989000	9.844892e-001	-1.329030e+001
996000	9.844126e-001	-1.332807e+001
1003000	9.850354e-001	-1.350739e+001
1010000	9.850783e-001	-1.366602e+001
1017000	9.852271e-001	-1.386766e+001
1024000	9.842730e-001	-1.392520e+001
1031000	9.841766e-001	-1.406095e+001
1038000	9.820835e-001	-1.418524e+001
1045000	9.809442e-001	-1.428044e+001
1052000	9.804209e-001	-1.432912e+001
1059000	9.790695e-001	-1.444342e+001
1066000	9.792862e-001	-1.433323e+001
1073000	9.787862e-001	-1.438542e+001
1080000	9.811231e-001	-1.446001e+001
1087000	9.802486e-001	-1.452466e+001
1094000	9.819067e-001	-1.465426e+001
1101000	9.813903e-001	-1.476045e+001
1108000	9.827776e-001	-1.486105e+001
1115000	9.839698e-001	-1.500114e+001
1122000	9.815841e-001	-1.511116e+001
1129000	9.816656e-001	-1.522928e+001
1136000	9.810358e-001	-1.530949e+001
1143000	9.824511e-001	-1.536033e+001
1150000	9.817897e-001	-1.544523e+001
1157000	9.831498e-001	-1.559953e+001
1164000	9.831551e-001	-1.563231e+001
1171000	9.830693e-001	-1.582594e+001
1178000	9.843650e-001	-1.591463e+001
1185000	9.840825e-001	-1.603097e+001
1192000	9.843879e-001	-1.615938e+001
1199000	9.833801e-001	-1.630708e+001
1206000	9.827420e-001	-1.641558e+001
1213000	9.800115e-001	-1.657685e+001
1220000	9.818044e-001	-1.663956e+001
1227000	9.818730e-001	-1.675452e+001
1234000	9.809075e-001	-1.683685e+001
1241000	9.799866e-001	-1.699821e+001
1248000	9.795427e-001	-1.713150e+001
1255000	9.798153e-001	-1.713492e+001
1262000	9.788289e-001	-1.730203e+001
1269000	9.786136e-001	-1.739977e+001
1276000	9.775593e-001	-1.747941e+001
1283000	9.766514e-001	-1.755929e+001
1290000	9.767197e-001	-1.768417e+001
1297000	9.756559e-001	-1.775879e+001
1304000	9.732575e-001	-1.780204e+001
1311000	9.743384e-001	-1.783225e+001
1318000	9.731543e-001	-1.779871e+001
1325000	9.751974e-001	-1.791750e+001
1332000	9.747030e-001	-1.793839e+001
1339000	9.746825e-001	-1.794395e+001
1346000	9.760099e-001	-1.807894e+001
1353000	9.748163e-001	-1.824722e+001
1360000	9.766769e-001	-1.831125e+001
1367000	9.773215e-001	-1.843224e+001
1374000	9.759751e-001	-1.854807e+001
1381000	9.765374e-001	-1.868015e+001
1388000	9.776541e-001	-1.880943e+001
1395000	9.781161e-001	-1.879086e+001
1402000	9.773670e-001	-1.897935e+001
1409000	9.779325e-001	-1.906232e+001
1416000	9.773878e-001	-1.915321e+001
1423000	9.771072e-001	-1.934902e+001
1430000	9.760110e-001	-1.937856e+001
1437000	9.774846e-001	-1.951961e+001
1444000	9.774470e-001	-1.965997e+001
1451000	9.748633e-001	-1.977496e+001
1458000	9.762706e-001	-1.986467e+001
1465000	9.744858e-001	-2.002916e+001
1472000	9.752151e-001	-2.012500e+001
1479000	9.751907e-001	-2.014690e+001
1486000	9.745057e-001	-2.022676e+001
1493000	9.739275e-001	-2.041055e+001
1500000	9.708482e-001	-2.056860e+001
