!Agilent Technologies,E5071C,MY46100265,A.07.02
!Date: Wed Mar 04 14:54:50 2020
!Data & Calibration Information:
!Freq	S11:SOLT1(ON)
# Hz S MA R 50
100000	9.988948e-001	-1.764589e+000
102743	9.984374e-001	-1.635324e+000
105486	1.000456e+000	-1.921863e+000
108229	9.982516e-001	-1.941749e+000
110973	9.967981e-001	-2.066733e+000
113716	9.991396e-001	-2.291509e+000
116459	9.966438e-001	-2.446389e+000
119202	9.955105e-001	-2.679862e+000
121945	9.927335e-001	-2.758229e+000
124688	9.889882e-001	-3.045791e+000
127431	9.909632e-001	-3.111049e+000
130175	9.898068e-001	-3.307183e+000
132918	9.904197e-001	-3.884718e+000
135661	9.908749e-001	-4.371799e+000
138404	9.860467e-001	-4.718553e+000
141147	9.782351e-001	-5.277988e+000
143890	9.668705e-001	-6.234843e+000
146633	9.506709e-001	-7.210671e+000
149377	9.248314e-001	-8.330166e+000
152120	8.800139e-001	-9.060837e+000
154863	8.136210e-001	-8.738775e+000
157606	7.335187e-001	-4.084275e+000
160349	7.308540e-001	6.433890e+000
163092	8.519119e-001	1.219069e+001
165835	9.650456e-001	8.428669e+000
168579	9.538318e-001	5.236893e+000
171322	9.825921e-001	4.373208e+000
174065	9.834521e-001	3.806031e+000
176808	9.719591e-001	3.520998e+000
179551	9.727246e-001	2.282305e+000
182294	9.876500e-001	2.255397e+000
185037	9.904944e-001	1.927398e+000
187781	9.896757e-001	1.344602e+000
190524	9.927468e-001	1.759681e+000
193267	9.926505e-001	9.547393e-001
196010	9.997912e-001	1.207025e+000
198753	9.921465e-001	8.715562e-001
201496	9.962358e-001	6.851187e-001
204239	9.935899e-001	5.697034e-001
206983	9.954233e-001	5.239164e-001
209726	9.971511e-001	4.739587e-001
212469	9.936983e-001	1.571148e-001
215212	9.950748e-001	2.729466e-002
217955	9.934092e-001	-2.457743e-002
220698	9.917396e-001	-2.780021e-002
223441	9.911673e-001	-9.734126e-002
226185	9.868205e-001	-6.935502e-002
228928	9.883910e-001	-1.890907e-001
231671	9.881112e-001	-1.932065e-001
234414	9.906095e-001	-4.904054e-002
237157	9.916027e-001	-2.094734e-001
239900	9.909552e-001	-2.150190e-001
242643	9.915663e-001	-3.475571e-001
245387	9.908373e-001	-3.711558e-001
248130	9.902019e-001	-4.782411e-001
250873	9.905920e-001	-4.713097e-001
253616	9.903783e-001	-6.692764e-001
256359	9.872123e-001	-5.855010e-001
259102	9.910014e-001	-6.927264e-001
261845	9.844857e-001	-5.924400e-001
264589	9.865264e-001	-7.101075e-001
267332	9.829505e-001	-5.946334e-001
270075	9.872440e-001	-6.249050e-001
272818	9.859781e-001	-5.736774e-001
275561	9.878196e-001	-6.863862e-001
278304	9.869821e-001	-6.254727e-001
281047	9.868418e-001	-6.857737e-001
283791	9.872143e-001	-6.961315e-001
286534	9.877504e-001	-8.097564e-001
289277	9.871156e-001	-7.811028e-001
292020	9.861105e-001	-8.306109e-001
294763	9.850912e-001	-7.937630e-001
297506	9.853797e-001	-8.869575e-001
300249	9.850997e-001	-9.518041e-001
302993	9.844861e-001	-1.010783e+000
305736	9.846169e-001	-1.040438e+000
308479	9.802981e-001	-1.021671e+000
311222	9.817213e-001	-9.584250e-001
313965	9.817225e-001	-1.012965e+000
316708	9.808214e-001	-1.031017e+000
319451	9.791710e-001	-9.748526e-001
322195	9.775670e-001	-9.692522e-001
324938	9.769015e-001	-8.398844e-001
327681	9.779283e-001	-7.764643e-001
330424	9.774194e-001	-7.264564e-001
333167	9.790089e-001	-7.001698e-001
335910	9.782170e-001	-7.841573e-001
338653	9.804670e-001	-7.422689e-001
341397	9.795241e-001	-5.717100e-001
344140	9.797464e-001	-8.126147e-001
346883	9.790769e-001	-6.272197e-001
349626	9.805007e-001	-7.522491e-001
352369	9.809599e-001	-7.099951e-001
355112	9.830727e-001	-6.538425e-001
357855	9.816022e-001	-7.492107e-001
360599	9.828300e-001	-8.220192e-001
363342	9.801910e-001	-9.650577e-001
366085	9.793624e-001	-9.209641e-001
368828	9.754898e-001	-1.017107e+000
371571	9.749254e-001	-9.415515e-001
374314	9.720312e-001	-7.855360e-001
377057	9.685202e-001	-4.593777e-001
379800	9.692370e-001	-2.518841e-001
382544	9.720347e-001	1.707435e-001
385287	9.770187e-001	3.103170e-001
388030	9.823001e-001	3.614996e-001
390773	9.883517e-001	1.102601e-001
393516	9.914210e-001	5.006151e-002
396259	9.903054e-001	-6.742637e-002
399002	9.930867e-001	-1.772129e-001
401746	9.918759e-001	-3.283820e-001
404489	9.935427e-001	-2.542067e-001
407232	9.935141e-001	-2.382262e-001
409975	9.937382e-001	-4.598572e-001
412718	9.951781e-001	-3.443574e-001
415461	9.968310e-001	-5.238817e-001
418204	9.951771e-001	-4.500936e-001
420948	9.948107e-001	-5.520690e-001
423691	9.941289e-001	-6.046412e-001
426434	9.966099e-001	-7.243739e-001
429177	9.965077e-001	-7.847393e-001
431920	9.973047e-001	-7.764583e-001
434663	9.971706e-001	-7.945129e-001
437406	9.985094e-001	-8.492596e-001
440150	9.961036e-001	-9.996961e-001
442893	9.987844e-001	-9.811003e-001
445636	9.975165e-001	-9.990713e-001
448379	9.986829e-001	-1.102319e+000
451122	9.974921e-001	-1.146761e+000
453865	9.948500e-001	-1.219454e+000
456608	9.957856e-001	-1.164732e+000
459352	9.958484e-001	-1.233445e+000
462095	9.957670e-001	-1.196972e+000
464838	9.979843e-001	-1.290891e+000
467581	9.961591e-001	-1.309193e+000
470324	9.951737e-001	-1.327152e+000
473067	9.985307e-001	-1.306105e+000
475810	9.983309e-001	-1.452220e+000
478554	9.978014e-001	-1.362042e+000
481297	9.961502e-001	-1.478272e+000
484040	9.956544e-001	-1.500921e+000
486783	9.966485e-001	-1.503367e+000
489526	9.964752e-001	-1.595673e+000
492269	9.940117e-001	-1.594439e+000
495012	9.946812e-001	-1.608545e+000
497756	9.947931e-001	-1.569472e+000
500499	9.939662e-001	-1.602405e+000
503242	9.930563e-001	-1.650893e+000
505985	9.938330e-001	-1.613757e+000
508728	9.927114e-001	-1.684621e+000
511471	9.940003e-001	-1.730552e+000
514214	9.957531e-001	-1.665619e+000
516958	9.912044e-001	-1.825932e+000
519701	9.932752e-001	-1.784024e+000
522444	9.927112e-001	-1.729872e+000
525187	9.935964e-001	-1.873082e+000
527930	9.910815e-001	-1.764328e+000
530673	9.924110e-001	-1.879679e+000
533416	9.908560e-001	-1.873002e+000
536160	9.902406e-001	-1.881121e+000
538903	9.906327e-001	-1.896045e+000
541646	9.896498e-001	-1.911878e+000
544389	9.891153e-001	-1.912176e+000
547132	9.874005e-001	-1.943283e+000
549875	9.919782e-001	-1.884100e+000
552618	9.904031e-001	-1.879025e+000
555362	9.890862e-001	-2.060412e+000
558105	9.886532e-001	-1.946921e+000
560848	9.882406e-001	-1.909981e+000
563591	9.896361e-001	-2.041432e+000
566334	9.887562e-001	-2.123174e+000
569077	9.882790e-001	-2.076047e+000
571820	9.878814e-001	-2.139989e+000
574564	9.873218e-001	-2.155783e+000
577307	9.855169e-001	-2.149337e+000
580050	9.859122e-001	-2.140615e+000
582793	9.851342e-001	-2.092296e+000
585536	9.840305e-001	-2.159198e+000
588279	9.815072e-001	-2.143869e+000
591022	9.822070e-001	-2.158307e+000
593766	9.801124e-001	-2.070243e+000
596509	9.792259e-001	-1.967498e+000
599252	9.766948e-001	-1.900239e+000
601995	9.779857e-001	-1.883472e+000
604738	9.766196e-001	-1.752824e+000
607481	9.772698e-001	-1.664935e+000
610224	9.796184e-001	-1.575114e+000
612968	9.800351e-001	-1.626155e+000
615711	9.816521e-001	-1.583973e+000
618454	9.830950e-001	-1.392452e+000
621197	9.854145e-001	-1.500043e+000
623940	9.860796e-001	-1.486720e+000
626683	9.872256e-001	-1.654653e+000
629426	9.874530e-001	-1.755038e+000
632170	9.862729e-001	-1.817957e+000
634913	9.851614e-001	-1.877729e+000
637656	9.841919e-001	-1.752332e+000
640399	9.848356e-001	-1.559012e+000
643142	9.827993e-001	-1.620118e+000
645885	9.850754e-001	-1.432201e+000
648628	9.866417e-001	-1.511957e+000
651372	9.871805e-001	-1.455477e+000
654115	9.889418e-001	-1.443915e+000
656858	9.921188e-001	-1.458158e+000
659601	9.919103e-001	-1.524602e+000
662344	9.917826e-001	-1.592060e+000
665087	9.929416e-001	-1.554064e+000
667830	9.926599e-001	-1.654138e+000
670574	9.921354e-001	-1.636354e+000
673317	9.947770e-001	-1.741721e+000
676060	9.915116e-001	-1.673931e+000
678803	9.932618e-001	-1.771443e+000
681546	9.928831e-001	-1.715258e+000
684289	9.935585e-001	-1.697093e+000
687032	9.957283e-001	-1.835479e+000
689776	9.939760e-001	-1.810659e+000
692519	9.958262e-001	-1.803565e+000
695262	9.954796e-001	-1.866376e+000
698005	9.950180e-001	-1.804079e+000
700748	9.934866e-001	-1.888030e+000
703491	9.947969e-001	-1.953380e+000
706234	9.958023e-001	-2.009929e+000
708978	9.938936e-001	-1.963797e+000
711721	9.955087e-001	-1.942035e+000
714464	9.960213e-001	-2.050125e+000
717207	9.954757e-001	-1.994418e+000
719950	9.958561e-001	-2.133207e+000
722693	9.963734e-001	-2.107359e+000
725436	9.960249e-001	-2.009847e+000
728180	9.940838e-001	-2.107816e+000
730923	9.968166e-001	-2.160958e+000
733666	9.982462e-001	-2.107365e+000
736409	9.953926e-001	-2.199902e+000
739152	9.954074e-001	-2.189756e+000
741895	9.962354e-001	-2.281838e+000
744638	9.954222e-001	-2.239368e+000
747382	9.967722e-001	-2.299403e+000
750125	9.956423e-001	-2.267608e+000
752868	9.957102e-001	-2.278227e+000
755611	9.945159e-001	-2.255175e+000
758354	9.961385e-001	-2.323329e+000
761097	9.961628e-001	-2.376255e+000
763840	9.951265e-001	-2.443194e+000
766584	9.950092e-001	-2.441501e+000
769327	9.951903e-001	-2.453059e+000
772070	9.979508e-001	-2.528459e+000
774813	9.970049e-001	-2.486279e+000
777556	9.959450e-001	-2.529045e+000
780299	9.960063e-001	-2.666512e+000
783042	9.952551e-001	-2.499608e+000
785786	9.947468e-001	-2.605455e+000
788529	9.956585e-001	-2.593647e+000
791272	9.967043e-001	-2.629944e+000
794015	9.956529e-001	-2.675930e+000
796758	9.956000e-001	-2.534886e+000
799501	9.951865e-001	-2.621600e+000
802244	9.967339e-001	-2.739023e+000
804988	9.957344e-001	-2.769660e+000
807731	9.951020e-001	-2.692613e+000
810474	9.953885e-001	-2.826538e+000
813217	9.961963e-001	-2.870356e+000
815960	9.944676e-001	-2.769272e+000
818703	9.922164e-001	-2.784076e+000
821446	9.934456e-001	-2.793211e+000
824190	9.928785e-001	-2.752367e+000
826933	9.917007e-001	-2.729950e+000
829676	9.911836e-001	-2.752618e+000
832419	9.921547e-001	-2.789402e+000
835162	9.910683e-001	-2.709891e+000
837905	9.939531e-001	-2.769607e+000
840648	9.934271e-001	-2.798625e+000
843392	9.935625e-001	-2.730458e+000
846135	9.914139e-001	-2.840478e+000
848878	9.949936e-001	-2.842660e+000
851621	9.933115e-001	-2.889612e+000
854364	9.940582e-001	-2.880651e+000
857107	9.922644e-001	-2.899112e+000
859850	9.944120e-001	-2.900023e+000
862594	9.943384e-001	-2.958027e+000
865337	9.943498e-001	-2.994904e+000
868080	9.930547e-001	-3.008311e+000
870823	9.932371e-001	-2.980136e+000
873566	9.935226e-001	-2.941130e+000
876309	9.927640e-001	-2.999459e+000
879052	9.905668e-001	-3.036693e+000
881796	9.919369e-001	-2.949327e+000
884539	9.902574e-001	-2.992496e+000
887282	9.914601e-001	-2.887208e+000
890025	9.910878e-001	-2.917523e+000
892768	9.931889e-001	-2.892467e+000
895511	9.916650e-001	-2.909756e+000
898254	9.920741e-001	-2.927801e+000
900998	9.934075e-001	-2.884757e+000
903741	9.926374e-001	-2.944982e+000
906484	9.918157e-001	-2.885556e+000
909227	9.931335e-001	-2.949962e+000
911970	9.930159e-001	-2.975514e+000
914713	9.933808e-001	-3.014583e+000
917456	9.922569e-001	-3.024970e+000
920200	9.920751e-001	-3.017564e+000
922943	9.951022e-001	-2.987859e+000
925686	9.941224e-001	-3.049208e+000
928429	9.942838e-001	-3.014995e+000
931172	9.918895e-001	-3.065471e+000
933915	9.943992e-001	-3.043391e+000
936658	9.940199e-001	-3.160388e+000
939401	9.953053e-001	-3.035310e+000
942145	9.964169e-001	-3.084218e+000
944888	9.930061e-001	-3.116745e+000
947631	9.942584e-001	-3.140943e+000
950374	9.957066e-001	-3.075585e+000
953117	9.957698e-001	-3.240561e+000
955860	9.947511e-001	-3.209299e+000
958603	9.948851e-001	-3.133884e+000
961347	9.976886e-001	-3.218483e+000
964090	9.958801e-001	-3.145332e+000
966833	9.952229e-001	-3.166933e+000
969576	9.958879e-001	-3.314583e+000
972319	9.957003e-001	-3.162649e+000
975062	9.951217e-001	-3.259525e+000
977805	9.960180e-001	-3.309374e+000
980549	9.960060e-001	-3.424505e+000
983292	9.955451e-001	-3.357212e+000
986035	9.970653e-001	-3.405663e+000
988778	9.964952e-001	-3.446982e+000
991521	9.967447e-001	-3.352973e+000
994264	9.965156e-001	-3.489432e+000
997007	9.962847e-001	-3.511843e+000
999751	9.962635e-001	-3.431009e+000
1002494	9.952934e-001	-3.602170e+000
1005237	9.960042e-001	-3.545887e+000
1007980	9.970252e-001	-3.550244e+000
1010723	9.955102e-001	-3.590321e+000
1013466	9.949337e-001	-3.531336e+000
1016209	9.955942e-001	-3.682203e+000
1018953	9.955840e-001	-3.644036e+000
1021696	9.950093e-001	-3.519126e+000
1024439	9.960861e-001	-3.619535e+000
1027182	9.963057e-001	-3.670835e+000
1029925	9.959837e-001	-3.672256e+000
1032668	9.928768e-001	-3.719869e+000
1035411	9.953724e-001	-3.749110e+000
1038155	9.948444e-001	-3.767948e+000
1040898	9.956347e-001	-3.784242e+000
1043641	9.930265e-001	-3.760219e+000
1046384	9.932734e-001	-3.824471e+000
1049127	9.931858e-001	-3.839500e+000
1051870	9.924684e-001	-3.900718e+000
1054613	9.937698e-001	-3.812646e+000
1057357	9.921223e-001	-3.958506e+000
1060100	9.924195e-001	-3.944165e+000
1062843	9.917131e-001	-3.877380e+000
1065586	9.905488e-001	-3.953868e+000
1068329	9.903719e-001	-3.843822e+000
1071072	9.897499e-001	-3.884643e+000
1073815	9.883007e-001	-3.847922e+000
1076559	9.887447e-001	-3.831267e+000
1079302	9.908647e-001	-3.682334e+000
1082045	9.896712e-001	-3.690764e+000
1084788	9.892204e-001	-3.634514e+000
1087531	9.910839e-001	-3.700407e+000
1090274	9.910793e-001	-3.673450e+000
1093017	9.929078e-001	-3.649403e+000
1095761	9.920882e-001	-3.704277e+000
1098504	9.923300e-001	-3.673465e+000
1101247	9.941410e-001	-3.688499e+000
1103990	9.940797e-001	-3.730407e+000
1106733	9.947469e-001	-3.742682e+000
1109476	9.950937e-001	-3.633049e+000
1112219	9.946041e-001	-3.897277e+000
1114963	9.952512e-001	-3.816152e+000
1117706	9.955048e-001	-3.832831e+000
1120449	9.939186e-001	-3.810814e+000
1123192	9.934608e-001	-3.950560e+000
1125935	9.952607e-001	-3.976663e+000
1128678	9.957164e-001	-3.926436e+000
1131421	9.966896e-001	-3.901365e+000
1134165	9.942592e-001	-4.073956e+000
1136908	9.948722e-001	-4.034244e+000
1139651	9.936245e-001	-4.021245e+000
1142394	9.963743e-001	-4.093349e+000
1145137	9.941057e-001	-4.124467e+000
1147880	9.949945e-001	-4.079319e+000
1150623	9.949508e-001	-4.147009e+000
1153367	9.926417e-001	-4.190838e+000
1156110	9.938853e-001	-4.093174e+000
1158853	9.930843e-001	-4.130262e+000
1161596	9.941980e-001	-4.150172e+000
1164339	9.934094e-001	-4.194206e+000
1167082	9.927134e-001	-4.116134e+000
1169825	9.928338e-001	-4.192147e+000
1172569	9.936819e-001	-4.196973e+000
1175312	9.948142e-001	-4.236554e+000
1178055	9.930482e-001	-4.208302e+000
1180798	9.936621e-001	-4.230900e+000
1183541	9.936215e-001	-4.277622e+000
1186284	9.931828e-001	-4.227949e+000
1189027	9.941061e-001	-4.315116e+000
1191771	9.940922e-001	-4.198083e+000
1194514	9.938163e-001	-4.425540e+000
1197257	9.912587e-001	-4.367101e+000
1200000	9.920368e-001	-4.317521e+000
