!Agilent Technologies,E5071C,MY46100265,A.07.02
!Date: Wed Mar 04 14:55:00 2020
!Data & Calibration Information:
!Freq	S11:SOLT1(ON)
# Hz S MA R 50
100000	9.983463e-001	-1.809536e+000
102743	9.968855e-001	-1.706077e+000
105486	9.980848e-001	-1.961121e+000
108229	1.000282e+000	-1.995760e+000
110973	9.989152e-001	-2.099574e+000
113716	9.988643e-001	-2.347083e+000
116459	9.974490e-001	-2.476849e+000
119202	9.952854e-001	-2.691995e+000
121945	9.943714e-001	-2.753976e+000
124688	9.920186e-001	-2.935328e+000
127431	9.913244e-001	-3.134801e+000
130175	9.928533e-001	-3.341662e+000
132918	9.962637e-001	-3.918159e+000
135661	9.940624e-001	-4.429393e+000
138404	9.888692e-001	-4.875667e+000
141147	9.809633e-001	-5.452800e+000
143890	9.703291e-001	-6.369701e+000
146633	9.553877e-001	-7.345805e+000
149377	9.296052e-001	-8.674865e+000
152120	8.815016e-001	-1.025668e+001
154863	8.014660e-001	-1.024975e+001
157606	7.041766e-001	-4.729090e+000
160349	7.009197e-001	8.591735e+000
163092	8.680425e-001	1.474950e+001
165835	9.867165e-001	8.566594e+000
168579	9.659445e-001	5.218765e+000
171322	9.795769e-001	4.633586e+000
174065	9.834859e-001	3.414357e+000
176808	9.848548e-001	2.673361e+000
179551	9.877966e-001	2.260710e+000
182294	9.861444e-001	2.056904e+000
185037	9.903517e-001	1.850633e+000
187781	9.949021e-001	1.127228e+000
190524	9.907806e-001	1.590926e+000
193267	9.968213e-001	1.207510e+000
196010	9.966892e-001	1.122480e+000
198753	9.932010e-001	9.262897e-001
201496	9.942898e-001	6.939967e-001
204239	9.922498e-001	5.905716e-001
206983	9.943066e-001	4.593736e-001
209726	9.928792e-001	2.741139e-001
212469	9.933572e-001	2.422611e-001
215212	9.955476e-001	6.462755e-002
217955	9.942581e-001	9.910627e-002
220698	9.906732e-001	-1.500563e-001
223441	9.917312e-001	-9.398920e-002
226185	9.890316e-001	-7.716962e-002
228928	9.896426e-001	-1.688734e-001
231671	9.887772e-001	-1.764610e-001
234414	9.908839e-001	-3.883188e-002
237157	9.905106e-001	-1.384377e-001
239900	9.898148e-001	-2.713137e-001
242643	9.919506e-001	-3.472940e-001
245387	9.927396e-001	-4.600016e-001
248130	9.916061e-001	-5.275305e-001
250873	9.906132e-001	-4.425328e-001
253616	9.890240e-001	-5.896892e-001
256359	9.884439e-001	-5.776169e-001
259102	9.879658e-001	-6.821123e-001
261845	9.863728e-001	-5.804348e-001
264589	9.870529e-001	-6.358415e-001
267332	9.853542e-001	-6.657880e-001
270075	9.876924e-001	-6.085572e-001
272818	9.873063e-001	-5.582619e-001
275561	9.882163e-001	-6.523318e-001
278304	9.873152e-001	-6.212887e-001
281047	9.872338e-001	-7.039511e-001
283791	9.878367e-001	-6.555785e-001
286534	9.882478e-001	-7.907204e-001
289277	9.869033e-001	-7.271628e-001
292020	9.872568e-001	-8.684038e-001
294763	9.865040e-001	-8.795399e-001
297506	9.891391e-001	-8.426739e-001
300249	9.867031e-001	-1.033333e+000
302993	9.858579e-001	-1.131863e+000
305736	9.835935e-001	-9.972951e-001
308479	9.815445e-001	-1.086067e+000
311222	9.809061e-001	-1.101227e+000
313965	9.812886e-001	-1.056559e+000
316708	9.787962e-001	-1.043638e+000
319451	9.787298e-001	-9.932108e-001
322195	9.774876e-001	-1.025732e+000
324938	9.757590e-001	-9.130967e-001
327681	9.784620e-001	-7.378021e-001
330424	9.757571e-001	-7.782073e-001
333167	9.767995e-001	-7.473872e-001
335910	9.783422e-001	-6.481192e-001
338653	9.798598e-001	-6.512364e-001
341397	9.781953e-001	-6.284159e-001
344140	9.793245e-001	-7.269235e-001
346883	9.792224e-001	-6.535459e-001
349626	9.788855e-001	-6.831472e-001
352369	9.809531e-001	-7.007517e-001
355112	9.808462e-001	-6.882659e-001
357855	9.817232e-001	-7.429806e-001
360599	9.832062e-001	-6.571207e-001
363342	9.789792e-001	-9.197743e-001
366085	9.786640e-001	-8.998715e-001
368828	9.776528e-001	-9.787546e-001
371571	9.753939e-001	-9.771415e-001
374314	9.719507e-001	-8.502494e-001
377057	9.682511e-001	-5.403255e-001
379800	9.678733e-001	-2.879239e-001
382544	9.720764e-001	5.979627e-002
385287	9.754019e-001	3.567829e-001
388030	9.805726e-001	3.502965e-001
390773	9.856440e-001	2.275162e-001
393516	9.900722e-001	1.149383e-001
396259	9.906725e-001	-6.355584e-002
399002	9.924078e-001	-1.667753e-001
401746	9.914220e-001	-2.849925e-001
404489	9.934603e-001	-2.531987e-001
407232	9.935423e-001	-2.618403e-001
409975	9.927311e-001	-4.005467e-001
412718	9.968855e-001	-3.126951e-001
415461	9.961411e-001	-4.964638e-001
418204	9.943807e-001	-4.579547e-001
420948	9.952652e-001	-5.705431e-001
423691	9.956694e-001	-6.251521e-001
426434	9.956619e-001	-7.371852e-001
429177	9.972420e-001	-6.281014e-001
431920	9.968078e-001	-8.486589e-001
434663	9.965006e-001	-8.354957e-001
437406	9.989805e-001	-7.484813e-001
440150	9.978104e-001	-9.578078e-001
442893	9.991400e-001	-1.061877e+000
445636	9.968114e-001	-1.022700e+000
448379	9.986643e-001	-1.067975e+000
451122	9.976503e-001	-1.125678e+000
453865	9.971004e-001	-1.173886e+000
456608	9.967513e-001	-1.236532e+000
459352	9.946361e-001	-1.219773e+000
462095	9.967781e-001	-1.212613e+000
464838	9.981033e-001	-1.340022e+000
467581	9.961361e-001	-1.372802e+000
470324	9.965933e-001	-1.293427e+000
473067	9.975786e-001	-1.248963e+000
475810	9.988452e-001	-1.424151e+000
478554	9.973716e-001	-1.411478e+000
481297	9.965784e-001	-1.474018e+000
484040	9.961045e-001	-1.458715e+000
486783	9.963677e-001	-1.472792e+000
489526	9.957806e-001	-1.591214e+000
492269	9.938117e-001	-1.589079e+000
495012	9.944425e-001	-1.643920e+000
497756	9.931991e-001	-1.615454e+000
500499	9.952264e-001	-1.673419e+000
503242	9.945284e-001	-1.629160e+000
505985	9.948813e-001	-1.727080e+000
508728	9.937899e-001	-1.648238e+000
511471	9.934281e-001	-1.675151e+000
514214	9.935318e-001	-1.667954e+000
516958	9.909520e-001	-1.821416e+000
519701	9.930128e-001	-1.812626e+000
522444	9.927156e-001	-1.820046e+000
525187	9.926813e-001	-1.853162e+000
527930	9.903550e-001	-1.733885e+000
530673	9.933078e-001	-1.847196e+000
533416	9.915909e-001	-1.874992e+000
536160	9.905206e-001	-1.789774e+000
538903	9.918307e-001	-1.856817e+000
541646	9.900655e-001	-1.957853e+000
544389	9.890087e-001	-1.984498e+000
547132	9.892500e-001	-1.842831e+000
549875	9.902367e-001	-1.834144e+000
552618	9.899426e-001	-1.837754e+000
555362	9.903743e-001	-1.969133e+000
558105	9.890271e-001	-1.896758e+000
560848	9.879253e-001	-1.956667e+000
563591	9.895238e-001	-2.061178e+000
566334	9.884063e-001	-2.184535e+000
569077	9.895252e-001	-2.118886e+000
571820	9.881558e-001	-2.147694e+000
574564	9.872873e-001	-2.192195e+000
577307	9.867772e-001	-2.182332e+000
580050	9.856288e-001	-2.148792e+000
582793	9.847251e-001	-2.073951e+000
585536	9.851924e-001	-2.135605e+000
588279	9.822101e-001	-2.140629e+000
591022	9.803641e-001	-2.107846e+000
593766	9.782381e-001	-2.127598e+000
596509	9.790707e-001	-1.881845e+000
599252	9.780961e-001	-1.837328e+000
601995	9.766088e-001	-1.817603e+000
604738	9.781425e-001	-1.565696e+000
607481	9.781518e-001	-1.590020e+000
610224	9.795911e-001	-1.610023e+000
612968	9.798757e-001	-1.606439e+000
615711	9.816612e-001	-1.444988e+000
618454	9.847200e-001	-1.431581e+000
621197	9.856759e-001	-1.465453e+000
623940	9.864020e-001	-1.506958e+000
626683	9.876071e-001	-1.543476e+000
629426	9.868766e-001	-1.692506e+000
632170	9.879261e-001	-1.792545e+000
634913	9.844582e-001	-1.730915e+000
637656	9.849953e-001	-1.692920e+000
640399	9.837910e-001	-1.564242e+000
643142	9.833671e-001	-1.565677e+000
645885	9.854649e-001	-1.501306e+000
648628	9.858207e-001	-1.477342e+000
651372	9.891921e-001	-1.411285e+000
654115	9.895817e-001	-1.394743e+000
656858	9.900980e-001	-1.498935e+000
659601	9.909263e-001	-1.555221e+000
662344	9.918005e-001	-1.618383e+000
665087	9.934155e-001	-1.634309e+000
667830	9.917141e-001	-1.645861e+000
670574	9.914671e-001	-1.658799e+000
673317	9.913689e-001	-1.700503e+000
676060	9.905461e-001	-1.670069e+000
678803	9.931492e-001	-1.731941e+000
681546	9.929399e-001	-1.762152e+000
684289	9.938624e-001	-1.721367e+000
687032	9.935432e-001	-1.743045e+000
689776	9.942342e-001	-1.721308e+000
692519	9.937429e-001	-1.891517e+000
695262	9.964254e-001	-1.825408e+000
698005	9.946497e-001	-1.869581e+000
700748	9.951072e-001	-1.913725e+000
703491	9.946771e-001	-2.001507e+000
706234	9.944192e-001	-1.999484e+000
708978	9.948745e-001	-2.004518e+000
711721	9.956164e-001	-2.022519e+000
714464	9.959884e-001	-2.099441e+000
717207	9.951325e-001	-2.011836e+000
719950	9.955492e-001	-2.059645e+000
722693	9.961257e-001	-2.120603e+000
725436	9.963192e-001	-2.030745e+000
728180	9.952042e-001	-2.052207e+000
730923	9.963459e-001	-2.098756e+000
733666	9.974001e-001	-2.100706e+000
736409	9.953429e-001	-2.224789e+000
739152	9.955536e-001	-2.201720e+000
741895	9.957085e-001	-2.349810e+000
744638	9.960378e-001	-2.241424e+000
747382	9.967240e-001	-2.333145e+000
750125	9.960413e-001	-2.343626e+000
752868	9.968631e-001	-2.285307e+000
755611	9.951090e-001	-2.296370e+000
758354	9.961476e-001	-2.305743e+000
761097	9.960810e-001	-2.400672e+000
763840	9.947252e-001	-2.408867e+000
766584	9.933499e-001	-2.473404e+000
769327	9.947066e-001	-2.388309e+000
772070	9.964177e-001	-2.533328e+000
774813	9.963767e-001	-2.529030e+000
777556	9.959737e-001	-2.475097e+000
780299	9.964157e-001	-2.539621e+000
783042	9.972154e-001	-2.524826e+000
785786	9.957075e-001	-2.640514e+000
788529	9.957225e-001	-2.528695e+000
791272	9.953863e-001	-2.552109e+000
794015	9.958634e-001	-2.631093e+000
796758	9.959306e-001	-2.669218e+000
799501	9.949499e-001	-2.683703e+000
802244	9.949002e-001	-2.677406e+000
804988	9.968233e-001	-2.761240e+000
807731	9.949523e-001	-2.738855e+000
810474	9.944147e-001	-2.795385e+000
813217	9.940957e-001	-2.781342e+000
815960	9.945199e-001	-2.774838e+000
818703	9.927060e-001	-2.794545e+000
821446	9.926122e-001	-2.869529e+000
824190	9.920646e-001	-2.756759e+000
826933	9.919716e-001	-2.734458e+000
829676	9.926001e-001	-2.758822e+000
832419	9.918527e-001	-2.781232e+000
835162	9.912097e-001	-2.750358e+000
837905	9.935419e-001	-2.636775e+000
840648	9.944707e-001	-2.722358e+000
843392	9.946381e-001	-2.741937e+000
846135	9.925094e-001	-2.804119e+000
848878	9.944215e-001	-2.818016e+000
851621	9.935205e-001	-2.774997e+000
854364	9.950514e-001	-2.900499e+000
857107	9.932891e-001	-2.928043e+000
859850	9.945182e-001	-2.918118e+000
862594	9.948377e-001	-2.922399e+000
865337	9.913874e-001	-2.992372e+000
868080	9.932055e-001	-2.997889e+000
870823	9.926744e-001	-2.922899e+000
873566	9.934522e-001	-3.021259e+000
876309	9.940546e-001	-2.970272e+000
879052	9.912633e-001	-3.030312e+000
881796	9.919160e-001	-2.872415e+000
884539	9.908186e-001	-3.000737e+000
887282	9.911176e-001	-2.939064e+000
890025	9.914829e-001	-2.971170e+000
892768	9.913876e-001	-2.856599e+000
895511	9.916206e-001	-2.860806e+000
898254	9.924956e-001	-2.904971e+000
900998	9.928200e-001	-2.958249e+000
903741	9.911737e-001	-2.885203e+000
906484	9.917626e-001	-2.895164e+000
909227	9.926373e-001	-2.902055e+000
911970	9.940503e-001	-2.890254e+000
914713	9.933306e-001	-2.996335e+000
917456	9.919748e-001	-2.932664e+000
920200	9.932018e-001	-3.042625e+000
922943	9.930002e-001	-2.946612e+000
925686	9.937622e-001	-3.048472e+000
928429	9.960377e-001	-2.946090e+000
931172	9.934651e-001	-2.987635e+000
933915	9.939489e-001	-3.046665e+000
936658	9.937731e-001	-3.158601e+000
939401	9.938467e-001	-3.034342e+000
942145	9.946849e-001	-3.129781e+000
944888	9.933120e-001	-3.159306e+000
947631	9.943424e-001	-3.157852e+000
950374	9.967765e-001	-3.050544e+000
953117	9.966122e-001	-3.183716e+000
955860	9.952392e-001	-3.202182e+000
958603	9.944733e-001	-3.202102e+000
961347	9.957927e-001	-3.156492e+000
964090	9.968235e-001	-3.147431e+000
966833	9.947403e-001	-3.166058e+000
969576	9.950502e-001	-3.279077e+000
972319	9.968923e-001	-3.220362e+000
975062	9.957647e-001	-3.255103e+000
977805	9.957640e-001	-3.266414e+000
980549	9.957340e-001	-3.364520e+000
983292	9.956241e-001	-3.328677e+000
986035	9.975434e-001	-3.308031e+000
988778	9.951005e-001	-3.401469e+000
991521	9.961205e-001	-3.370239e+000
994264	9.942493e-001	-3.374015e+000
997007	9.971871e-001	-3.479014e+000
999751	9.955797e-001	-3.455540e+000
1002494	9.961706e-001	-3.632364e+000
1005237	9.955084e-001	-3.559859e+000
1007980	9.966829e-001	-3.618284e+000
1010723	9.961101e-001	-3.498800e+000
1013466	9.963752e-001	-3.626009e+000
1016209	9.962830e-001	-3.733464e+000
1018953	9.945879e-001	-3.567576e+000
1021696	9.957086e-001	-3.572090e+000
1024439	9.931917e-001	-3.559569e+000
1027182	9.956882e-001	-3.680750e+000
1029925	9.962676e-001	-3.630414e+000
1032668	9.955310e-001	-3.674772e+000
1035411	9.947430e-001	-3.716431e+000
1038155	9.944582e-001	-3.695896e+000
1040898	9.948453e-001	-3.777630e+000
1043641	9.947970e-001	-3.728139e+000
1046384	9.937453e-001	-3.793287e+000
1049127	9.934480e-001	-3.780073e+000
1051870	9.935342e-001	-3.906379e+000
1054613	9.933885e-001	-3.837980e+000
1057357	9.932985e-001	-3.962522e+000
1060100	9.921718e-001	-3.900630e+000
1062843	9.918924e-001	-3.850544e+000
1065586	9.907778e-001	-3.863620e+000
1068329	9.902985e-001	-3.892233e+000
1071072	9.894724e-001	-3.844270e+000
1073815	9.891944e-001	-3.827024e+000
1076559	9.885851e-001	-3.825593e+000
1079302	9.885573e-001	-3.785352e+000
1082045	9.908941e-001	-3.708934e+000
1084788	9.896262e-001	-3.700223e+000
1087531	9.914259e-001	-3.719029e+000
1090274	9.908493e-001	-3.686488e+000
1093017	9.928239e-001	-3.692984e+000
1095761	9.929713e-001	-3.616828e+000
1098504	9.946506e-001	-3.649659e+000
1101247	9.935135e-001	-3.705759e+000
1103990	9.941371e-001	-3.698195e+000
1106733	9.950538e-001	-3.721028e+000
1109476	9.933456e-001	-3.648370e+000
1112219	9.949023e-001	-3.906761e+000
1114963	9.954051e-001	-3.849779e+000
1117706	9.963562e-001	-3.875535e+000
1120449	9.945747e-001	-3.783978e+000
1123192	9.945756e-001	-3.959868e+000
1125935	9.958341e-001	-3.892501e+000
1128678	9.955122e-001	-3.920499e+000
1131421	9.972239e-001	-4.012093e+000
1134165	9.943664e-001	-4.068366e+000
1136908	9.960087e-001	-4.031714e+000
1139651	9.936758e-001	-3.940271e+000
1142394	9.959462e-001	-4.035808e+000
1145137	9.942352e-001	-4.061297e+000
1147880	9.950055e-001	-4.042786e+000
1150623	9.956740e-001	-4.065163e+000
1153367	9.938558e-001	-4.160698e+000
1156110	9.939977e-001	-4.127425e+000
1158853	9.918743e-001	-4.178062e+000
1161596	9.941333e-001	-4.130966e+000
1164339	9.936657e-001	-4.092951e+000
1167082	9.945093e-001	-4.131247e+000
1169825	9.935319e-001	-4.141692e+000
1172569	9.927503e-001	-4.231660e+000
1175312	9.939984e-001	-4.163241e+000
1178055	9.934942e-001	-4.214597e+000
1180798	9.936531e-001	-4.188740e+000
1183541	9.933123e-001	-4.160953e+000
1186284	9.934376e-001	-4.209944e+000
1189027	9.938260e-001	-4.205647e+000
1191771	9.934050e-001	-4.226417e+000
1194514	9.931451e-001	-4.288024e+000
1197257	9.919247e-001	-4.245228e+000
1200000	9.940723e-001	-4.294569e+000
