!Agilent Technologies,E5071C,MY46100265,A.07.02
!Date: Wed Mar 04 14:55:11 2020
!Data & Calibration Information:
!Freq	S11:SOLT1(ON)
# Hz S MA R 50
100000	1.000806e+000	-1.848789e+000
102743	9.982568e-001	-1.597031e+000
105486	9.989814e-001	-1.939159e+000
108229	9.986988e-001	-1.963448e+000
110973	9.979179e-001	-2.138078e+000
113716	9.999491e-001	-2.226528e+000
116459	9.981265e-001	-2.545740e+000
119202	9.955668e-001	-2.592952e+000
121945	9.955812e-001	-2.750955e+000
124688	9.928387e-001	-2.931538e+000
127431	9.929147e-001	-3.101176e+000
130175	9.921809e-001	-3.381673e+000
132918	9.999893e-001	-4.031774e+000
135661	9.960677e-001	-4.436997e+000
138404	9.885176e-001	-5.021029e+000
141147	9.816248e-001	-5.583431e+000
143890	9.708739e-001	-6.506207e+000
146633	9.579194e-001	-7.613158e+000
149377	9.294497e-001	-9.124213e+000
152120	8.806170e-001	-1.071721e+001
154863	7.922731e-001	-1.114568e+001
157606	6.789965e-001	-5.346313e+000
160349	6.777086e-001	1.082102e+001
163092	8.903372e-001	1.655283e+001
165835	1.007389e+000	8.193196e+000
168579	9.668524e-001	5.158333e+000
171322	9.888476e-001	4.589643e+000
174065	9.881784e-001	3.727328e+000
176808	9.865977e-001	3.066793e+000
179551	9.835045e-001	2.631938e+000
182294	9.849960e-001	2.271728e+000
185037	9.878407e-001	2.210430e+000
187781	9.928748e-001	9.879717e-001
190524	9.940271e-001	1.585364e+000
193267	9.973577e-001	1.103234e+000
196010	9.951502e-001	1.130297e+000
198753	9.949793e-001	8.140357e-001
201496	9.947777e-001	5.617781e-001
204239	9.932172e-001	5.141153e-001
206983	9.947334e-001	5.233471e-001
209726	9.940837e-001	3.233879e-001
212469	9.948206e-001	1.879283e-001
215212	9.949313e-001	5.288871e-002
217955	9.940819e-001	8.894234e-003
220698	9.921339e-001	-2.280672e-001
223441	9.924849e-001	-7.544982e-002
226185	9.893213e-001	-7.222703e-002
228928	9.896351e-001	-1.587284e-001
231671	9.895135e-001	-2.174342e-001
234414	9.905217e-001	-1.396779e-001
237157	9.929873e-001	-2.096218e-001
239900	9.924743e-001	-2.910255e-001
242643	9.927739e-001	-3.813284e-001
245387	9.917147e-001	-4.058274e-001
248130	9.908143e-001	-5.351481e-001
250873	9.909552e-001	-4.952242e-001
253616	9.901301e-001	-6.245549e-001
256359	9.890317e-001	-6.096521e-001
259102	9.891999e-001	-5.618780e-001
261845	9.849113e-001	-6.238468e-001
264589	9.860223e-001	-7.353781e-001
267332	9.847119e-001	-6.475618e-001
270075	9.869939e-001	-6.141104e-001
272818	9.870707e-001	-6.363991e-001
275561	9.884693e-001	-6.306988e-001
278304	9.893479e-001	-5.627357e-001
281047	9.892921e-001	-7.098340e-001
283791	9.879500e-001	-6.486506e-001
286534	9.881542e-001	-7.747480e-001
289277	9.887851e-001	-7.259448e-001
292020	9.882554e-001	-8.574685e-001
294763	9.880387e-001	-8.308792e-001
297506	9.879507e-001	-8.344068e-001
300249	9.842906e-001	-1.036466e+000
302993	9.841892e-001	-1.165918e+000
305736	9.851469e-001	-1.139481e+000
308479	9.824086e-001	-1.106028e+000
311222	9.821738e-001	-1.202436e+000
313965	9.816567e-001	-1.097953e+000
316708	9.795394e-001	-1.137171e+000
319451	9.770707e-001	-1.038709e+000
322195	9.769342e-001	-1.075113e+000
324938	9.775674e-001	-9.067376e-001
327681	9.760549e-001	-8.737723e-001
330424	9.769096e-001	-7.954798e-001
333167	9.768558e-001	-7.636700e-001
335910	9.770423e-001	-7.530508e-001
338653	9.791387e-001	-7.489373e-001
341397	9.805297e-001	-5.960527e-001
344140	9.785371e-001	-6.575852e-001
346883	9.795430e-001	-6.309072e-001
349626	9.793955e-001	-6.931612e-001
352369	9.808239e-001	-6.583978e-001
355112	9.812303e-001	-6.287105e-001
357855	9.810900e-001	-7.318206e-001
360599	9.838800e-001	-8.357444e-001
363342	9.828912e-001	-8.911885e-001
366085	9.786828e-001	-9.092228e-001
368828	9.764126e-001	-8.755804e-001
371571	9.739887e-001	-9.785790e-001
374314	9.715788e-001	-7.823425e-001
377057	9.689140e-001	-5.775565e-001
379800	9.682156e-001	-2.813633e-001
382544	9.717918e-001	4.753688e-002
385287	9.741760e-001	2.881944e-001
388030	9.817252e-001	3.538634e-001
390773	9.862019e-001	2.057603e-001
393516	9.906330e-001	9.567358e-002
396259	9.894762e-001	-2.533497e-002
399002	9.930228e-001	-6.397396e-002
401746	9.925616e-001	-2.554449e-001
404489	9.941946e-001	-2.394378e-001
407232	9.946227e-001	-2.883945e-001
409975	9.934298e-001	-4.611355e-001
412718	9.958070e-001	-4.135989e-001
415461	9.964907e-001	-5.060276e-001
418204	9.947107e-001	-4.719858e-001
420948	9.953047e-001	-5.159861e-001
423691	9.948516e-001	-5.924442e-001
426434	9.986426e-001	-6.872941e-001
429177	9.976182e-001	-7.227136e-001
431920	9.974630e-001	-8.304799e-001
434663	9.976342e-001	-7.563588e-001
437406	9.989413e-001	-8.548114e-001
440150	9.981765e-001	-9.489679e-001
442893	9.988189e-001	-9.936632e-001
445636	9.968443e-001	-8.970272e-001
448379	9.992837e-001	-1.051862e+000
451122	9.978977e-001	-1.269469e+000
453865	9.966981e-001	-1.136146e+000
456608	9.954239e-001	-1.096415e+000
459352	9.960856e-001	-1.152936e+000
462095	9.964439e-001	-1.223931e+000
464838	9.956557e-001	-1.214534e+000
467581	9.970507e-001	-1.316104e+000
470324	9.975371e-001	-1.305805e+000
473067	9.986386e-001	-1.274286e+000
475810	9.972138e-001	-1.405855e+000
478554	9.986179e-001	-1.342678e+000
481297	9.962180e-001	-1.459096e+000
484040	9.962993e-001	-1.483331e+000
486783	9.973429e-001	-1.519690e+000
489526	9.973426e-001	-1.585972e+000
492269	9.941311e-001	-1.566673e+000
495012	9.949453e-001	-1.682061e+000
497756	9.938995e-001	-1.638746e+000
500499	9.948912e-001	-1.656007e+000
503242	9.933256e-001	-1.654802e+000
505985	9.937744e-001	-1.677630e+000
508728	9.938183e-001	-1.671695e+000
511471	9.940294e-001	-1.671188e+000
514214	9.945982e-001	-1.663475e+000
516958	9.920607e-001	-1.804185e+000
519701	9.940387e-001	-1.746438e+000
522444	9.917793e-001	-1.820551e+000
525187	9.921650e-001	-1.868076e+000
527930	9.910587e-001	-1.866948e+000
530673	9.922049e-001	-1.920618e+000
533416	9.924047e-001	-1.878829e+000
536160	9.899935e-001	-1.813415e+000
538903	9.910778e-001	-1.849373e+000
541646	9.908127e-001	-1.836438e+000
544389	9.893463e-001	-1.910493e+000
547132	9.896936e-001	-1.934968e+000
549875	9.904430e-001	-1.811126e+000
552618	9.904178e-001	-1.849658e+000
555362	9.887248e-001	-1.961459e+000
558105	9.887402e-001	-1.862969e+000
560848	9.882102e-001	-1.950721e+000
563591	9.889338e-001	-2.048009e+000
566334	9.884410e-001	-2.119443e+000
569077	9.880494e-001	-2.106782e+000
571820	9.882444e-001	-2.124873e+000
574564	9.866717e-001	-2.093218e+000
577307	9.864854e-001	-2.096117e+000
580050	9.854548e-001	-2.126125e+000
582793	9.849390e-001	-2.046897e+000
585536	9.856217e-001	-2.144743e+000
588279	9.815147e-001	-2.137246e+000
591022	9.812864e-001	-2.170008e+000
593766	9.804921e-001	-2.040142e+000
596509	9.784045e-001	-1.923102e+000
599252	9.773022e-001	-1.844853e+000
601995	9.783300e-001	-1.804333e+000
604738	9.784274e-001	-1.682652e+000
607481	9.776051e-001	-1.582628e+000
610224	9.789026e-001	-1.534627e+000
612968	9.814414e-001	-1.544251e+000
615711	9.836623e-001	-1.516166e+000
618454	9.846025e-001	-1.327961e+000
621197	9.855621e-001	-1.423389e+000
623940	9.876665e-001	-1.556620e+000
626683	9.867908e-001	-1.617789e+000
629426	9.862102e-001	-1.645326e+000
632170	9.873842e-001	-1.803229e+000
634913	9.847226e-001	-1.776170e+000
637656	9.861909e-001	-1.703535e+000
640399	9.833908e-001	-1.571317e+000
643142	9.845561e-001	-1.486181e+000
645885	9.851400e-001	-1.495305e+000
648628	9.857111e-001	-1.496377e+000
651372	9.884308e-001	-1.482990e+000
654115	9.880752e-001	-1.419049e+000
656858	9.900869e-001	-1.485326e+000
659601	9.912579e-001	-1.522290e+000
662344	9.919125e-001	-1.550312e+000
665087	9.939004e-001	-1.597811e+000
667830	9.917310e-001	-1.651858e+000
670574	9.929033e-001	-1.645478e+000
673317	9.931765e-001	-1.708920e+000
676060	9.908257e-001	-1.692960e+000
678803	9.935170e-001	-1.789784e+000
681546	9.937455e-001	-1.713387e+000
684289	9.942234e-001	-1.722625e+000
687032	9.937548e-001	-1.762232e+000
689776	9.942453e-001	-1.797708e+000
692519	9.954260e-001	-1.868165e+000
695262	9.950488e-001	-1.893222e+000
698005	9.949509e-001	-1.867361e+000
700748	9.945822e-001	-1.898154e+000
703491	9.950177e-001	-1.922591e+000
706234	9.978416e-001	-1.883396e+000
708978	9.941118e-001	-1.992329e+000
711721	9.961040e-001	-2.003317e+000
714464	9.948657e-001	-2.025014e+000
717207	9.949601e-001	-2.066474e+000
719950	9.950261e-001	-2.002371e+000
722693	9.954072e-001	-2.076344e+000
725436	9.957877e-001	-2.002800e+000
728180	9.947645e-001	-2.064343e+000
730923	9.969285e-001	-2.068098e+000
733666	9.972373e-001	-2.088069e+000
736409	9.956514e-001	-2.165359e+000
739152	9.941165e-001	-2.243270e+000
741895	9.976069e-001	-2.278030e+000
744638	9.946450e-001	-2.207126e+000
747382	9.968433e-001	-2.256892e+000
750125	9.951922e-001	-2.252409e+000
752868	9.956533e-001	-2.293829e+000
755611	9.956021e-001	-2.264264e+000
758354	9.954570e-001	-2.320635e+000
761097	9.958503e-001	-2.387439e+000
763840	9.963205e-001	-2.363598e+000
766584	9.955852e-001	-2.515662e+000
769327	9.950424e-001	-2.430450e+000
772070	9.970076e-001	-2.438333e+000
774813	9.959580e-001	-2.439590e+000
777556	9.959754e-001	-2.486547e+000
780299	9.963408e-001	-2.499709e+000
783042	9.949251e-001	-2.485917e+000
785786	9.947481e-001	-2.558196e+000
788529	9.967870e-001	-2.573522e+000
791272	9.963911e-001	-2.567767e+000
794015	9.953206e-001	-2.607808e+000
796758	9.951369e-001	-2.562934e+000
799501	9.956819e-001	-2.657410e+000
802244	9.961596e-001	-2.698604e+000
804988	9.961036e-001	-2.697157e+000
807731	9.958127e-001	-2.739629e+000
810474	9.952907e-001	-2.814723e+000
813217	9.954367e-001	-2.787894e+000
815960	9.937004e-001	-2.775070e+000
818703	9.933665e-001	-2.735159e+000
821446	9.929506e-001	-2.826315e+000
824190	9.923515e-001	-2.798982e+000
826933	9.926368e-001	-2.729871e+000
829676	9.907850e-001	-2.859174e+000
832419	9.924154e-001	-2.816863e+000
835162	9.918969e-001	-2.764527e+000
837905	9.935457e-001	-2.713942e+000
840648	9.943217e-001	-2.814214e+000
843392	9.931181e-001	-2.670804e+000
846135	9.917437e-001	-2.796248e+000
848878	9.932796e-001	-2.869532e+000
851621	9.940154e-001	-2.852610e+000
854364	9.947897e-001	-2.815683e+000
857107	9.924292e-001	-2.890847e+000
859850	9.935906e-001	-2.947344e+000
862594	9.954036e-001	-2.908432e+000
865337	9.931494e-001	-2.976220e+000
868080	9.916996e-001	-2.978167e+000
870823	9.924291e-001	-2.883541e+000
873566	9.923078e-001	-2.961342e+000
876309	9.941039e-001	-2.949055e+000
879052	9.890878e-001	-3.070471e+000
881796	9.912346e-001	-3.010167e+000
884539	9.902956e-001	-2.959375e+000
887282	9.915872e-001	-2.874065e+000
890025	9.907912e-001	-2.831404e+000
892768	9.912182e-001	-2.857066e+000
895511	9.905275e-001	-2.858460e+000
898254	9.935493e-001	-2.984305e+000
900998	9.926079e-001	-2.966042e+000
903741	9.925776e-001	-2.833921e+000
906484	9.922501e-001	-2.891882e+000
909227	9.923301e-001	-2.904249e+000
911970	9.925557e-001	-2.944551e+000
914713	9.926679e-001	-2.982516e+000
917456	9.925337e-001	-2.954052e+000
920200	9.924901e-001	-3.033723e+000
922943	9.941131e-001	-2.923761e+000
925686	9.927885e-001	-2.957352e+000
928429	9.953031e-001	-2.913521e+000
931172	9.925865e-001	-3.020743e+000
933915	9.935977e-001	-2.948114e+000
936658	9.940672e-001	-3.109252e+000
939401	9.955150e-001	-3.009944e+000
942145	9.940135e-001	-3.095689e+000
944888	9.938619e-001	-3.071533e+000
947631	9.930362e-001	-3.083583e+000
950374	9.964647e-001	-3.127266e+000
953117	9.959799e-001	-3.152696e+000
955860	9.958773e-001	-3.180290e+000
958603	9.949793e-001	-3.153912e+000
961347	9.951141e-001	-3.181652e+000
964090	9.956272e-001	-3.154608e+000
966833	9.944223e-001	-3.180750e+000
969576	9.963676e-001	-3.240548e+000
972319	9.961552e-001	-3.181350e+000
975062	9.976185e-001	-3.309775e+000
977805	9.974449e-001	-3.244648e+000
980549	9.967695e-001	-3.357610e+000
983292	9.953705e-001	-3.302036e+000
986035	9.959948e-001	-3.377292e+000
988778	9.968182e-001	-3.420812e+000
991521	9.968184e-001	-3.399467e+000
994264	9.953460e-001	-3.350457e+000
997007	9.961310e-001	-3.533441e+000
999751	9.953940e-001	-3.438725e+000
1002494	9.969573e-001	-3.496280e+000
1005237	9.947500e-001	-3.521159e+000
1007980	9.969981e-001	-3.567250e+000
1010723	9.967677e-001	-3.495283e+000
1013466	9.954423e-001	-3.535893e+000
1016209	9.954585e-001	-3.584586e+000
1018953	9.949934e-001	-3.623518e+000
1021696	9.960114e-001	-3.475389e+000
1024439	9.940153e-001	-3.582711e+000
1027182	9.958084e-001	-3.692315e+000
1029925	9.961791e-001	-3.615661e+000
1032668	9.939784e-001	-3.626196e+000
1035411	9.954194e-001	-3.692919e+000
1038155	9.953545e-001	-3.677917e+000
1040898	9.960055e-001	-3.779836e+000
1043641	9.935513e-001	-3.715139e+000
1046384	9.921907e-001	-3.773004e+000
1049127	9.935969e-001	-3.826251e+000
1051870	9.942580e-001	-3.835086e+000
1054613	9.942834e-001	-3.821290e+000
1057357	9.944989e-001	-3.958881e+000
1060100	9.931001e-001	-3.992833e+000
1062843	9.913274e-001	-3.780803e+000
1065586	9.902812e-001	-3.830377e+000
1068329	9.899264e-001	-3.858775e+000
1071072	9.882144e-001	-3.814842e+000
1073815	9.883924e-001	-3.785850e+000
1076559	9.893771e-001	-3.773652e+000
1079302	9.896569e-001	-3.690025e+000
1082045	9.900828e-001	-3.712006e+000
1084788	9.893204e-001	-3.634849e+000
1087531	9.904226e-001	-3.629918e+000
1090274	9.905355e-001	-3.665408e+000
1093017	9.927883e-001	-3.647498e+000
1095761	9.924818e-001	-3.666041e+000
1098504	9.924091e-001	-3.608442e+000
1101247	9.933780e-001	-3.664167e+000
1103990	9.953508e-001	-3.745851e+000
1106733	9.961202e-001	-3.755446e+000
1109476	9.944339e-001	-3.682178e+000
1112219	9.948209e-001	-3.836834e+000
1114963	9.945613e-001	-3.764193e+000
1117706	9.960087e-001	-3.790865e+000
1120449	9.952529e-001	-3.777443e+000
1123192	9.937105e-001	-3.920574e+000
1125935	9.948271e-001	-3.956763e+000
1128678	9.952969e-001	-3.930312e+000
1131421	9.966520e-001	-3.923288e+000
1134165	9.946234e-001	-4.014690e+000
1136908	9.966449e-001	-4.037539e+000
1139651	9.951378e-001	-3.906947e+000
1142394	9.956941e-001	-3.978807e+000
1145137	9.941597e-001	-4.037424e+000
1147880	9.947633e-001	-4.050318e+000
1150623	9.945361e-001	-4.119146e+000
1153367	9.938633e-001	-4.120081e+000
1156110	9.943090e-001	-4.107347e+000
1158853	9.946624e-001	-4.066800e+000
1161596	9.944128e-001	-4.121747e+000
1164339	9.940993e-001	-4.137030e+000
1167082	9.944316e-001	-4.143991e+000
1169825	9.934920e-001	-4.197718e+000
1172569	9.931229e-001	-4.254482e+000
1175312	9.954723e-001	-4.186116e+000
1178055	9.932853e-001	-4.133590e+000
1180798	9.931280e-001	-4.189301e+000
1183541	9.944810e-001	-4.204173e+000
1186284	9.929555e-001	-4.212528e+000
1189027	9.932943e-001	-4.258440e+000
1191771	9.937234e-001	-4.232948e+000
1194514	9.924471e-001	-4.349950e+000
1197257	9.916954e-001	-4.270608e+000
1200000	9.926440e-001	-4.266652e+000
