!Agilent Technologies,E5071C,MY46100305,A.07.02
!Date: Fri Jan 01 01:33:37 1988
!Data & Calibration Information:
!Freq	S11:SOLT1(ON)
# Hz S MA R 50
100000	9.948035e-001	-3.007666e+000
107000	9.958838e-001	-3.549365e+000
114000	9.891216e-001	-4.252194e+000
121000	9.818478e-001	-4.731850e+000
128000	9.690087e-001	-5.284990e+000
135000	9.576118e-001	-5.988747e+000
142000	9.106273e-001	-6.837902e+000
149000	8.486609e-001	-4.014235e+000
156000	8.913768e-001	1.420071e+000
163000	9.463967e-001	3.363062e-001
170000	9.223721e-001	4.228947e-001
177000	9.585665e-001	1.496828e+000
184000	9.769998e-001	1.727464e+000
191000	9.879044e-001	1.824146e-001
198000	9.786703e-001	-1.026194e+000
205000	9.872281e-001	-8.734476e-001
212000	9.937060e-001	-1.613723e+000
219000	9.863484e-001	-1.707146e+000
226000	9.889534e-001	-1.725021e+000
233000	9.936075e-001	-2.031691e+000
240000	9.911303e-001	-2.379624e+000
247000	9.856811e-001	-2.669328e+000
254000	9.770198e-001	-3.125561e+000
261000	9.698137e-001	-2.907872e+000
268000	9.678219e-001	-2.457308e+000
275000	9.741960e-001	-1.911424e+000
282000	9.764840e-001	-2.042471e+000
289000	9.823864e-001	-2.031493e+000
296000	9.916691e-001	-2.446596e+000
303000	9.878131e-001	-2.543347e+000
310000	9.885304e-001	-2.817191e+000
317000	9.875950e-001	-2.949122e+000
324000	9.893723e-001	-2.997774e+000
331000	9.884971e-001	-3.143137e+000
338000	9.895347e-001	-3.076730e+000
345000	9.910141e-001	-3.297622e+000
352000	9.904146e-001	-3.478911e+000
359000	9.931379e-001	-3.475437e+000
366000	9.926657e-001	-3.728256e+000
373000	9.921444e-001	-3.780942e+000
380000	9.918436e-001	-3.947509e+000
387000	9.941446e-001	-4.020530e+000
394000	9.933524e-001	-4.112207e+000
401000	9.926976e-001	-4.199529e+000
408000	9.909867e-001	-4.395752e+000
415000	9.938226e-001	-4.541782e+000
422000	9.934257e-001	-4.530839e+000
429000	9.945907e-001	-4.657034e+000
436000	9.948914e-001	-4.812299e+000
443000	9.948030e-001	-4.860677e+000
450000	9.950014e-001	-4.994920e+000
457000	9.959813e-001	-5.198058e+000
464000	9.938019e-001	-5.330652e+000
471000	9.938258e-001	-5.449418e+000
478000	9.935936e-001	-5.542016e+000
485000	9.937071e-001	-5.612049e+000
492000	9.945779e-001	-5.738969e+000
499000	9.945214e-001	-5.862458e+000
506000	9.933287e-001	-6.000781e+000
513000	9.923038e-001	-6.134731e+000
520000	9.926970e-001	-6.214468e+000
527000	9.931435e-001	-6.358150e+000
534000	9.924774e-001	-6.531236e+000
541000	9.915995e-001	-6.634778e+000
548000	9.895537e-001	-6.674822e+000
555000	9.883042e-001	-6.815705e+000
562000	9.878345e-001	-6.831833e+000
569000	9.881575e-001	-6.789812e+000
576000	9.892365e-001	-6.890102e+000
583000	9.908601e-001	-7.133540e+000
590000	9.897151e-001	-7.201261e+000
597000	9.868123e-001	-7.454817e+000
604000	9.857265e-001	-7.556147e+000
611000	9.843208e-001	-7.671504e+000
618000	9.816594e-001	-7.771540e+000
625000	9.790389e-001	-7.696109e+000
632000	9.789317e-001	-7.647346e+000
639000	9.767162e-001	-7.608157e+000
646000	9.757662e-001	-7.463861e+000
653000	9.777042e-001	-7.519299e+000
660000	9.785218e-001	-7.348010e+000
667000	9.802116e-001	-7.390502e+000
674000	9.834023e-001	-7.347970e+000
681000	9.846258e-001	-7.477485e+000
688000	9.857481e-001	-7.715228e+000
695000	9.872982e-001	-7.598837e+000
702000	9.869145e-001	-7.630373e+000
709000	9.884912e-001	-7.804060e+000
716000	9.914257e-001	-7.933540e+000
723000	9.913530e-001	-8.043323e+000
730000	9.925785e-001	-8.143057e+000
737000	9.925141e-001	-8.301113e+000
744000	9.930607e-001	-8.434997e+000
751000	9.928972e-001	-8.552450e+000
758000	9.939371e-001	-8.705999e+000
765000	9.931245e-001	-8.792823e+000
772000	9.942653e-001	-8.995866e+000
779000	9.932351e-001	-9.077979e+000
786000	9.938139e-001	-9.138882e+000
793000	9.946640e-001	-9.288562e+000
800000	9.929385e-001	-9.382392e+000
807000	9.936322e-001	-9.499583e+000
814000	9.928376e-001	-9.572873e+000
821000	9.919100e-001	-9.683279e+000
828000	9.920700e-001	-9.817427e+000
835000	9.915402e-001	-9.904701e+000
842000	9.908009e-001	-9.955205e+000
849000	9.915026e-001	-1.000069e+001
856000	9.909056e-001	-1.000323e+001
863000	9.919780e-001	-1.018591e+001
870000	9.909504e-001	-1.020032e+001
877000	9.918968e-001	-1.028745e+001
884000	9.923107e-001	-1.042633e+001
891000	9.936666e-001	-1.049519e+001
898000	9.927399e-001	-1.061525e+001
905000	9.926535e-001	-1.065913e+001
912000	9.919002e-001	-1.079387e+001
919000	9.929192e-001	-1.084470e+001
926000	9.922915e-001	-1.089841e+001
933000	9.939596e-001	-1.107338e+001
940000	9.939186e-001	-1.106654e+001
947000	9.934977e-001	-1.122188e+001
954000	9.947532e-001	-1.128172e+001
961000	9.929484e-001	-1.135507e+001
968000	9.935974e-001	-1.147139e+001
975000	9.946904e-001	-1.150872e+001
982000	9.938675e-001	-1.165039e+001
989000	9.946360e-001	-1.182558e+001
996000	9.936603e-001	-1.179674e+001
1003000	9.940505e-001	-1.195639e+001
1010000	9.937597e-001	-1.202893e+001
1017000	9.948780e-001	-1.220386e+001
1024000	9.949089e-001	-1.224416e+001
1031000	9.950520e-001	-1.236433e+001
1038000	9.951045e-001	-1.247792e+001
1045000	9.936486e-001	-1.260951e+001
1052000	9.957938e-001	-1.266689e+001
1059000	9.939533e-001	-1.281682e+001
1066000	9.952831e-001	-1.284976e+001
1073000	9.929857e-001	-1.297776e+001
1080000	9.944389e-001	-1.314921e+001
1087000	9.927220e-001	-1.314622e+001
1094000	9.935887e-001	-1.320733e+001
1101000	9.931821e-001	-1.333430e+001
1108000	9.947945e-001	-1.339498e+001
1115000	9.936540e-001	-1.356363e+001
1122000	9.937209e-001	-1.356447e+001
1129000	9.933490e-001	-1.373326e+001
1136000	9.935375e-001	-1.385921e+001
1143000	9.939107e-001	-1.386175e+001
1150000	9.938788e-001	-1.393672e+001
1157000	9.947250e-001	-1.413258e+001
1164000	9.934461e-001	-1.414998e+001
1171000	9.932271e-001	-1.433646e+001
1178000	9.940292e-001	-1.438806e+001
1185000	9.935980e-001	-1.447551e+001
1192000	9.936226e-001	-1.455609e+001
1199000	9.919932e-001	-1.462041e+001
1206000	9.932881e-001	-1.472456e+001
1213000	9.913553e-001	-1.486687e+001
1220000	9.922628e-001	-1.493279e+001
1227000	9.918519e-001	-1.505790e+001
1234000	9.920073e-001	-1.514293e+001
1241000	9.919062e-001	-1.528454e+001
1248000	9.902612e-001	-1.528868e+001
1255000	9.916996e-001	-1.538459e+001
1262000	9.895656e-001	-1.535496e+001
1269000	9.904368e-001	-1.551223e+001
1276000	9.914439e-001	-1.558496e+001
1283000	9.910960e-001	-1.557391e+001
1290000	9.900387e-001	-1.576002e+001
1297000	9.901067e-001	-1.576755e+001
1304000	9.916524e-001	-1.588792e+001
1311000	9.926079e-001	-1.593017e+001
1318000	9.915553e-001	-1.606504e+001
1325000	9.919962e-001	-1.631332e+001
1332000	9.910838e-001	-1.626393e+001
1339000	9.910012e-001	-1.627003e+001
1346000	9.918884e-001	-1.638904e+001
1353000	9.910317e-001	-1.655045e+001
1360000	9.910287e-001	-1.666622e+001
1367000	9.915748e-001	-1.673819e+001
1374000	9.918043e-001	-1.677759e+001
1381000	9.913045e-001	-1.696740e+001
1388000	9.923357e-001	-1.702368e+001
1395000	9.931333e-001	-1.707469e+001
1402000	9.911359e-001	-1.725732e+001
1409000	9.914212e-001	-1.724980e+001
1416000	9.914881e-001	-1.731157e+001
1423000	9.911986e-001	-1.750396e+001
1430000	9.910413e-001	-1.749873e+001
1437000	9.921914e-001	-1.770461e+001
1444000	9.924611e-001	-1.779340e+001
1451000	9.898070e-001	-1.782314e+001
1458000	9.908847e-001	-1.793888e+001
1465000	9.896634e-001	-1.809285e+001
1472000	9.910291e-001	-1.816632e+001
1479000	9.907260e-001	-1.813831e+001
1486000	9.890682e-001	-1.831292e+001
1493000	9.911613e-001	-1.832372e+001
1500000	9.879776e-001	-1.852767e+001
