!Agilent Technologies,E5071C,MY46100305,A.07.02
!Date: Fri Jan 01 01:34:39 1988
!Data & Calibration Information:
!Freq	S11:SOLT1(ON)
# Hz S MA R 50
100000	9.963914e-001	-2.830553e+000
107000	9.981752e-001	-3.198537e+000
114000	9.946940e-001	-3.688409e+000
121000	9.932325e-001	-4.179360e+000
128000	9.926710e-001	-5.265745e+000
135000	9.741180e-001	-7.004670e+000
142000	9.092744e-001	-8.702323e+000
149000	8.196389e-001	-5.205343e+000
156000	8.496214e-001	3.739729e+000
163000	9.605524e-001	3.172738e+000
170000	9.616808e-001	8.198511e-001
177000	9.676649e-001	5.022125e-001
184000	9.787611e-001	3.095285e-001
191000	9.873074e-001	-3.106343e-001
198000	9.855890e-001	-7.553189e-001
205000	9.890254e-001	-1.031676e+000
212000	9.917888e-001	-1.290463e+000
219000	9.933040e-001	-1.683611e+000
226000	9.931313e-001	-1.985813e+000
233000	9.936344e-001	-2.172878e+000
240000	9.935129e-001	-2.336767e+000
247000	9.919307e-001	-2.569484e+000
254000	9.905426e-001	-2.807851e+000
261000	9.888409e-001	-2.904363e+000
268000	9.890430e-001	-3.001531e+000
275000	9.873594e-001	-3.137607e+000
282000	9.844681e-001	-3.315372e+000
289000	9.813197e-001	-3.320229e+000
296000	9.805263e-001	-3.158554e+000
303000	9.831844e-001	-3.040656e+000
310000	9.845358e-001	-3.122058e+000
317000	9.874353e-001	-3.203601e+000
324000	9.881496e-001	-3.255578e+000
331000	9.888029e-001	-3.483281e+000
338000	9.895382e-001	-3.512683e+000
345000	9.898291e-001	-3.679631e+000
352000	9.917173e-001	-3.727083e+000
359000	9.919845e-001	-3.898909e+000
366000	9.924879e-001	-4.016756e+000
373000	9.930211e-001	-4.164890e+000
380000	9.934845e-001	-4.296021e+000
387000	9.939520e-001	-4.400571e+000
394000	9.944592e-001	-4.541481e+000
401000	9.924300e-001	-4.566508e+000
408000	9.938315e-001	-4.772783e+000
415000	9.950329e-001	-4.878449e+000
422000	9.949773e-001	-4.926787e+000
429000	9.947949e-001	-5.136654e+000
436000	9.952108e-001	-5.256537e+000
443000	9.953241e-001	-5.280551e+000
450000	9.952258e-001	-5.426313e+000
457000	9.954398e-001	-5.544877e+000
464000	9.937489e-001	-5.650463e+000
471000	9.954713e-001	-5.735191e+000
478000	9.940744e-001	-5.843493e+000
485000	9.960008e-001	-5.917153e+000
492000	9.953179e-001	-6.111281e+000
499000	9.962403e-001	-6.128948e+000
506000	9.954542e-001	-6.305564e+000
513000	9.958267e-001	-6.396007e+000
520000	9.958214e-001	-6.527999e+000
527000	9.956532e-001	-6.692711e+000
534000	9.966959e-001	-6.869665e+000
541000	9.961175e-001	-6.930552e+000
548000	9.945173e-001	-7.082245e+000
555000	9.948517e-001	-7.279935e+000
562000	9.934844e-001	-7.349338e+000
569000	9.921768e-001	-7.441061e+000
576000	9.916107e-001	-7.483562e+000
583000	9.923940e-001	-7.623825e+000
590000	9.917721e-001	-7.697209e+000
597000	9.919521e-001	-7.858544e+000
604000	9.916664e-001	-7.908110e+000
611000	9.903830e-001	-8.093542e+000
618000	9.877997e-001	-8.278566e+000
625000	9.872464e-001	-8.300253e+000
632000	9.845678e-001	-8.321089e+000
639000	9.839132e-001	-8.307552e+000
646000	9.841728e-001	-8.279636e+000
653000	9.841423e-001	-8.277731e+000
660000	9.867546e-001	-8.308467e+000
667000	9.867216e-001	-8.398610e+000
674000	9.849579e-001	-8.483546e+000
681000	9.841135e-001	-8.524764e+000
688000	9.855088e-001	-8.635290e+000
695000	9.863433e-001	-8.609091e+000
702000	9.885056e-001	-8.662388e+000
709000	9.882220e-001	-8.787793e+000
716000	9.909950e-001	-8.892805e+000
723000	9.911984e-001	-9.100670e+000
730000	9.903528e-001	-9.193261e+000
737000	9.891616e-001	-9.300427e+000
744000	9.896943e-001	-9.467005e+000
751000	9.888442e-001	-9.563764e+000
758000	9.893969e-001	-9.612731e+000
765000	9.885368e-001	-9.788198e+000
772000	9.892472e-001	-9.829895e+000
779000	9.887229e-001	-9.917452e+000
786000	9.895151e-001	-1.000448e+001
793000	9.895364e-001	-1.011526e+001
800000	9.889663e-001	-1.025285e+001
807000	9.879278e-001	-1.045743e+001
814000	9.866233e-001	-1.054945e+001
821000	9.834657e-001	-1.064020e+001
828000	9.834108e-001	-1.062823e+001
835000	9.842934e-001	-1.060373e+001
842000	9.846497e-001	-1.062804e+001
849000	9.867794e-001	-1.068587e+001
856000	9.863794e-001	-1.079747e+001
863000	9.865065e-001	-1.086979e+001
870000	9.861805e-001	-1.100656e+001
877000	9.872322e-001	-1.110409e+001
884000	9.861858e-001	-1.127568e+001
891000	9.865665e-001	-1.132298e+001
898000	9.859733e-001	-1.142944e+001
905000	9.855093e-001	-1.146854e+001
912000	9.851891e-001	-1.152448e+001
919000	9.862415e-001	-1.163919e+001
926000	9.845852e-001	-1.169391e+001
933000	9.847060e-001	-1.180732e+001
940000	9.842752e-001	-1.184329e+001
947000	9.835985e-001	-1.180902e+001
954000	9.855379e-001	-1.189820e+001
961000	9.856040e-001	-1.191249e+001
968000	9.865619e-001	-1.202237e+001
975000	9.875375e-001	-1.208449e+001
982000	9.866799e-001	-1.222554e+001
989000	9.878476e-001	-1.235333e+001
996000	9.878577e-001	-1.248737e+001
1003000	9.888359e-001	-1.261637e+001
1010000	9.883606e-001	-1.264083e+001
1017000	9.899940e-001	-1.287783e+001
1024000	9.889535e-001	-1.289429e+001
1031000	9.892140e-001	-1.302939e+001
1038000	9.888023e-001	-1.316535e+001
1045000	9.877134e-001	-1.335807e+001
1052000	9.880522e-001	-1.326933e+001
1059000	9.868410e-001	-1.356713e+001
1066000	9.874058e-001	-1.345736e+001
1073000	9.876615e-001	-1.355286e+001
1080000	9.887405e-001	-1.374651e+001
1087000	9.868286e-001	-1.384729e+001
1094000	9.884809e-001	-1.391448e+001
1101000	9.868424e-001	-1.404225e+001
1108000	9.879086e-001	-1.407977e+001
1115000	9.880113e-001	-1.419090e+001
1122000	9.857176e-001	-1.440348e+001
1129000	9.861299e-001	-1.438696e+001
1136000	9.848851e-001	-1.452774e+001
1143000	9.860478e-001	-1.445253e+001
1150000	9.850843e-001	-1.449922e+001
1157000	9.872313e-001	-1.467972e+001
1164000	9.874061e-001	-1.471901e+001
1171000	9.870271e-001	-1.490928e+001
1178000	9.869877e-001	-1.495304e+001
1185000	9.870976e-001	-1.506752e+001
1192000	9.874376e-001	-1.509398e+001
1199000	9.871149e-001	-1.518653e+001
1206000	9.872475e-001	-1.530443e+001
1213000	9.854679e-001	-1.536977e+001
1220000	9.863557e-001	-1.548614e+001
1227000	9.879208e-001	-1.563225e+001
1234000	9.873600e-001	-1.575486e+001
1241000	9.873058e-001	-1.589893e+001
1248000	9.871386e-001	-1.595917e+001
1255000	9.883021e-001	-1.602409e+001
1262000	9.870915e-001	-1.614399e+001
1269000	9.865444e-001	-1.627204e+001
1276000	9.857413e-001	-1.637404e+001
1283000	9.857405e-001	-1.637538e+001
1290000	9.849186e-001	-1.648553e+001
1297000	9.838687e-001	-1.654674e+001
1304000	9.830827e-001	-1.660456e+001
1311000	9.852264e-001	-1.662257e+001
1318000	9.836835e-001	-1.666020e+001
1325000	9.869318e-001	-1.678780e+001
1332000	9.861804e-001	-1.686000e+001
1339000	9.870133e-001	-1.688341e+001
1346000	9.876707e-001	-1.707886e+001
1353000	9.880324e-001	-1.721112e+001
1360000	9.883629e-001	-1.740223e+001
1367000	9.874560e-001	-1.747915e+001
1374000	9.877206e-001	-1.753767e+001
1381000	9.872843e-001	-1.769898e+001
1388000	9.876372e-001	-1.774522e+001
1395000	9.881618e-001	-1.782102e+001
1402000	9.873867e-001	-1.797990e+001
1409000	9.862821e-001	-1.808926e+001
1416000	9.864210e-001	-1.810736e+001
1423000	9.870847e-001	-1.832743e+001
1430000	9.862108e-001	-1.838646e+001
1437000	9.862638e-001	-1.856084e+001
1444000	9.866312e-001	-1.865057e+001
1451000	9.860209e-001	-1.872669e+001
1458000	9.860876e-001	-1.882673e+001
1465000	9.841426e-001	-1.898783e+001
1472000	9.838270e-001	-1.901821e+001
1479000	9.843730e-001	-1.911248e+001
1486000	9.833996e-001	-1.918071e+001
1493000	9.831743e-001	-1.921998e+001
1500000	9.807647e-001	-1.931941e+001
