!Agilent Technologies,E5071C,MY46100305,A.07.02
!Date: Fri Jan 01 01:35:56 1988
!Data & Calibration Information:
!Freq	S11:SOLT1(ON)
# Hz S MA R 50
100000	9.958872e-001	-2.497856e+000
107000	9.958737e-001	-2.734907e+000
114000	9.937948e-001	-3.198321e+000
121000	9.935360e-001	-3.494460e+000
128000	9.899744e-001	-4.194045e+000
135000	9.725477e-001	-4.540115e+000
142000	9.658052e-001	-4.560409e+000
149000	9.489656e-001	-5.450055e+000
156000	9.160387e-001	-4.753595e+000
163000	8.956167e-001	-3.032642e+000
170000	9.093890e-001	-4.283172e-001
177000	9.377378e-001	1.324375e+000
184000	9.602621e-001	-1.398496e-001
191000	9.733728e-001	2.432817e-001
198000	9.887708e-001	-5.495681e-001
205000	9.896066e-001	-9.272720e-001
212000	9.910454e-001	-1.092285e+000
219000	9.962480e-001	-1.312314e+000
226000	9.947440e-001	-1.916421e+000
233000	9.936993e-001	-1.819569e+000
240000	9.952041e-001	-2.124503e+000
247000	9.938098e-001	-2.461517e+000
254000	9.917114e-001	-2.852284e+000
261000	9.905446e-001	-2.958732e+000
268000	9.869378e-001	-3.162027e+000
275000	9.844740e-001	-3.145074e+000
282000	9.838156e-001	-2.965319e+000
289000	9.858894e-001	-3.119894e+000
296000	9.872970e-001	-3.104493e+000
303000	9.897739e-001	-3.156515e+000
310000	9.902101e-001	-3.250291e+000
317000	9.940674e-001	-3.522684e+000
324000	9.929175e-001	-3.618553e+000
331000	9.922729e-001	-3.889765e+000
338000	9.918894e-001	-3.890952e+000
345000	9.924768e-001	-4.002637e+000
352000	9.931589e-001	-4.180385e+000
359000	9.925885e-001	-4.210646e+000
366000	9.942377e-001	-4.403412e+000
373000	9.945010e-001	-4.473990e+000
380000	9.942724e-001	-4.659917e+000
387000	9.947568e-001	-4.742093e+000
394000	9.943809e-001	-4.897003e+000
401000	9.928097e-001	-4.958269e+000
408000	9.929286e-001	-5.117413e+000
415000	9.921715e-001	-5.222951e+000
422000	9.926886e-001	-5.168003e+000
429000	9.934841e-001	-5.336620e+000
436000	9.935694e-001	-5.453790e+000
443000	9.933972e-001	-5.496571e+000
450000	9.936165e-001	-5.640943e+000
457000	9.936780e-001	-5.764356e+000
464000	9.927867e-001	-5.868738e+000
471000	9.922495e-001	-6.019432e+000
478000	9.917359e-001	-6.089575e+000
485000	9.925225e-001	-6.084238e+000
492000	9.915049e-001	-6.196434e+000
499000	9.942600e-001	-6.260846e+000
506000	9.920348e-001	-6.352805e+000
513000	9.938680e-001	-6.478112e+000
520000	9.945186e-001	-6.570427e+000
527000	9.952193e-001	-6.712176e+000
534000	9.955302e-001	-6.838571e+000
541000	9.953671e-001	-6.971646e+000
548000	9.944001e-001	-7.149179e+000
555000	9.953668e-001	-7.326706e+000
562000	9.950807e-001	-7.426817e+000
569000	9.946237e-001	-7.535015e+000
576000	9.952677e-001	-7.641022e+000
583000	9.948791e-001	-7.865188e+000
590000	9.939875e-001	-7.892567e+000
597000	9.921137e-001	-8.043709e+000
604000	9.915347e-001	-8.192165e+000
611000	9.911795e-001	-8.175441e+000
618000	9.896892e-001	-8.334962e+000
625000	9.883997e-001	-8.374706e+000
632000	9.891320e-001	-8.564390e+000
639000	9.888284e-001	-8.560503e+000
646000	9.874683e-001	-8.636112e+000
653000	9.866910e-001	-8.596219e+000
660000	9.880955e-001	-8.561645e+000
667000	9.887381e-001	-8.735538e+000
674000	9.883671e-001	-8.733806e+000
681000	9.868101e-001	-8.823592e+000
688000	9.879399e-001	-8.933224e+000
695000	9.890549e-001	-9.027651e+000
702000	9.898174e-001	-9.088582e+000
709000	9.897595e-001	-9.302755e+000
716000	9.903314e-001	-9.374312e+000
723000	9.899219e-001	-9.450563e+000
730000	9.906014e-001	-9.581905e+000
737000	9.888373e-001	-9.660572e+000
744000	9.913611e-001	-9.770343e+000
751000	9.900626e-001	-9.882002e+000
758000	9.914862e-001	-1.001523e+001
765000	9.900269e-001	-1.007946e+001
772000	9.915022e-001	-1.021406e+001
779000	9.908308e-001	-1.037615e+001
786000	9.903501e-001	-1.050705e+001
793000	9.893620e-001	-1.064127e+001
800000	9.884884e-001	-1.081957e+001
807000	9.880720e-001	-1.092436e+001
814000	9.860801e-001	-1.095685e+001
821000	9.845555e-001	-1.108292e+001
828000	9.831366e-001	-1.115970e+001
835000	9.840493e-001	-1.116704e+001
842000	9.830375e-001	-1.115214e+001
849000	9.837545e-001	-1.121086e+001
856000	9.826983e-001	-1.124019e+001
863000	9.839500e-001	-1.129751e+001
870000	9.846358e-001	-1.141722e+001
877000	9.843560e-001	-1.154708e+001
884000	9.839808e-001	-1.167209e+001
891000	9.841981e-001	-1.160715e+001
898000	9.842289e-001	-1.172208e+001
905000	9.839528e-001	-1.174954e+001
912000	9.837779e-001	-1.195002e+001
919000	9.847058e-001	-1.205917e+001
926000	9.824208e-001	-1.205514e+001
933000	9.842996e-001	-1.216449e+001
940000	9.839576e-001	-1.219464e+001
947000	9.837729e-001	-1.224506e+001
954000	9.864276e-001	-1.234407e+001
961000	9.842746e-001	-1.233848e+001
968000	9.851646e-001	-1.246285e+001
975000	9.875589e-001	-1.250814e+001
982000	9.864426e-001	-1.269646e+001
989000	9.877855e-001	-1.279542e+001
996000	9.871971e-001	-1.288914e+001
1003000	9.876412e-001	-1.308128e+001
1010000	9.874485e-001	-1.319254e+001
1017000	9.863111e-001	-1.336158e+001
1024000	9.863763e-001	-1.343602e+001
1031000	9.853322e-001	-1.351283e+001
1038000	9.860574e-001	-1.366065e+001
1045000	9.856011e-001	-1.380280e+001
1052000	9.857734e-001	-1.390094e+001
1059000	9.849863e-001	-1.397710e+001
1066000	9.842590e-001	-1.397022e+001
1073000	9.830576e-001	-1.402943e+001
1080000	9.849384e-001	-1.416827e+001
1087000	9.839147e-001	-1.421437e+001
1094000	9.844909e-001	-1.432144e+001
1101000	9.839412e-001	-1.435704e+001
1108000	9.856353e-001	-1.445648e+001
1115000	9.859070e-001	-1.453912e+001
1122000	9.854916e-001	-1.465007e+001
1129000	9.851632e-001	-1.478925e+001
1136000	9.850906e-001	-1.488057e+001
1143000	9.868630e-001	-1.494729e+001
1150000	9.863425e-001	-1.504101e+001
1157000	9.870011e-001	-1.520979e+001
1164000	9.862346e-001	-1.527498e+001
1171000	9.854789e-001	-1.541437e+001
1178000	9.850344e-001	-1.547423e+001
1185000	9.859584e-001	-1.553816e+001
1192000	9.854154e-001	-1.562548e+001
1199000	9.848424e-001	-1.577493e+001
1206000	9.856060e-001	-1.584992e+001
1213000	9.836034e-001	-1.598242e+001
1220000	9.837684e-001	-1.608907e+001
1227000	9.839045e-001	-1.622178e+001
1234000	9.834228e-001	-1.623134e+001
1241000	9.835163e-001	-1.622529e+001
1248000	9.840508e-001	-1.633273e+001
1255000	9.856721e-001	-1.644115e+001
1262000	9.838618e-001	-1.657231e+001
1269000	9.853545e-001	-1.670285e+001
1276000	9.854377e-001	-1.681978e+001
1283000	9.859832e-001	-1.682650e+001
1290000	9.863038e-001	-1.697452e+001
1297000	9.860921e-001	-1.715817e+001
1304000	9.849523e-001	-1.721932e+001
1311000	9.862671e-001	-1.734251e+001
1318000	9.854331e-001	-1.748103e+001
1325000	9.850173e-001	-1.771257e+001
1332000	9.833014e-001	-1.773143e+001
1339000	9.832613e-001	-1.781013e+001
1346000	9.829445e-001	-1.796854e+001
1353000	9.807470e-001	-1.814040e+001
1360000	9.807419e-001	-1.823950e+001
1367000	9.801449e-001	-1.829848e+001
1374000	9.787798e-001	-1.827681e+001
1381000	9.786040e-001	-1.840162e+001
1388000	9.779513e-001	-1.846936e+001
1395000	9.785684e-001	-1.835895e+001
1402000	9.767126e-001	-1.851408e+001
1409000	9.764315e-001	-1.854182e+001
1416000	9.772627e-001	-1.851122e+001
1423000	9.786773e-001	-1.860984e+001
1430000	9.784604e-001	-1.871435e+001
1437000	9.798977e-001	-1.881525e+001
1444000	9.803952e-001	-1.889412e+001
1451000	9.799612e-001	-1.898074e+001
1458000	9.805631e-001	-1.914282e+001
1465000	9.800043e-001	-1.920102e+001
1472000	9.816824e-001	-1.934536e+001
1479000	9.826653e-001	-1.934300e+001
1486000	9.814376e-001	-1.953555e+001
1493000	9.827457e-001	-1.967057e+001
1500000	9.803879e-001	-1.982534e+001
