!Agilent Technologies,E5071C,MY46100305,A.07.02
!Date: Fri Jan 01 01:36:44 1988
!Data & Calibration Information:
!Freq	S11:SOLT1(ON)
# Hz S MA R 50
100000	9.957893e-001	-2.783318e+000
107000	9.966175e-001	-3.046295e+000
114000	9.931673e-001	-3.538440e+000
121000	9.933842e-001	-3.886227e+000
128000	9.882141e-001	-4.609065e+000
135000	9.778788e-001	-5.746159e+000
142000	9.526393e-001	-7.585183e+000
149000	8.795419e-001	-7.982359e+000
156000	8.172080e-001	-1.822806e+000
163000	8.986957e-001	3.632890e+000
170000	9.446233e-001	1.686687e+000
177000	9.587205e-001	1.641506e+000
184000	9.790429e-001	1.245903e+000
191000	9.934612e-001	3.380974e-001
198000	9.837601e-001	-7.683226e-001
205000	9.912848e-001	-1.089538e+000
212000	9.947854e-001	-1.343363e+000
219000	9.905442e-001	-1.725420e+000
226000	9.904625e-001	-1.968884e+000
233000	9.885864e-001	-2.271645e+000
240000	9.867593e-001	-2.367742e+000
247000	9.857804e-001	-2.645715e+000
254000	9.832288e-001	-2.970911e+000
261000	9.780551e-001	-3.021813e+000
268000	9.758342e-001	-2.948591e+000
275000	9.755027e-001	-2.707474e+000
282000	9.770267e-001	-2.484848e+000
289000	9.801010e-001	-2.692005e+000
296000	9.795388e-001	-2.664864e+000
303000	9.838484e-001	-2.720591e+000
310000	9.832760e-001	-2.859446e+000
317000	9.856409e-001	-3.032949e+000
324000	9.846182e-001	-3.155174e+000
331000	9.848756e-001	-3.336718e+000
338000	9.839038e-001	-3.418386e+000
345000	9.828617e-001	-3.480145e+000
352000	9.827016e-001	-3.501659e+000
359000	9.843711e-001	-3.533336e+000
366000	9.856098e-001	-3.750765e+000
373000	9.874075e-001	-3.863541e+000
380000	9.875559e-001	-3.807056e+000
387000	9.858161e-001	-3.780988e+000
394000	9.870739e-001	-3.822102e+000
401000	9.900996e-001	-3.905991e+000
408000	9.909472e-001	-4.125274e+000
415000	9.934602e-001	-4.278668e+000
422000	9.928626e-001	-4.305094e+000
429000	9.943963e-001	-4.555798e+000
436000	9.937432e-001	-4.667648e+000
443000	9.938762e-001	-4.712508e+000
450000	9.951893e-001	-4.868597e+000
457000	9.954229e-001	-5.077223e+000
464000	9.961361e-001	-5.067040e+000
471000	9.965001e-001	-5.290228e+000
478000	9.955566e-001	-5.388446e+000
485000	9.978752e-001	-5.513190e+000
492000	9.963330e-001	-5.700813e+000
499000	9.971611e-001	-5.784264e+000
506000	9.960916e-001	-5.966905e+000
513000	9.954098e-001	-6.058913e+000
520000	9.957930e-001	-6.204549e+000
527000	9.952669e-001	-6.348510e+000
534000	9.947061e-001	-6.535583e+000
541000	9.934655e-001	-6.590341e+000
548000	9.913707e-001	-6.730654e+000
555000	9.919176e-001	-6.768335e+000
562000	9.916865e-001	-6.957429e+000
569000	9.909335e-001	-7.165730e+000
576000	9.895012e-001	-7.184976e+000
583000	9.881516e-001	-7.373310e+000
590000	9.855255e-001	-7.390434e+000
597000	9.813643e-001	-7.417481e+000
604000	9.808349e-001	-7.408780e+000
611000	9.803392e-001	-7.467192e+000
618000	9.804495e-001	-7.429701e+000
625000	9.795744e-001	-7.459188e+000
632000	9.784781e-001	-7.644380e+000
639000	9.778068e-001	-7.558309e+000
646000	9.771939e-001	-7.383874e+000
653000	9.768949e-001	-7.274094e+000
660000	9.786403e-001	-7.074406e+000
667000	9.797470e-001	-7.145236e+000
674000	9.831062e-001	-7.139065e+000
681000	9.851762e-001	-7.228282e+000
688000	9.880572e-001	-7.376599e+000
695000	9.897248e-001	-7.489593e+000
702000	9.903090e-001	-7.596114e+000
709000	9.924845e-001	-7.741763e+000
716000	9.941275e-001	-7.864074e+000
723000	9.951344e-001	-8.024483e+000
730000	9.947840e-001	-8.177314e+000
737000	9.926992e-001	-8.304146e+000
744000	9.960527e-001	-8.411518e+000
751000	9.958823e-001	-8.555167e+000
758000	9.960247e-001	-8.682998e+000
765000	9.953145e-001	-8.805973e+000
772000	9.962804e-001	-8.915075e+000
779000	9.969073e-001	-9.076584e+000
786000	9.957727e-001	-9.125161e+000
793000	9.955756e-001	-9.228598e+000
800000	9.960003e-001	-9.420122e+000
807000	9.971421e-001	-9.577791e+000
814000	9.961831e-001	-9.666991e+000
821000	9.936051e-001	-9.764513e+000
828000	9.931219e-001	-9.990917e+000
835000	9.931744e-001	-9.966703e+000
842000	9.919287e-001	-9.972470e+000
849000	9.937128e-001	-1.005921e+001
856000	9.927631e-001	-1.015799e+001
863000	9.922362e-001	-1.021740e+001
870000	9.910589e-001	-1.032851e+001
877000	9.929698e-001	-1.038023e+001
884000	9.919899e-001	-1.052303e+001
891000	9.913697e-001	-1.050408e+001
898000	9.916724e-001	-1.062710e+001
905000	9.916482e-001	-1.058429e+001
912000	9.924887e-001	-1.064122e+001
919000	9.954612e-001	-1.076605e+001
926000	9.933729e-001	-1.078080e+001
933000	9.951432e-001	-1.096570e+001
940000	9.961293e-001	-1.110209e+001
947000	9.963777e-001	-1.111946e+001
954000	9.983489e-001	-1.124520e+001
961000	9.958597e-001	-1.133481e+001
968000	9.963979e-001	-1.153800e+001
975000	9.981826e-001	-1.157162e+001
982000	9.951439e-001	-1.170244e+001
989000	9.970899e-001	-1.182217e+001
996000	9.957685e-001	-1.185090e+001
1003000	9.957131e-001	-1.197420e+001
1010000	9.956998e-001	-1.209472e+001
1017000	9.972759e-001	-1.223791e+001
1024000	9.976607e-001	-1.231188e+001
1031000	9.971324e-001	-1.246967e+001
1038000	9.961820e-001	-1.251157e+001
1045000	9.957370e-001	-1.272104e+001
1052000	9.956177e-001	-1.274435e+001
1059000	9.951492e-001	-1.288052e+001
1066000	9.956555e-001	-1.291336e+001
1073000	9.942525e-001	-1.299436e+001
1080000	9.952166e-001	-1.312303e+001
1087000	9.940390e-001	-1.312414e+001
1094000	9.957168e-001	-1.322258e+001
1101000	9.946831e-001	-1.332273e+001
1108000	9.959466e-001	-1.337279e+001
1115000	9.965290e-001	-1.355530e+001
1122000	9.966639e-001	-1.356610e+001
1129000	9.969501e-001	-1.375301e+001
1136000	9.952760e-001	-1.387343e+001
1143000	9.966819e-001	-1.394432e+001
1150000	9.960031e-001	-1.398735e+001
1157000	9.967462e-001	-1.414518e+001
1164000	9.952795e-001	-1.428083e+001
1171000	9.951750e-001	-1.433085e+001
1178000	9.959760e-001	-1.444101e+001
1185000	9.953606e-001	-1.450805e+001
1192000	9.957314e-001	-1.453416e+001
1199000	9.939247e-001	-1.469928e+001
1206000	9.946524e-001	-1.480057e+001
1213000	9.930337e-001	-1.490797e+001
1220000	9.940881e-001	-1.496164e+001
1227000	9.949317e-001	-1.507885e+001
1234000	9.932195e-001	-1.518292e+001
1241000	9.940920e-001	-1.527035e+001
1248000	9.928348e-001	-1.537230e+001
1255000	9.943422e-001	-1.548075e+001
1262000	9.923633e-001	-1.549549e+001
1269000	9.939263e-001	-1.561321e+001
1276000	9.927158e-001	-1.567174e+001
1283000	9.931031e-001	-1.570877e+001
1290000	9.926348e-001	-1.579514e+001
1297000	9.913560e-001	-1.583327e+001
1304000	9.932381e-001	-1.605115e+001
1311000	9.942695e-001	-1.611158e+001
1318000	9.916882e-001	-1.612423e+001
1325000	9.935957e-001	-1.633144e+001
1332000	9.928887e-001	-1.637539e+001
1339000	9.927290e-001	-1.636309e+001
1346000	9.941458e-001	-1.650955e+001
1353000	9.929937e-001	-1.661318e+001
1360000	9.934535e-001	-1.671401e+001
1367000	9.926260e-001	-1.681723e+001
1374000	9.924722e-001	-1.686854e+001
1381000	9.931906e-001	-1.698005e+001
1388000	9.943249e-001	-1.704891e+001
1395000	9.947977e-001	-1.713331e+001
1402000	9.933254e-001	-1.727224e+001
1409000	9.940074e-001	-1.734804e+001
1416000	9.931631e-001	-1.740566e+001
1423000	9.931909e-001	-1.757616e+001
1430000	9.924074e-001	-1.755079e+001
1437000	9.933068e-001	-1.768847e+001
1444000	9.934469e-001	-1.779472e+001
1451000	9.931838e-001	-1.782882e+001
1458000	9.936576e-001	-1.799844e+001
1465000	9.932276e-001	-1.807423e+001
1472000	9.940886e-001	-1.821428e+001
1479000	9.950632e-001	-1.819717e+001
1486000	9.933185e-001	-1.831381e+001
1493000	9.942915e-001	-1.847351e+001
1500000	9.918332e-001	-1.859766e+001
