!Agilent Technologies,E5071C,MY46100305,A.07.02
!Date: Fri Jan 01 01:39:03 1988
!Data & Calibration Information:
!Freq	S11:SOLT1(ON)
# Hz S MA R 50
100000	9.963961e-001	-2.514082e+000
107000	9.966049e-001	-2.703378e+000
114000	9.945591e-001	-3.234487e+000
121000	9.894646e-001	-3.767026e+000
128000	9.763452e-001	-4.062844e+000
135000	9.697547e-001	-3.996044e+000
142000	9.694556e-001	-4.435713e+000
149000	9.427391e-001	-5.066660e+000
156000	9.086012e-001	-4.272979e+000
163000	8.927670e-001	-7.634658e-001
170000	9.497210e-001	8.598378e-001
177000	9.626260e-001	-4.521834e-001
184000	9.639428e-001	-8.213268e-001
191000	9.772308e-001	7.044679e-002
198000	9.856039e-001	-7.248182e-001
205000	9.829742e-001	-5.655421e-001
212000	9.859513e-001	-1.324992e+000
219000	9.861975e-001	-1.610767e+000
226000	9.900614e-001	-1.796885e+000
233000	9.922222e-001	-2.058218e+000
240000	9.950622e-001	-2.307491e+000
247000	9.932432e-001	-2.515229e+000
254000	9.939680e-001	-2.934136e+000
261000	9.917909e-001	-3.041592e+000
268000	9.890194e-001	-3.164151e+000
275000	9.864468e-001	-3.375662e+000
282000	9.839879e-001	-3.353268e+000
289000	9.826655e-001	-3.201562e+000
296000	9.859432e-001	-3.207594e+000
303000	9.882899e-001	-3.288818e+000
310000	9.858770e-001	-3.602402e+000
317000	9.849710e-001	-3.565029e+000
324000	9.863859e-001	-3.604806e+000
331000	9.861687e-001	-3.800612e+000
338000	9.868908e-001	-3.782339e+000
345000	9.853639e-001	-3.804643e+000
352000	9.887565e-001	-3.928178e+000
359000	9.861176e-001	-4.121653e+000
366000	9.866115e-001	-4.151680e+000
373000	9.874455e-001	-4.255305e+000
380000	9.870492e-001	-4.411056e+000
387000	9.899090e-001	-4.353761e+000
394000	9.889206e-001	-4.444040e+000
401000	9.883662e-001	-4.493340e+000
408000	9.889897e-001	-4.574164e+000
415000	9.917846e-001	-4.722223e+000
422000	9.915627e-001	-4.746282e+000
429000	9.926272e-001	-4.901190e+000
436000	9.941054e-001	-4.949773e+000
443000	9.942909e-001	-5.100909e+000
450000	9.942455e-001	-5.240709e+000
457000	9.942391e-001	-5.376407e+000
464000	9.941329e-001	-5.510255e+000
471000	9.944659e-001	-5.667671e+000
478000	9.940961e-001	-5.735993e+000
485000	9.959919e-001	-5.828438e+000
492000	9.952252e-001	-5.971268e+000
499000	9.952426e-001	-6.093083e+000
506000	9.945187e-001	-6.261742e+000
513000	9.941195e-001	-6.356655e+000
520000	9.942897e-001	-6.477002e+000
527000	9.941943e-001	-6.655753e+000
534000	9.938017e-001	-6.819232e+000
541000	9.926331e-001	-6.988145e+000
548000	9.901118e-001	-7.065166e+000
555000	9.894902e-001	-7.188713e+000
562000	9.890959e-001	-7.271949e+000
569000	9.875442e-001	-7.359529e+000
576000	9.873611e-001	-7.339783e+000
583000	9.880917e-001	-7.480917e+000
590000	9.869591e-001	-7.533386e+000
597000	9.871740e-001	-7.733898e+000
604000	9.845826e-001	-7.872584e+000
611000	9.829632e-001	-8.011636e+000
618000	9.794870e-001	-8.044574e+000
625000	9.773258e-001	-8.013270e+000
632000	9.779983e-001	-8.120989e+000
639000	9.742065e-001	-8.120272e+000
646000	9.731381e-001	-7.886630e+000
653000	9.740174e-001	-7.569511e+000
660000	9.785158e-001	-7.396278e+000
667000	9.833388e-001	-7.456111e+000
674000	9.862170e-001	-7.616156e+000
681000	9.846487e-001	-7.787991e+000
688000	9.891195e-001	-7.859349e+000
695000	9.903344e-001	-8.112735e+000
702000	9.910829e-001	-8.154698e+000
709000	9.911460e-001	-8.468284e+000
716000	9.916360e-001	-8.486205e+000
723000	9.919420e-001	-8.703452e+000
730000	9.909315e-001	-8.827010e+000
737000	9.902581e-001	-8.883460e+000
744000	9.914987e-001	-9.084419e+000
751000	9.894613e-001	-9.166394e+000
758000	9.899445e-001	-9.218276e+000
765000	9.878058e-001	-9.342057e+000
772000	9.882141e-001	-9.400317e+000
779000	9.885327e-001	-9.489694e+000
786000	9.875816e-001	-9.577662e+000
793000	9.873017e-001	-9.600623e+000
800000	9.868754e-001	-9.754056e+000
807000	9.885756e-001	-9.784756e+000
814000	9.880794e-001	-9.871819e+000
821000	9.874963e-001	-9.966881e+000
828000	9.871166e-001	-1.009892e+001
835000	9.890032e-001	-1.016791e+001
842000	9.866870e-001	-1.020325e+001
849000	9.889859e-001	-1.032112e+001
856000	9.876675e-001	-1.032845e+001
863000	9.886676e-001	-1.043284e+001
870000	9.891902e-001	-1.051964e+001
877000	9.902507e-001	-1.070168e+001
884000	9.888305e-001	-1.082479e+001
891000	9.889467e-001	-1.089296e+001
898000	9.893614e-001	-1.109784e+001
905000	9.869447e-001	-1.114851e+001
912000	9.859978e-001	-1.119129e+001
919000	9.877236e-001	-1.131296e+001
926000	9.859651e-001	-1.128018e+001
933000	9.868046e-001	-1.139972e+001
940000	9.866485e-001	-1.138309e+001
947000	9.874978e-001	-1.147020e+001
954000	9.896089e-001	-1.154682e+001
961000	9.884252e-001	-1.161467e+001
968000	9.894735e-001	-1.174144e+001
975000	9.898932e-001	-1.188303e+001
982000	9.893825e-001	-1.193196e+001
989000	9.894692e-001	-1.214258e+001
996000	9.892185e-001	-1.222008e+001
1003000	9.896972e-001	-1.226357e+001
1010000	9.883900e-001	-1.237262e+001
1017000	9.885399e-001	-1.251296e+001
1024000	9.900389e-001	-1.257352e+001
1031000	9.890640e-001	-1.271176e+001
1038000	9.882681e-001	-1.281821e+001
1045000	9.868741e-001	-1.288127e+001
1052000	9.876987e-001	-1.286361e+001
1059000	9.874610e-001	-1.314053e+001
1066000	9.879675e-001	-1.303998e+001
1073000	9.873205e-001	-1.313076e+001
1080000	9.883570e-001	-1.334936e+001
1087000	9.867821e-001	-1.335413e+001
1094000	9.875953e-001	-1.353093e+001
1101000	9.861287e-001	-1.358298e+001
1108000	9.875007e-001	-1.364693e+001
1115000	9.886041e-001	-1.370473e+001
1122000	9.864570e-001	-1.374485e+001
1129000	9.867640e-001	-1.387765e+001
1136000	9.868208e-001	-1.396226e+001
1143000	9.895035e-001	-1.397876e+001
1150000	9.883529e-001	-1.410131e+001
1157000	9.889359e-001	-1.428160e+001
1164000	9.888866e-001	-1.433927e+001
1171000	9.882669e-001	-1.448890e+001
1178000	9.878324e-001	-1.455890e+001
1185000	9.875697e-001	-1.459517e+001
1192000	9.877999e-001	-1.466970e+001
1199000	9.877071e-001	-1.479130e+001
1206000	9.879581e-001	-1.486169e+001
1213000	9.867303e-001	-1.496479e+001
1220000	9.880188e-001	-1.511538e+001
1227000	9.880718e-001	-1.520405e+001
1234000	9.871726e-001	-1.525510e+001
1241000	9.864898e-001	-1.533004e+001
1248000	9.863715e-001	-1.540335e+001
1255000	9.876666e-001	-1.543181e+001
1262000	9.858378e-001	-1.558970e+001
1269000	9.868797e-001	-1.565021e+001
1276000	9.865171e-001	-1.569660e+001
1283000	9.861232e-001	-1.579196e+001
1290000	9.861014e-001	-1.578290e+001
1297000	9.864352e-001	-1.586518e+001
1304000	9.866587e-001	-1.603881e+001
1311000	9.875406e-001	-1.608327e+001
1318000	9.863574e-001	-1.616820e+001
1325000	9.872375e-001	-1.633339e+001
1332000	9.865329e-001	-1.630726e+001
1339000	9.872704e-001	-1.634806e+001
1346000	9.880824e-001	-1.650001e+001
1353000	9.866847e-001	-1.667492e+001
1360000	9.885047e-001	-1.672625e+001
1367000	9.883397e-001	-1.677391e+001
1374000	9.879880e-001	-1.689928e+001
1381000	9.890922e-001	-1.699123e+001
1388000	9.896929e-001	-1.717578e+001
1395000	9.905596e-001	-1.720290e+001
1402000	9.886622e-001	-1.730953e+001
1409000	9.889899e-001	-1.743552e+001
1416000	9.886855e-001	-1.747264e+001
1423000	9.891945e-001	-1.763196e+001
1430000	9.883014e-001	-1.763528e+001
1437000	9.893735e-001	-1.777988e+001
1444000	9.888279e-001	-1.785643e+001
1451000	9.887813e-001	-1.795009e+001
1458000	9.892048e-001	-1.806121e+001
1465000	9.884684e-001	-1.820748e+001
1472000	9.896895e-001	-1.832529e+001
1479000	9.897378e-001	-1.834255e+001
1486000	9.885715e-001	-1.851158e+001
1493000	9.890690e-001	-1.860440e+001
1500000	9.855789e-001	-1.880488e+001
