!Agilent Technologies,E5071C,MY46100305,A.07.02
!Date: Fri Jan 01 01:40:05 1988
!Data & Calibration Information:
!Freq	S11:SOLT1(ON)
# Hz S MA R 50
100000	9.977850e-001	-2.402237e+000
107000	9.982048e-001	-2.679885e+000
114000	9.963272e-001	-3.035311e+000
121000	9.955600e-001	-3.447299e+000
128000	9.944535e-001	-3.937085e+000
135000	9.876330e-001	-4.661244e+000
142000	9.729594e-001	-5.762285e+000
149000	9.419584e-001	-6.257879e+000
156000	9.015687e-001	-5.295530e+000
163000	8.737887e-001	-2.883533e+000
170000	8.979767e-001	1.622183e+000
177000	9.503358e-001	1.188054e+000
184000	9.664129e-001	6.215924e-001
191000	9.843532e-001	-3.539583e-001
198000	9.785248e-001	-5.658818e-001
205000	9.965699e-001	-7.524663e-001
212000	9.938784e-001	-1.320817e+000
219000	9.869546e-001	-1.905182e+000
226000	9.915371e-001	-1.834201e+000
233000	9.910083e-001	-2.567303e+000
240000	9.950390e-001	-2.182301e+000
247000	9.919986e-001	-2.558631e+000
254000	9.911684e-001	-2.805899e+000
261000	9.899862e-001	-3.035986e+000
268000	9.854898e-001	-3.189664e+000
275000	9.832951e-001	-3.196672e+000
282000	9.808757e-001	-3.151413e+000
289000	9.798184e-001	-2.980293e+000
296000	9.831202e-001	-2.915558e+000
303000	9.870012e-001	-3.026616e+000
310000	9.887789e-001	-3.092559e+000
317000	9.892720e-001	-3.390372e+000
324000	9.886001e-001	-3.357878e+000
331000	9.893891e-001	-3.585153e+000
338000	9.911562e-001	-3.787099e+000
345000	9.888341e-001	-3.877901e+000
352000	9.894695e-001	-3.908020e+000
359000	9.901011e-001	-4.110067e+000
366000	9.873900e-001	-4.295896e+000
373000	9.865752e-001	-4.288739e+000
380000	9.870599e-001	-4.348190e+000
387000	9.875213e-001	-4.327235e+000
394000	9.903289e-001	-4.440783e+000
401000	9.892145e-001	-4.432246e+000
408000	9.906752e-001	-4.573961e+000
415000	9.928839e-001	-4.606173e+000
422000	9.919497e-001	-4.726471e+000
429000	9.945287e-001	-4.889168e+000
436000	9.945278e-001	-5.054303e+000
443000	9.935795e-001	-5.080693e+000
450000	9.961218e-001	-5.259751e+000
457000	9.953480e-001	-5.381875e+000
464000	9.961432e-001	-5.530927e+000
471000	9.961424e-001	-5.711948e+000
478000	9.954622e-001	-5.811153e+000
485000	9.969931e-001	-5.868195e+000
492000	9.953555e-001	-6.056153e+000
499000	9.964821e-001	-6.142235e+000
506000	9.947450e-001	-6.311897e+000
513000	9.945801e-001	-6.459705e+000
520000	9.947254e-001	-6.636307e+000
527000	9.932017e-001	-6.767934e+000
534000	9.925433e-001	-6.887929e+000
541000	9.921157e-001	-6.988543e+000
548000	9.905480e-001	-7.119070e+000
555000	9.903632e-001	-7.375715e+000
562000	9.867084e-001	-7.363081e+000
569000	9.853393e-001	-7.451542e+000
576000	9.847581e-001	-7.343260e+000
583000	9.866797e-001	-7.358540e+000
590000	9.874902e-001	-7.435923e+000
597000	9.863746e-001	-7.670630e+000
604000	9.853475e-001	-7.847091e+000
611000	9.832881e-001	-7.858663e+000
618000	9.808261e-001	-7.880642e+000
625000	9.788270e-001	-7.836511e+000
632000	9.792665e-001	-7.843659e+000
639000	9.800253e-001	-7.780034e+000
646000	9.820385e-001	-7.767466e+000
653000	9.833164e-001	-7.865120e+000
660000	9.827328e-001	-7.942512e+000
667000	9.824568e-001	-7.928533e+000
674000	9.826450e-001	-7.880279e+000
681000	9.837016e-001	-7.832346e+000
688000	9.879509e-001	-7.926735e+000
695000	9.904786e-001	-8.105344e+000
702000	9.909400e-001	-8.223555e+000
709000	9.930660e-001	-8.436870e+000
716000	9.945005e-001	-8.561000e+000
723000	9.935241e-001	-8.645257e+000
730000	9.937979e-001	-8.874972e+000
737000	9.919600e-001	-8.995612e+000
744000	9.924098e-001	-9.213083e+000
751000	9.900200e-001	-9.285272e+000
758000	9.901909e-001	-9.347942e+000
765000	9.896752e-001	-9.370703e+000
772000	9.913037e-001	-9.525961e+000
779000	9.921543e-001	-9.578331e+000
786000	9.914519e-001	-9.780459e+000
793000	9.909380e-001	-9.857691e+000
800000	9.898929e-001	-1.003522e+001
807000	9.906094e-001	-1.016934e+001
814000	9.892577e-001	-1.024042e+001
821000	9.860199e-001	-1.037030e+001
828000	9.853360e-001	-1.042623e+001
835000	9.851822e-001	-1.038173e+001
842000	9.844723e-001	-1.039839e+001
849000	9.863438e-001	-1.041432e+001
856000	9.859273e-001	-1.050811e+001
863000	9.860408e-001	-1.057697e+001
870000	9.863798e-001	-1.065088e+001
877000	9.876557e-001	-1.068191e+001
884000	9.885573e-001	-1.075867e+001
891000	9.892200e-001	-1.084442e+001
898000	9.903490e-001	-1.106636e+001
905000	9.896708e-001	-1.112480e+001
912000	9.871020e-001	-1.126352e+001
919000	9.889484e-001	-1.135207e+001
926000	9.878441e-001	-1.137747e+001
933000	9.892057e-001	-1.149840e+001
940000	9.896951e-001	-1.158839e+001
947000	9.887595e-001	-1.165374e+001
954000	9.908536e-001	-1.173459e+001
961000	9.877328e-001	-1.173805e+001
968000	9.882677e-001	-1.188831e+001
975000	9.893764e-001	-1.193967e+001
982000	9.890877e-001	-1.207249e+001
989000	9.907259e-001	-1.217366e+001
996000	9.905924e-001	-1.235641e+001
1003000	9.904277e-001	-1.245118e+001
1010000	9.905590e-001	-1.252100e+001
1017000	9.908172e-001	-1.267059e+001
1024000	9.902015e-001	-1.275387e+001
1031000	9.892950e-001	-1.284749e+001
1038000	9.899179e-001	-1.295614e+001
1045000	9.893898e-001	-1.308268e+001
1052000	9.902844e-001	-1.317436e+001
1059000	9.893190e-001	-1.339090e+001
1066000	9.896279e-001	-1.338202e+001
1073000	9.868267e-001	-1.352942e+001
1080000	9.871610e-001	-1.369930e+001
1087000	9.841151e-001	-1.371070e+001
1094000	9.838405e-001	-1.376345e+001
1101000	9.825455e-001	-1.374063e+001
1108000	9.828418e-001	-1.370382e+001
1115000	9.845138e-001	-1.375947e+001
1122000	9.851164e-001	-1.377078e+001
1129000	9.862691e-001	-1.388750e+001
1136000	9.866273e-001	-1.401556e+001
1143000	9.896855e-001	-1.412077e+001
1150000	9.881354e-001	-1.415662e+001
1157000	9.892346e-001	-1.435660e+001
1164000	9.875101e-001	-1.440738e+001
1171000	9.877567e-001	-1.449461e+001
1178000	9.880858e-001	-1.458676e+001
1185000	9.890882e-001	-1.465174e+001
1192000	9.888527e-001	-1.478693e+001
1199000	9.882213e-001	-1.487063e+001
1206000	9.885352e-001	-1.496514e+001
1213000	9.872752e-001	-1.507121e+001
1220000	9.883823e-001	-1.518278e+001
1227000	9.890552e-001	-1.534310e+001
1234000	9.878689e-001	-1.541700e+001
1241000	9.882977e-001	-1.556887e+001
1248000	9.865943e-001	-1.567598e+001
1255000	9.870977e-001	-1.575763e+001
1262000	9.846138e-001	-1.584849e+001
1269000	9.845442e-001	-1.593613e+001
1276000	9.837875e-001	-1.603766e+001
1283000	9.823967e-001	-1.599536e+001
1290000	9.821585e-001	-1.596362e+001
1297000	9.824937e-001	-1.591522e+001
1304000	9.824612e-001	-1.599068e+001
1311000	9.859763e-001	-1.606515e+001
1318000	9.848710e-001	-1.614869e+001
1325000	9.883307e-001	-1.631905e+001
1332000	9.874634e-001	-1.635246e+001
1339000	9.878002e-001	-1.636655e+001
1346000	9.878911e-001	-1.656861e+001
1353000	9.874382e-001	-1.670319e+001
1360000	9.886901e-001	-1.677880e+001
1367000	9.885781e-001	-1.688431e+001
1374000	9.887298e-001	-1.695385e+001
1381000	9.895490e-001	-1.711488e+001
1388000	9.915016e-001	-1.721711e+001
1395000	9.914369e-001	-1.725759e+001
1402000	9.904529e-001	-1.748798e+001
1409000	9.899528e-001	-1.754893e+001
1416000	9.889573e-001	-1.759551e+001
1423000	9.895803e-001	-1.774749e+001
1430000	9.893173e-001	-1.780415e+001
1437000	9.897816e-001	-1.794331e+001
1444000	9.900790e-001	-1.813276e+001
1451000	9.900998e-001	-1.816147e+001
1458000	9.898447e-001	-1.829509e+001
1465000	9.883404e-001	-1.839527e+001
1472000	9.896741e-001	-1.853165e+001
1479000	9.884975e-001	-1.855486e+001
1486000	9.884812e-001	-1.866340e+001
1493000	9.893180e-001	-1.872979e+001
1500000	9.865983e-001	-1.888602e+001
