!Agilent Technologies,E5071C,MY46100305,A.07.02
!Date: Fri Jan 01 01:40:51 1988
!Data & Calibration Information:
!Freq	S11:SOLT1(ON)
# Hz S MA R 50
100000	9.958107e-001	-2.437986e+000
107000	9.969474e-001	-2.680161e+000
114000	9.937837e-001	-3.043341e+000
121000	9.920497e-001	-3.423055e+000
128000	9.849518e-001	-3.976350e+000
135000	9.723344e-001	-4.255739e+000
142000	9.549935e-001	-4.505473e+000
149000	9.288936e-001	-4.107839e+000
156000	9.206003e-001	-1.463462e+000
163000	9.511136e-001	-1.161431e+000
170000	9.440283e-001	-8.689053e-001
177000	9.602332e-001	-3.082527e-002
184000	9.771522e-001	-7.925879e-001
191000	9.780055e-001	-5.701018e-001
198000	9.879565e-001	-1.209186e+000
205000	9.917188e-001	-1.368230e+000
212000	9.924938e-001	-1.695118e+000
219000	9.917950e-001	-1.836438e+000
226000	9.958237e-001	-1.949252e+000
233000	9.951728e-001	-2.422672e+000
240000	9.966630e-001	-2.435499e+000
247000	9.965455e-001	-2.764367e+000
254000	9.953138e-001	-3.014073e+000
261000	9.929200e-001	-3.156897e+000
268000	9.925289e-001	-3.264412e+000
275000	9.933638e-001	-3.437718e+000
282000	9.923050e-001	-3.574445e+000
289000	9.887952e-001	-3.714439e+000
296000	9.870920e-001	-3.685043e+000
303000	9.885161e-001	-3.707762e+000
310000	9.878647e-001	-3.764251e+000
317000	9.902340e-001	-3.855415e+000
324000	9.902789e-001	-4.008621e+000
331000	9.881712e-001	-4.101392e+000
338000	9.889873e-001	-4.063303e+000
345000	9.860548e-001	-4.216371e+000
352000	9.871235e-001	-4.157234e+000
359000	9.889669e-001	-4.314393e+000
366000	9.879578e-001	-4.389291e+000
373000	9.883136e-001	-4.521919e+000
380000	9.891679e-001	-4.587238e+000
387000	9.904973e-001	-4.600610e+000
394000	9.909452e-001	-4.789278e+000
401000	9.897080e-001	-4.834826e+000
408000	9.903404e-001	-4.895802e+000
415000	9.917019e-001	-4.993307e+000
422000	9.927111e-001	-5.009620e+000
429000	9.940327e-001	-5.250477e+000
436000	9.930448e-001	-5.337299e+000
443000	9.953283e-001	-5.500377e+000
450000	9.944081e-001	-5.608759e+000
457000	9.945967e-001	-5.797011e+000
464000	9.934294e-001	-5.909639e+000
471000	9.931775e-001	-5.986926e+000
478000	9.933382e-001	-6.159109e+000
485000	9.934688e-001	-6.219012e+000
492000	9.931460e-001	-6.406511e+000
499000	9.937731e-001	-6.392806e+000
506000	9.925912e-001	-6.544751e+000
513000	9.906885e-001	-6.619123e+000
520000	9.913537e-001	-6.738189e+000
527000	9.914399e-001	-6.833893e+000
534000	9.921123e-001	-6.959425e+000
541000	9.913482e-001	-6.990593e+000
548000	9.913977e-001	-7.177159e+000
555000	9.919720e-001	-7.329897e+000
562000	9.911831e-001	-7.379169e+000
569000	9.904513e-001	-7.529414e+000
576000	9.899068e-001	-7.532316e+000
583000	9.906469e-001	-7.682750e+000
590000	9.902557e-001	-7.631475e+000
597000	9.905417e-001	-7.866283e+000
604000	9.906215e-001	-8.008291e+000
611000	9.900283e-001	-8.182111e+000
618000	9.881999e-001	-8.244233e+000
625000	9.873211e-001	-8.384050e+000
632000	9.860772e-001	-8.528423e+000
639000	9.851893e-001	-8.634576e+000
646000	9.832910e-001	-8.606133e+000
653000	9.796292e-001	-8.570971e+000
660000	9.814365e-001	-8.402450e+000
667000	9.836391e-001	-8.414167e+000
674000	9.852405e-001	-8.417786e+000
681000	9.854924e-001	-8.532369e+000
688000	9.889252e-001	-8.742275e+000
695000	9.880997e-001	-8.933858e+000
702000	9.904401e-001	-9.024362e+000
709000	9.900098e-001	-9.216015e+000
716000	9.896219e-001	-9.398999e+000
723000	9.876181e-001	-9.549044e+000
730000	9.848002e-001	-9.690999e+000
737000	9.825363e-001	-9.705081e+000
744000	9.831064e-001	-9.808401e+000
751000	9.826241e-001	-9.898011e+000
758000	9.825112e-001	-9.918469e+000
765000	9.803942e-001	-9.947021e+000
772000	9.805625e-001	-1.001812e+001
779000	9.785074e-001	-1.003836e+001
786000	9.797253e-001	-1.002377e+001
793000	9.780531e-001	-1.001721e+001
800000	9.786485e-001	-1.002790e+001
807000	9.797991e-001	-1.003793e+001
814000	9.823768e-001	-1.011159e+001
821000	9.816744e-001	-1.021771e+001
828000	9.829706e-001	-1.039085e+001
835000	9.838554e-001	-1.038853e+001
842000	9.848725e-001	-1.046337e+001
849000	9.871051e-001	-1.057912e+001
856000	9.865233e-001	-1.069570e+001
863000	9.857907e-001	-1.088922e+001
870000	9.864622e-001	-1.100183e+001
877000	9.865414e-001	-1.111751e+001
884000	9.856099e-001	-1.125042e+001
891000	9.872548e-001	-1.137944e+001
898000	9.859026e-001	-1.148840e+001
905000	9.864403e-001	-1.155010e+001
912000	9.847324e-001	-1.169787e+001
919000	9.856536e-001	-1.179860e+001
926000	9.848831e-001	-1.186800e+001
933000	9.855864e-001	-1.194081e+001
940000	9.838914e-001	-1.202348e+001
947000	9.840538e-001	-1.210090e+001
954000	9.858932e-001	-1.219814e+001
961000	9.840907e-001	-1.226046e+001
968000	9.832827e-001	-1.238673e+001
975000	9.848363e-001	-1.248129e+001
982000	9.830746e-001	-1.260466e+001
989000	9.834250e-001	-1.276557e+001
996000	9.825864e-001	-1.279087e+001
1003000	9.818686e-001	-1.295958e+001
1010000	9.795107e-001	-1.300000e+001
1017000	9.804069e-001	-1.314123e+001
1024000	9.787166e-001	-1.312322e+001
1031000	9.782609e-001	-1.316515e+001
1038000	9.777300e-001	-1.315841e+001
1045000	9.784233e-001	-1.313805e+001
1052000	9.800418e-001	-1.317345e+001
1059000	9.803169e-001	-1.332746e+001
1066000	9.817923e-001	-1.325361e+001
1073000	9.816309e-001	-1.336762e+001
1080000	9.842769e-001	-1.358628e+001
1087000	9.830360e-001	-1.364634e+001
1094000	9.829404e-001	-1.379193e+001
1101000	9.825298e-001	-1.389692e+001
1108000	9.839774e-001	-1.390037e+001
1115000	9.851777e-001	-1.402722e+001
1122000	9.856451e-001	-1.412776e+001
1129000	9.863453e-001	-1.428120e+001
1136000	9.866250e-001	-1.445388e+001
1143000	9.875396e-001	-1.459573e+001
1150000	9.866150e-001	-1.466498e+001
1157000	9.874326e-001	-1.487397e+001
1164000	9.855238e-001	-1.500147e+001
1171000	9.844550e-001	-1.516252e+001
1178000	9.842929e-001	-1.525018e+001
1185000	9.837114e-001	-1.535407e+001
1192000	9.819788e-001	-1.538895e+001
1199000	9.827003e-001	-1.552912e+001
1206000	9.811154e-001	-1.558452e+001
1213000	9.799823e-001	-1.567335e+001
1220000	9.794887e-001	-1.577023e+001
1227000	9.795031e-001	-1.585502e+001
1234000	9.782878e-001	-1.590212e+001
1241000	9.775410e-001	-1.599307e+001
1248000	9.760194e-001	-1.612596e+001
1255000	9.770284e-001	-1.607389e+001
1262000	9.745528e-001	-1.615613e+001
1269000	9.743447e-001	-1.616830e+001
1276000	9.741531e-001	-1.620293e+001
1283000	9.754546e-001	-1.619340e+001
1290000	9.758643e-001	-1.624316e+001
1297000	9.755287e-001	-1.632408e+001
1304000	9.751054e-001	-1.634188e+001
1311000	9.772947e-001	-1.639278e+001
1318000	9.768937e-001	-1.647048e+001
1325000	9.784480e-001	-1.656910e+001
1332000	9.790979e-001	-1.664757e+001
1339000	9.797237e-001	-1.664985e+001
1346000	9.808971e-001	-1.683791e+001
1353000	9.794565e-001	-1.696685e+001
1360000	9.823590e-001	-1.704333e+001
1367000	9.815307e-001	-1.712933e+001
1374000	9.829398e-001	-1.727910e+001
1381000	9.838891e-001	-1.741985e+001
1388000	9.845403e-001	-1.760744e+001
1395000	9.845130e-001	-1.761969e+001
1402000	9.831597e-001	-1.781254e+001
1409000	9.824398e-001	-1.791790e+001
1416000	9.816396e-001	-1.795848e+001
1423000	9.821911e-001	-1.815793e+001
1430000	9.810309e-001	-1.819036e+001
1437000	9.818900e-001	-1.836848e+001
1444000	9.819073e-001	-1.846366e+001
1451000	9.805278e-001	-1.852256e+001
1458000	9.815153e-001	-1.867127e+001
1465000	9.811146e-001	-1.881133e+001
1472000	9.819315e-001	-1.891388e+001
1479000	9.811978e-001	-1.894095e+001
1486000	9.796706e-001	-1.908093e+001
1493000	9.796788e-001	-1.917904e+001
1500000	9.776125e-001	-1.933370e+001
