!Agilent Technologies,E5071C,MY46100265,A.07.02
!Date: Wed Mar 04 14:53:01 2020
!Data & Calibration Information:
!Freq	S11:SOLT1(ON)
# Hz S MA R 50
100000	9.890063e-001	-1.117215e+000
102743	9.854551e-001	-1.110552e+000
105486	9.875339e-001	-1.234388e+000
108229	9.866607e-001	-1.181247e+000
110973	9.842369e-001	-1.242174e+000
113716	9.877795e-001	-1.189541e+000
116459	9.886223e-001	-1.262293e+000
119202	9.871981e-001	-1.407591e+000
121945	9.875931e-001	-1.393479e+000
124688	9.835213e-001	-1.405061e+000
127431	9.863571e-001	-1.432659e+000
130175	9.856705e-001	-1.485806e+000
132918	9.837954e-001	-1.459242e+000
135661	9.855888e-001	-1.650960e+000
138404	9.848235e-001	-1.683474e+000
141147	9.841498e-001	-1.726993e+000
143890	9.820826e-001	-1.859280e+000
146633	9.813982e-001	-1.784222e+000
149377	9.796709e-001	-1.760614e+000
152120	9.815680e-001	-1.858235e+000
154863	9.814990e-001	-2.009720e+000
157606	9.786420e-001	-2.121622e+000
160349	9.752304e-001	-2.276310e+000
163092	9.724291e-001	-2.309805e+000
165835	9.696809e-001	-2.337571e+000
168579	9.661097e-001	-2.418173e+000
171322	9.617281e-001	-2.419118e+000
174065	9.549617e-001	-2.296570e+000
176808	9.451817e-001	-1.919055e+000
179551	9.420078e-001	-1.198635e+000
182294	9.460838e-001	-2.110812e-001
185037	9.610868e-001	1.257063e-001
187781	9.730449e-001	-1.196774e-001
190524	9.760182e-001	-4.245232e-001
193267	9.776929e-001	-5.606235e-001
196010	9.817981e-001	-6.563972e-001
198753	9.804239e-001	-9.201517e-001
201496	9.799296e-001	-1.013471e+000
204239	9.802855e-001	-1.050142e+000
206983	9.797959e-001	-1.093244e+000
209726	9.808318e-001	-1.291972e+000
212469	9.793413e-001	-1.383282e+000
215212	9.790442e-001	-1.492831e+000
217955	9.755170e-001	-1.565581e+000
220698	9.736866e-001	-1.474149e+000
223441	9.732608e-001	-1.319382e+000
226185	9.740496e-001	-1.102311e+000
228928	9.775986e-001	-1.190446e+000
231671	9.788186e-001	-1.213764e+000
234414	9.818404e-001	-1.257694e+000
237157	9.810058e-001	-1.344442e+000
239900	9.811413e-001	-1.513116e+000
242643	9.819728e-001	-1.474222e+000
245387	9.809839e-001	-1.522094e+000
248130	9.796416e-001	-1.581351e+000
250873	9.791578e-001	-1.570647e+000
253616	9.786151e-001	-1.731283e+000
256359	9.762729e-001	-1.668783e+000
259102	9.783139e-001	-1.482400e+000
261845	9.776166e-001	-1.339869e+000
264589	9.795978e-001	-1.566193e+000
267332	9.798784e-001	-1.539074e+000
270075	9.833961e-001	-1.670009e+000
272818	9.807337e-001	-1.753549e+000
275561	9.827484e-001	-1.876325e+000
278304	9.815897e-001	-1.756510e+000
281047	9.824792e-001	-1.890435e+000
283791	9.816210e-001	-1.826370e+000
286534	9.804636e-001	-1.883950e+000
289277	9.799985e-001	-1.941417e+000
292020	9.799739e-001	-1.992834e+000
294763	9.785858e-001	-1.980972e+000
297506	9.797906e-001	-1.975937e+000
300249	9.778466e-001	-2.021626e+000
302993	9.763020e-001	-2.111837e+000
305736	9.768394e-001	-2.028461e+000
308479	9.742101e-001	-1.992118e+000
311222	9.754763e-001	-2.026654e+000
313965	9.781449e-001	-2.025230e+000
316708	9.762209e-001	-2.115428e+000
319451	9.773575e-001	-2.027213e+000
322195	9.754609e-001	-2.107744e+000
324938	9.772622e-001	-2.146097e+000
327681	9.761756e-001	-2.112472e+000
330424	9.766935e-001	-2.178851e+000
333167	9.765773e-001	-2.172949e+000
335910	9.752576e-001	-2.105295e+000
338653	9.739979e-001	-2.111770e+000
341397	9.749941e-001	-2.101982e+000
344140	9.756742e-001	-2.100577e+000
346883	9.762267e-001	-2.056636e+000
349626	9.769685e-001	-2.170835e+000
352369	9.789706e-001	-2.243405e+000
355112	9.776516e-001	-2.157871e+000
357855	9.775511e-001	-2.221680e+000
360599	9.784277e-001	-2.370788e+000
363342	9.761327e-001	-2.373523e+000
366085	9.765986e-001	-2.335293e+000
368828	9.760316e-001	-2.411757e+000
371571	9.761672e-001	-2.459199e+000
374314	9.730551e-001	-2.413339e+000
377057	9.740349e-001	-2.341899e+000
379800	9.720980e-001	-2.384578e+000
382544	9.752938e-001	-2.472578e+000
385287	9.730137e-001	-2.444540e+000
388030	9.729342e-001	-2.288545e+000
390773	9.757295e-001	-2.350151e+000
393516	9.760850e-001	-2.340684e+000
396259	9.741577e-001	-2.438423e+000
399002	9.747861e-001	-2.466902e+000
401746	9.731990e-001	-2.530794e+000
404489	9.753404e-001	-2.425237e+000
407232	9.738787e-001	-2.428078e+000
409975	9.733458e-001	-2.500851e+000
412718	9.743375e-001	-2.469138e+000
415461	9.752240e-001	-2.557928e+000
418204	9.734467e-001	-2.487714e+000
420948	9.737955e-001	-2.462810e+000
423691	9.727584e-001	-2.497130e+000
426434	9.747275e-001	-2.535292e+000
429177	9.749396e-001	-2.569332e+000
431920	9.731957e-001	-2.522610e+000
434663	9.755890e-001	-2.567019e+000
437406	9.767354e-001	-2.509786e+000
440150	9.738519e-001	-2.727746e+000
442893	9.768724e-001	-2.633825e+000
445636	9.729300e-001	-2.663279e+000
448379	9.738219e-001	-2.720870e+000
451122	9.740640e-001	-2.887403e+000
453865	9.736359e-001	-2.766058e+000
456608	9.723154e-001	-2.745483e+000
459352	9.723566e-001	-2.700717e+000
462095	9.721869e-001	-2.729953e+000
464838	9.718038e-001	-2.717547e+000
467581	9.729520e-001	-2.701490e+000
470324	9.730946e-001	-2.787283e+000
473067	9.736001e-001	-2.738093e+000
475810	9.728711e-001	-2.875991e+000
478554	9.741434e-001	-2.783145e+000
481297	9.725902e-001	-2.712976e+000
484040	9.718498e-001	-2.674951e+000
486783	9.715918e-001	-2.640141e+000
489526	9.724897e-001	-2.675313e+000
492269	9.712589e-001	-2.646297e+000
495012	9.728270e-001	-2.661357e+000
497756	9.723110e-001	-2.511126e+000
500499	9.763474e-001	-2.638746e+000
503242	9.750693e-001	-2.711413e+000
505985	9.756877e-001	-2.723965e+000
508728	9.765712e-001	-2.712765e+000
511471	9.777085e-001	-2.762358e+000
514214	9.794613e-001	-2.767978e+000
516958	9.755920e-001	-2.949109e+000
519701	9.791579e-001	-2.854938e+000
522444	9.771184e-001	-2.902358e+000
525187	9.791762e-001	-3.056383e+000
527930	9.773711e-001	-2.961262e+000
530673	9.795151e-001	-3.082174e+000
533416	9.781491e-001	-3.039034e+000
536160	9.766314e-001	-3.065756e+000
538903	9.776623e-001	-3.131998e+000
541646	9.780673e-001	-3.109098e+000
544389	9.771293e-001	-3.108843e+000
547132	9.756160e-001	-3.195201e+000
549875	9.787131e-001	-3.229236e+000
552618	9.762790e-001	-3.238497e+000
555362	9.762644e-001	-3.406435e+000
558105	9.759359e-001	-3.236985e+000
560848	9.762146e-001	-3.298295e+000
563591	9.758918e-001	-3.350872e+000
566334	9.765140e-001	-3.413813e+000
569077	9.790307e-001	-3.357121e+000
571820	9.775441e-001	-3.384166e+000
574564	9.768659e-001	-3.435177e+000
577307	9.763401e-001	-3.430145e+000
580050	9.765004e-001	-3.437490e+000
582793	9.773296e-001	-3.478966e+000
585536	9.761358e-001	-3.623136e+000
588279	9.754390e-001	-3.544449e+000
591022	9.766177e-001	-3.563112e+000
593766	9.750380e-001	-3.633935e+000
596509	9.758332e-001	-3.552633e+000
599252	9.739078e-001	-3.652485e+000
601995	9.740410e-001	-3.699779e+000
604738	9.750467e-001	-3.671205e+000
607481	9.737005e-001	-3.640535e+000
610224	9.750757e-001	-3.757123e+000
612968	9.729581e-001	-3.846672e+000
615711	9.734342e-001	-3.749290e+000
618454	9.723642e-001	-3.789711e+000
621197	9.713575e-001	-3.801105e+000
623940	9.720664e-001	-3.680057e+000
626683	9.728146e-001	-3.760728e+000
629426	9.747781e-001	-3.858558e+000
632170	9.738646e-001	-3.884638e+000
634913	9.733899e-001	-3.923971e+000
637656	9.744716e-001	-3.932532e+000
640399	9.730675e-001	-3.858371e+000
643142	9.727663e-001	-3.910911e+000
645885	9.740043e-001	-3.947264e+000
648628	9.717076e-001	-3.936238e+000
651372	9.736245e-001	-3.935775e+000
654115	9.725839e-001	-3.991202e+000
656858	9.742576e-001	-4.120764e+000
659601	9.723319e-001	-4.089366e+000
662344	9.715440e-001	-4.173922e+000
665087	9.726556e-001	-4.091403e+000
667830	9.717262e-001	-4.179497e+000
670574	9.710740e-001	-4.156625e+000
673317	9.708619e-001	-4.251480e+000
676060	9.673837e-001	-4.165749e+000
678803	9.697158e-001	-4.252563e+000
681546	9.692766e-001	-4.238751e+000
684289	9.688156e-001	-4.287057e+000
687032	9.677357e-001	-4.190078e+000
689776	9.681524e-001	-4.144353e+000
692519	9.681160e-001	-4.264365e+000
695262	9.694876e-001	-4.302278e+000
698005	9.673375e-001	-4.225652e+000
700748	9.675585e-001	-4.314440e+000
703491	9.676782e-001	-4.305137e+000
706234	9.668154e-001	-4.314662e+000
708978	9.653181e-001	-4.316502e+000
711721	9.663540e-001	-4.267952e+000
714464	9.660547e-001	-4.371429e+000
717207	9.656661e-001	-4.275093e+000
719950	9.662951e-001	-4.348259e+000
722693	9.660356e-001	-4.406284e+000
725436	9.650984e-001	-4.215786e+000
728180	9.645211e-001	-4.341639e+000
730923	9.650182e-001	-4.402811e+000
733666	9.648929e-001	-4.420940e+000
736409	9.638073e-001	-4.433294e+000
739152	9.626900e-001	-4.449605e+000
741895	9.626436e-001	-4.487348e+000
744638	9.629611e-001	-4.424021e+000
747382	9.610004e-001	-4.454983e+000
750125	9.612003e-001	-4.407774e+000
752868	9.614836e-001	-4.446782e+000
755611	9.593227e-001	-4.377320e+000
758354	9.605698e-001	-4.363279e+000
761097	9.595186e-001	-4.496584e+000
763840	9.590521e-001	-4.413431e+000
766584	9.591645e-001	-4.391893e+000
769327	9.598564e-001	-4.295807e+000
772070	9.599506e-001	-4.355313e+000
774813	9.604446e-001	-4.294285e+000
777556	9.587369e-001	-4.277716e+000
780299	9.592870e-001	-4.314305e+000
783042	9.597657e-001	-4.200240e+000
785786	9.592971e-001	-4.195951e+000
788529	9.601585e-001	-4.160180e+000
791272	9.594259e-001	-4.205573e+000
794015	9.604749e-001	-4.195679e+000
796758	9.594886e-001	-4.165695e+000
799501	9.594757e-001	-4.151343e+000
802244	9.608210e-001	-4.166527e+000
804988	9.599227e-001	-4.179202e+000
807731	9.600997e-001	-4.055759e+000
810474	9.602889e-001	-4.093774e+000
813217	9.622165e-001	-4.169964e+000
815960	9.617571e-001	-4.027843e+000
818703	9.616152e-001	-4.154734e+000
821446	9.621749e-001	-4.157161e+000
824190	9.638122e-001	-4.108680e+000
826933	9.633151e-001	-4.116004e+000
829676	9.633448e-001	-4.215767e+000
832419	9.638239e-001	-4.236606e+000
835162	9.619565e-001	-4.282713e+000
837905	9.637130e-001	-4.245231e+000
840648	9.636945e-001	-4.309945e+000
843392	9.638763e-001	-4.175263e+000
846135	9.619097e-001	-4.291508e+000
848878	9.644326e-001	-4.318224e+000
851621	9.634716e-001	-4.364061e+000
854364	9.649098e-001	-4.301948e+000
857107	9.625022e-001	-4.278632e+000
859850	9.643431e-001	-4.302100e+000
862594	9.647378e-001	-4.272121e+000
865337	9.654182e-001	-4.324714e+000
868080	9.635535e-001	-4.373896e+000
870823	9.644343e-001	-4.270477e+000
873566	9.655153e-001	-4.234754e+000
876309	9.652456e-001	-4.241323e+000
879052	9.651860e-001	-4.299979e+000
881796	9.671215e-001	-4.217073e+000
884539	9.674005e-001	-4.331703e+000
887282	9.677441e-001	-4.257439e+000
890025	9.685444e-001	-4.292656e+000
892768	9.697255e-001	-4.399363e+000
895511	9.685920e-001	-4.358565e+000
898254	9.701389e-001	-4.471053e+000
900998	9.711673e-001	-4.471540e+000
903741	9.700258e-001	-4.538638e+000
906484	9.704315e-001	-4.514250e+000
909227	9.704226e-001	-4.504911e+000
911970	9.710871e-001	-4.677878e+000
914713	9.718661e-001	-4.655520e+000
917456	9.707751e-001	-4.615426e+000
920200	9.698171e-001	-4.690083e+000
922943	9.722753e-001	-4.602194e+000
925686	9.714412e-001	-4.777586e+000
928429	9.722611e-001	-4.682231e+000
931172	9.699377e-001	-4.772711e+000
933915	9.712952e-001	-4.726577e+000
936658	9.706279e-001	-4.869525e+000
939401	9.710772e-001	-4.807551e+000
942145	9.717615e-001	-4.899271e+000
944888	9.712727e-001	-4.930322e+000
947631	9.702964e-001	-5.020558e+000
950374	9.716743e-001	-4.907471e+000
953117	9.710741e-001	-5.079964e+000
955860	9.702938e-001	-5.038362e+000
958603	9.693184e-001	-5.077018e+000
961347	9.713300e-001	-5.079692e+000
964090	9.700892e-001	-5.103379e+000
966833	9.699676e-001	-5.071005e+000
969576	9.689269e-001	-5.141615e+000
972319	9.685934e-001	-5.200760e+000
975062	9.678489e-001	-5.240329e+000
977805	9.687623e-001	-5.176186e+000
980549	9.686553e-001	-5.298863e+000
983292	9.663841e-001	-5.236420e+000
986035	9.686125e-001	-5.305061e+000
988778	9.654196e-001	-5.393206e+000
991521	9.670946e-001	-5.307817e+000
994264	9.654391e-001	-5.399927e+000
997007	9.673651e-001	-5.433482e+000
999751	9.650711e-001	-5.354504e+000
1002494	9.647619e-001	-5.428146e+000
1005237	9.645645e-001	-5.357573e+000
1007980	9.654461e-001	-5.407665e+000
1010723	9.651944e-001	-5.337485e+000
1013466	9.636807e-001	-5.355497e+000
1016209	9.640777e-001	-5.445095e+000
1018953	9.628829e-001	-5.325219e+000
1021696	9.620253e-001	-5.248997e+000
1024439	9.617176e-001	-5.264535e+000
1027182	9.634006e-001	-5.303341e+000
1029925	9.640572e-001	-5.344438e+000
1032668	9.619602e-001	-5.240001e+000
1035411	9.631457e-001	-5.360379e+000
1038155	9.654644e-001	-5.273759e+000
1040898	9.650679e-001	-5.322016e+000
1043641	9.634462e-001	-5.211335e+000
1046384	9.637079e-001	-5.288203e+000
1049127	9.641573e-001	-5.316079e+000
1051870	9.646443e-001	-5.329911e+000
1054613	9.665030e-001	-5.297531e+000
1057357	9.652408e-001	-5.374847e+000
1060100	9.660482e-001	-5.372723e+000
1062843	9.651615e-001	-5.226401e+000
1065586	9.645126e-001	-5.344281e+000
1068329	9.669704e-001	-5.247905e+000
1071072	9.665687e-001	-5.350156e+000
1073815	9.653023e-001	-5.341643e+000
1076559	9.680064e-001	-5.464675e+000
1079302	9.683722e-001	-5.469229e+000
1082045	9.677300e-001	-5.503426e+000
1084788	9.671177e-001	-5.433875e+000
1087531	9.680940e-001	-5.462666e+000
1090274	9.662296e-001	-5.493645e+000
1093017	9.678951e-001	-5.480215e+000
1095761	9.671073e-001	-5.534249e+000
1098504	9.675195e-001	-5.543029e+000
1101247	9.678253e-001	-5.579218e+000
1103990	9.683387e-001	-5.578136e+000
1106733	9.697042e-001	-5.621530e+000
1109476	9.688889e-001	-5.508702e+000
1112219	9.682872e-001	-5.671739e+000
1114963	9.685199e-001	-5.605898e+000
1117706	9.686068e-001	-5.706168e+000
1120449	9.658739e-001	-5.671686e+000
1123192	9.678208e-001	-5.773754e+000
1125935	9.676364e-001	-5.795695e+000
1128678	9.678745e-001	-5.746153e+000
1131421	9.692959e-001	-5.778242e+000
1134165	9.680231e-001	-5.868174e+000
1136908	9.695052e-001	-5.859283e+000
1139651	9.673568e-001	-5.773753e+000
1142394	9.670221e-001	-5.855610e+000
1145137	9.678712e-001	-5.940843e+000
1147880	9.680066e-001	-5.874965e+000
1150623	9.689241e-001	-5.904535e+000
1153367	9.664331e-001	-5.861137e+000
1156110	9.677235e-001	-5.865309e+000
1158853	9.666697e-001	-5.869600e+000
1161596	9.675418e-001	-5.984205e+000
1164339	9.678613e-001	-5.916776e+000
1167082	9.678058e-001	-5.974872e+000
1169825	9.680766e-001	-6.043314e+000
1172569	9.674624e-001	-6.103048e+000
1175312	9.696366e-001	-6.103636e+000
1178055	9.679761e-001	-6.063941e+000
1180798	9.678186e-001	-6.156714e+000
1183541	9.680398e-001	-6.080793e+000
1186284	9.677225e-001	-6.158513e+000
1189027	9.681172e-001	-6.146275e+000
1191771	9.670959e-001	-6.067235e+000
1194514	9.670244e-001	-6.285981e+000
1197257	9.662352e-001	-6.197744e+000
1200000	9.686214e-001	-6.151625e+000
