!Agilent Technologies,E5071C,MY46100265,A.07.02
!Date: Wed Mar 04 14:57:00 2020
!Data & Calibration Information:
!Freq	S11:SOLT1(ON)
# Hz S MA R 50
100000	9.800962e-001	-2.439053e+000
102743	9.804292e-001	-2.057823e+000
105486	9.817132e-001	-2.439075e+000
108229	9.794569e-001	-2.481523e+000
110973	9.796846e-001	-2.642448e+000
113716	9.818233e-001	-2.833937e+000
116459	9.792966e-001	-3.104397e+000
119202	9.758998e-001	-3.144752e+000
121945	9.764625e-001	-3.354033e+000
124688	9.762148e-001	-3.598636e+000
127431	9.763964e-001	-3.707319e+000
130175	9.768733e-001	-4.070233e+000
132918	9.866634e-001	-4.923142e+000
135661	9.819952e-001	-5.428954e+000
138404	9.729162e-001	-6.125716e+000
141147	9.627361e-001	-6.887027e+000
143890	9.531252e-001	-7.916096e+000
146633	9.393923e-001	-9.320158e+000
149377	9.099460e-001	-1.106680e+001
152120	8.569828e-001	-1.333302e+001
154863	7.607275e-001	-1.467231e+001
157606	6.135777e-001	-9.257279e+000
160349	5.820375e-001	1.298145e+001
163092	8.540682e-001	2.172744e+001
165835	1.014304e+000	9.344560e+000
168579	9.300900e-001	5.699624e+000
171322	9.744848e-001	4.984849e+000
174065	9.609089e-001	4.409790e+000
176808	9.606103e-001	3.250403e+000
179551	9.646240e-001	2.664650e+000
182294	9.634313e-001	2.510042e+000
185037	9.689455e-001	2.321649e+000
187781	9.730719e-001	9.317218e-001
190524	9.729192e-001	1.717927e+000
193267	9.745438e-001	1.020373e+000
196010	9.747094e-001	9.463909e-001
198753	9.726257e-001	6.486687e-001
201496	9.742857e-001	4.096217e-001
204239	9.736392e-001	2.936578e-001
206983	9.735254e-001	7.610676e-002
209726	9.744483e-001	-1.240974e-003
212469	9.713092e-001	-2.299878e-001
215212	9.720485e-001	-3.368469e-001
217955	9.689019e-001	-5.936673e-001
220698	9.672535e-001	-8.163784e-001
223441	9.619195e-001	-9.105198e-001
226185	9.531262e-001	-8.994604e-001
228928	9.468566e-001	-4.290874e-001
231671	9.445955e-001	2.976769e-001
234414	9.570509e-001	8.032550e-001
237157	9.681592e-001	4.112695e-001
239900	9.711185e-001	1.660604e-001
242643	9.710657e-001	-1.104878e-001
245387	9.717722e-001	-2.266423e-001
248130	9.691776e-001	-4.886450e-001
250873	9.674523e-001	-5.227083e-001
253616	9.654770e-001	-5.163424e-001
256359	9.646301e-001	-3.146726e-001
259102	9.696292e-001	-4.020998e-001
261845	9.715107e-001	-5.484024e-001
264589	9.710618e-001	-8.457678e-001
267332	9.674281e-001	-8.346144e-001
270075	9.678416e-001	-8.427398e-001
272818	9.644704e-001	-8.671765e-001
275561	9.655726e-001	-8.507901e-001
278304	9.681444e-001	-6.849651e-001
281047	9.682886e-001	-9.279358e-001
283791	9.668931e-001	-1.110430e+000
286534	9.668935e-001	-1.028210e+000
289277	9.656864e-001	-9.845862e-001
292020	9.649808e-001	-1.090380e+000
294763	9.651448e-001	-1.045646e+000
297506	9.651588e-001	-9.934513e-001
300249	9.639880e-001	-1.032679e+000
302993	9.660438e-001	-1.142603e+000
305736	9.671623e-001	-1.197228e+000
308479	9.649481e-001	-1.243577e+000
311222	9.658280e-001	-1.413459e+000
313965	9.664902e-001	-1.517704e+000
316708	9.631240e-001	-1.744619e+000
319451	9.605050e-001	-1.796638e+000
322195	9.549288e-001	-1.877813e+000
324938	9.509386e-001	-1.838317e+000
327681	9.458697e-001	-1.599066e+000
330424	9.437813e-001	-1.308549e+000
333167	9.453514e-001	-9.090393e-001
335910	9.481948e-001	-7.960319e-001
338653	9.516079e-001	-8.504685e-001
341397	9.520012e-001	-7.566777e-001
344140	9.523462e-001	-8.606698e-001
346883	9.533997e-001	-7.564376e-001
349626	9.506901e-001	-8.783003e-001
352369	9.512555e-001	-6.410862e-001
355112	9.539294e-001	-4.426398e-001
357855	9.556623e-001	-4.007641e-001
360599	9.580294e-001	-4.206803e-001
363342	9.584833e-001	-4.814229e-001
366085	9.603650e-001	-3.966942e-001
368828	9.623061e-001	-4.231652e-001
371571	9.651966e-001	-6.205826e-001
374314	9.634435e-001	-6.347721e-001
377057	9.647025e-001	-5.117582e-001
379800	9.641552e-001	-7.102273e-001
382544	9.662718e-001	-7.519790e-001
385287	9.665148e-001	-7.949677e-001
388030	9.658643e-001	-8.018881e-001
390773	9.681627e-001	-8.806006e-001
393516	9.680493e-001	-8.403878e-001
396259	9.673259e-001	-1.040888e+000
399002	9.699654e-001	-1.056860e+000
401746	9.659631e-001	-1.139708e+000
404489	9.692325e-001	-1.093275e+000
407232	9.669771e-001	-9.592826e-001
409975	9.667134e-001	-1.109213e+000
412718	9.670240e-001	-1.113830e+000
415461	9.665789e-001	-1.157196e+000
418204	9.664278e-001	-1.068437e+000
420948	9.658051e-001	-1.087213e+000
423691	9.653035e-001	-1.106779e+000
426434	9.695986e-001	-1.125678e+000
429177	9.691138e-001	-1.126138e+000
431920	9.687997e-001	-1.135380e+000
434663	9.692695e-001	-1.234545e+000
437406	9.708729e-001	-1.227025e+000
440150	9.686683e-001	-1.317712e+000
442893	9.706826e-001	-1.338654e+000
445636	9.690222e-001	-1.408203e+000
448379	9.701433e-001	-1.445739e+000
451122	9.681280e-001	-1.475015e+000
453865	9.680814e-001	-1.553610e+000
456608	9.674214e-001	-1.431901e+000
459352	9.663022e-001	-1.477458e+000
462095	9.676957e-001	-1.441226e+000
464838	9.689493e-001	-1.521826e+000
467581	9.669972e-001	-1.571696e+000
470324	9.681371e-001	-1.547948e+000
473067	9.701376e-001	-1.418500e+000
475810	9.687813e-001	-1.564590e+000
478554	9.705764e-001	-1.527911e+000
481297	9.692563e-001	-1.532203e+000
484040	9.693685e-001	-1.649023e+000
486783	9.694971e-001	-1.562184e+000
489526	9.716119e-001	-1.631228e+000
492269	9.680355e-001	-1.643371e+000
495012	9.703764e-001	-1.663998e+000
497756	9.696179e-001	-1.596348e+000
500499	9.711425e-001	-1.764275e+000
503242	9.714994e-001	-1.811780e+000
505985	9.709194e-001	-1.865047e+000
508728	9.709003e-001	-1.769915e+000
511471	9.707111e-001	-1.878718e+000
514214	9.715061e-001	-1.884672e+000
516958	9.704550e-001	-2.061485e+000
519701	9.719897e-001	-1.996921e+000
522444	9.698781e-001	-2.103748e+000
525187	9.713247e-001	-2.126774e+000
527930	9.688006e-001	-2.141530e+000
530673	9.699196e-001	-2.196420e+000
533416	9.680953e-001	-2.115970e+000
536160	9.684915e-001	-2.179168e+000
538903	9.687171e-001	-2.139032e+000
541646	9.690489e-001	-2.243018e+000
544389	9.693162e-001	-2.252286e+000
547132	9.673564e-001	-2.351306e+000
549875	9.706492e-001	-2.321250e+000
552618	9.670886e-001	-2.360522e+000
555362	9.671933e-001	-2.462663e+000
558105	9.654480e-001	-2.398038e+000
560848	9.654241e-001	-2.404606e+000
563591	9.661084e-001	-2.542703e+000
566334	9.639132e-001	-2.578673e+000
569077	9.642924e-001	-2.529405e+000
571820	9.643382e-001	-2.549876e+000
574564	9.638186e-001	-2.604048e+000
577307	9.628978e-001	-2.554116e+000
580050	9.635060e-001	-2.485196e+000
582793	9.617652e-001	-2.457569e+000
585536	9.624846e-001	-2.515243e+000
588279	9.605473e-001	-2.525120e+000
591022	9.609432e-001	-2.497929e+000
593766	9.613216e-001	-2.513537e+000
596509	9.614473e-001	-2.487036e+000
599252	9.589463e-001	-2.478196e+000
601995	9.607599e-001	-2.579980e+000
604738	9.602803e-001	-2.458083e+000
607481	9.579416e-001	-2.499620e+000
610224	9.592081e-001	-2.557204e+000
612968	9.575711e-001	-2.613937e+000
615711	9.575903e-001	-2.518926e+000
618454	9.582929e-001	-2.500024e+000
621197	9.572488e-001	-2.526622e+000
623940	9.569358e-001	-2.485792e+000
626683	9.552706e-001	-2.480156e+000
629426	9.560538e-001	-2.581588e+000
632170	9.553097e-001	-2.566507e+000
634913	9.536203e-001	-2.529737e+000
637656	9.536763e-001	-2.492621e+000
640399	9.535833e-001	-2.395190e+000
643142	9.510977e-001	-2.313986e+000
645885	9.527669e-001	-2.214548e+000
648628	9.519636e-001	-2.209879e+000
651372	9.526037e-001	-2.114685e+000
654115	9.545362e-001	-2.089523e+000
656858	9.548870e-001	-1.989636e+000
659601	9.552400e-001	-2.082549e+000
662344	9.557628e-001	-2.102897e+000
665087	9.557938e-001	-2.048935e+000
667830	9.559988e-001	-2.070743e+000
670574	9.558493e-001	-2.003329e+000
673317	9.559823e-001	-2.021809e+000
676060	9.561923e-001	-1.914036e+000
678803	9.577464e-001	-1.902097e+000
681546	9.592975e-001	-1.973257e+000
684289	9.616936e-001	-1.919209e+000
687032	9.600828e-001	-1.909204e+000
689776	9.605208e-001	-1.849940e+000
692519	9.631307e-001	-1.982496e+000
695262	9.637275e-001	-1.956308e+000
698005	9.627593e-001	-1.998314e+000
700748	9.636026e-001	-1.944532e+000
703491	9.646405e-001	-2.121406e+000
706234	9.639207e-001	-2.075233e+000
708978	9.645753e-001	-2.107002e+000
711721	9.669660e-001	-2.179177e+000
714464	9.657329e-001	-2.196882e+000
717207	9.662724e-001	-2.167566e+000
719950	9.657921e-001	-2.231678e+000
722693	9.667021e-001	-2.337385e+000
725436	9.661842e-001	-2.209300e+000
728180	9.661495e-001	-2.311986e+000
730923	9.674035e-001	-2.326570e+000
733666	9.671404e-001	-2.356877e+000
736409	9.671081e-001	-2.265149e+000
739152	9.661650e-001	-2.300163e+000
741895	9.666596e-001	-2.440152e+000
744638	9.676071e-001	-2.410431e+000
747382	9.681078e-001	-2.412936e+000
750125	9.679218e-001	-2.406029e+000
752868	9.677705e-001	-2.434861e+000
755611	9.677399e-001	-2.472023e+000
758354	9.673447e-001	-2.475320e+000
761097	9.684529e-001	-2.628061e+000
763840	9.672855e-001	-2.581809e+000
766584	9.670537e-001	-2.757531e+000
769327	9.682168e-001	-2.624627e+000
772070	9.696599e-001	-2.763248e+000
774813	9.673643e-001	-2.743330e+000
777556	9.667108e-001	-2.744339e+000
780299	9.674162e-001	-2.851794e+000
783042	9.668422e-001	-2.712894e+000
785786	9.671860e-001	-2.853332e+000
788529	9.677854e-001	-2.810610e+000
791272	9.663790e-001	-2.820793e+000
794015	9.648874e-001	-2.865896e+000
796758	9.643475e-001	-2.818739e+000
799501	9.650628e-001	-2.826631e+000
802244	9.651574e-001	-2.868893e+000
804988	9.659073e-001	-2.907599e+000
807731	9.637563e-001	-2.778782e+000
810474	9.631711e-001	-2.779416e+000
813217	9.657033e-001	-2.867156e+000
815960	9.647345e-001	-2.721866e+000
818703	9.642651e-001	-2.856599e+000
821446	9.638091e-001	-2.863878e+000
824190	9.660339e-001	-2.707477e+000
826933	9.657680e-001	-2.810005e+000
829676	9.660743e-001	-2.884328e+000
832419	9.652568e-001	-2.892349e+000
835162	9.645728e-001	-2.893521e+000
837905	9.681899e-001	-2.826830e+000
840648	9.665210e-001	-2.901172e+000
843392	9.676282e-001	-2.888022e+000
846135	9.649724e-001	-2.868537e+000
848878	9.668326e-001	-2.903691e+000
851621	9.649127e-001	-2.973719e+000
854364	9.671733e-001	-2.911425e+000
857107	9.661382e-001	-2.920218e+000
859850	9.670297e-001	-2.995893e+000
862594	9.680308e-001	-2.931947e+000
865337	9.661626e-001	-3.004609e+000
868080	9.659854e-001	-2.968618e+000
870823	9.661497e-001	-2.968574e+000
873566	9.671496e-001	-3.051347e+000
876309	9.689063e-001	-2.983635e+000
879052	9.671235e-001	-3.099640e+000
881796	9.676241e-001	-3.022662e+000
884539	9.664543e-001	-3.000514e+000
887282	9.685976e-001	-2.983218e+000
890025	9.664077e-001	-3.111843e+000
892768	9.680216e-001	-3.107624e+000
895511	9.669128e-001	-3.022512e+000
898254	9.695127e-001	-3.074376e+000
900998	9.675556e-001	-3.107291e+000
903741	9.676386e-001	-3.165715e+000
906484	9.669547e-001	-3.097784e+000
909227	9.663658e-001	-3.121403e+000
911970	9.693026e-001	-3.120653e+000
914713	9.679037e-001	-3.214302e+000
917456	9.673021e-001	-3.181135e+000
920200	9.678618e-001	-3.157031e+000
922943	9.683216e-001	-3.152521e+000
925686	9.669230e-001	-3.244627e+000
928429	9.695274e-001	-3.269713e+000
931172	9.679124e-001	-3.171673e+000
933915	9.690872e-001	-3.182835e+000
936658	9.696343e-001	-3.302816e+000
939401	9.705653e-001	-3.288899e+000
942145	9.711521e-001	-3.311808e+000
944888	9.693703e-001	-3.274770e+000
947631	9.684317e-001	-3.405796e+000
950374	9.714048e-001	-3.310435e+000
953117	9.710002e-001	-3.459428e+000
955860	9.699671e-001	-3.486432e+000
958603	9.696745e-001	-3.469973e+000
961347	9.705006e-001	-3.385536e+000
964090	9.709981e-001	-3.417299e+000
966833	9.708017e-001	-3.472615e+000
969576	9.705378e-001	-3.563639e+000
972319	9.704108e-001	-3.448067e+000
975062	9.703498e-001	-3.522826e+000
977805	9.713267e-001	-3.533905e+000
980549	9.705477e-001	-3.615713e+000
983292	9.691826e-001	-3.610852e+000
986035	9.702365e-001	-3.594479e+000
988778	9.706667e-001	-3.781206e+000
991521	9.709258e-001	-3.633797e+000
994264	9.699649e-001	-3.711701e+000
997007	9.710081e-001	-3.802724e+000
999751	9.700362e-001	-3.676284e+000
1002494	9.702721e-001	-3.696620e+000
1005237	9.696316e-001	-3.833822e+000
1007980	9.701069e-001	-3.774839e+000
1010723	9.709993e-001	-3.787914e+000
1013466	9.703606e-001	-3.832025e+000
1016209	9.703628e-001	-3.946207e+000
1018953	9.686639e-001	-3.927070e+000
1021696	9.666141e-001	-3.766775e+000
1024439	9.692710e-001	-3.827723e+000
1027182	9.694077e-001	-3.964458e+000
1029925	9.695741e-001	-3.835264e+000
1032668	9.681630e-001	-3.855202e+000
1035411	9.692718e-001	-3.894477e+000
1038155	9.702992e-001	-3.939292e+000
1040898	9.694879e-001	-3.955323e+000
1043641	9.677544e-001	-3.880019e+000
1046384	9.684638e-001	-3.922158e+000
1049127	9.692080e-001	-3.951246e+000
1051870	9.687835e-001	-4.060434e+000
1054613	9.688443e-001	-3.957131e+000
1057357	9.706170e-001	-4.079249e+000
1060100	9.694645e-001	-4.099036e+000
1062843	9.687769e-001	-3.942820e+000
1065586	9.680635e-001	-4.034046e+000
1068329	9.679628e-001	-3.983145e+000
1071072	9.672976e-001	-3.961601e+000
1073815	9.682882e-001	-4.018365e+000
1076559	9.689990e-001	-4.092108e+000
1079302	9.680049e-001	-4.038533e+000
1082045	9.696457e-001	-4.063974e+000
1084788	9.685467e-001	-4.105645e+000
1087531	9.679517e-001	-4.138640e+000
1090274	9.678555e-001	-4.164255e+000
1093017	9.696986e-001	-4.144057e+000
1095761	9.691721e-001	-4.107901e+000
1098504	9.677384e-001	-4.142123e+000
1101247	9.679185e-001	-4.040920e+000
1103990	9.696739e-001	-4.190717e+000
1106733	9.694724e-001	-4.200967e+000
1109476	9.706233e-001	-4.055438e+000
1112219	9.698610e-001	-4.280177e+000
1114963	9.698703e-001	-4.147480e+000
1117706	9.711198e-001	-4.260078e+000
1120449	9.678518e-001	-4.156802e+000
1123192	9.680996e-001	-4.366756e+000
1125935	9.693530e-001	-4.296491e+000
1128678	9.681616e-001	-4.249968e+000
1131421	9.703423e-001	-4.344088e+000
1134165	9.698202e-001	-4.309723e+000
1136908	9.703754e-001	-4.398751e+000
1139651	9.690964e-001	-4.244219e+000
1142394	9.695679e-001	-4.390058e+000
1145137	9.692090e-001	-4.465392e+000
1147880	9.702967e-001	-4.370262e+000
1150623	9.699127e-001	-4.462863e+000
1153367	9.684630e-001	-4.496298e+000
1156110	9.684985e-001	-4.364190e+000
1158853	9.677037e-001	-4.408853e+000
1161596	9.693521e-001	-4.523460e+000
1164339	9.690271e-001	-4.500130e+000
1167082	9.683157e-001	-4.503585e+000
1169825	9.677868e-001	-4.588117e+000
1172569	9.679515e-001	-4.608891e+000
1175312	9.698826e-001	-4.556536e+000
1178055	9.673453e-001	-4.515995e+000
1180798	9.689313e-001	-4.571273e+000
1183541	9.690195e-001	-4.603495e+000
1186284	9.681310e-001	-4.578119e+000
1189027	9.674859e-001	-4.629756e+000
1191771	9.697789e-001	-4.608943e+000
1194514	9.670714e-001	-4.638037e+000
1197257	9.672998e-001	-4.763329e+000
1200000	9.674398e-001	-4.706538e+000
