!Agilent Technologies,E5071C,MY46100265,A.07.02
!Date: Wed Mar 04 14:56:37 2020
!Data & Calibration Information:
!Freq	S11:SOLT1(ON)
# Hz S MA R 50
100000	9.790974e-001	-2.377938e+000
102743	9.789122e-001	-2.177662e+000
105486	9.809716e-001	-2.435812e+000
108229	9.805928e-001	-2.552143e+000
110973	9.794896e-001	-2.659833e+000
113716	9.809649e-001	-2.826933e+000
116459	9.778598e-001	-3.143013e+000
119202	9.762596e-001	-3.252854e+000
121945	9.751836e-001	-3.355916e+000
124688	9.751754e-001	-3.636829e+000
127431	9.750055e-001	-3.703554e+000
130175	9.742373e-001	-4.165326e+000
132918	9.795691e-001	-5.086632e+000
135661	9.758118e-001	-5.501228e+000
138404	9.683827e-001	-6.238556e+000
141147	9.611780e-001	-6.929859e+000
143890	9.482129e-001	-8.016571e+000
146633	9.295038e-001	-9.272928e+000
149377	8.975271e-001	-1.101983e+001
152120	8.364940e-001	-1.252143e+001
154863	7.380979e-001	-1.237375e+001
157606	6.271253e-001	-4.075055e+000
160349	6.608431e-001	1.344047e+001
163092	8.850440e-001	1.598463e+001
165835	9.630860e-001	7.394597e+000
168579	9.336307e-001	5.928613e+000
171322	9.586839e-001	4.492005e+000
174065	9.548351e-001	4.116719e+000
176808	9.558945e-001	2.992404e+000
179551	9.618459e-001	2.653929e+000
182294	9.624633e-001	2.315500e+000
185037	9.621711e-001	2.018220e+000
187781	9.697706e-001	1.120933e+000
190524	9.736131e-001	1.425836e+000
193267	9.709574e-001	9.334426e-001
196010	9.755588e-001	8.903960e-001
198753	9.714200e-001	6.157471e-001
201496	9.718864e-001	5.037219e-001
204239	9.697817e-001	4.430723e-001
206983	9.718743e-001	2.724884e-001
209726	9.739917e-001	1.865012e-002
212469	9.694978e-001	-2.553734e-001
215212	9.737463e-001	-3.479075e-001
217955	9.671435e-001	-5.932135e-001
220698	9.660654e-001	-8.387349e-001
223441	9.623857e-001	-8.583162e-001
226185	9.547186e-001	-8.089465e-001
228928	9.469759e-001	-3.327293e-001
231671	9.477310e-001	2.523163e-001
234414	9.588013e-001	5.971447e-001
237157	9.667895e-001	2.608671e-001
239900	9.698650e-001	7.801807e-002
242643	9.691141e-001	-1.378889e-001
245387	9.714414e-001	-3.438758e-001
248130	9.686773e-001	-5.889716e-001
250873	9.672796e-001	-4.622099e-001
253616	9.671727e-001	-4.768460e-001
256359	9.661095e-001	-4.429847e-001
259102	9.689801e-001	-6.016131e-001
261845	9.682775e-001	-5.791109e-001
264589	9.689421e-001	-7.954329e-001
267332	9.655280e-001	-8.731288e-001
270075	9.664048e-001	-9.554111e-001
272818	9.649848e-001	-7.997282e-001
275561	9.678762e-001	-8.655607e-001
278304	9.676791e-001	-8.270266e-001
281047	9.669165e-001	-9.476366e-001
283791	9.677454e-001	-9.695003e-001
286534	9.666214e-001	-1.099957e+000
289277	9.652979e-001	-1.011667e+000
292020	9.651941e-001	-1.139211e+000
294763	9.646482e-001	-1.064998e+000
297506	9.637123e-001	-1.095545e+000
300249	9.638906e-001	-1.111575e+000
302993	9.641127e-001	-1.168429e+000
305736	9.650805e-001	-1.320661e+000
308479	9.642895e-001	-1.421762e+000
311222	9.633044e-001	-1.521164e+000
313965	9.650590e-001	-1.505888e+000
316708	9.601863e-001	-1.691630e+000
319451	9.572048e-001	-1.751622e+000
322195	9.499391e-001	-1.795019e+000
324938	9.484301e-001	-1.626569e+000
327681	9.452855e-001	-1.362681e+000
330424	9.434629e-001	-1.129762e+000
333167	9.479677e-001	-9.269067e-001
335910	9.501998e-001	-8.147472e-001
338653	9.519313e-001	-8.103635e-001
341397	9.515751e-001	-7.716078e-001
344140	9.521726e-001	-7.753818e-001
346883	9.526143e-001	-7.669592e-001
349626	9.533986e-001	-7.197564e-001
352369	9.522038e-001	-6.975514e-001
355112	9.550291e-001	-5.097934e-001
357855	9.557172e-001	-4.644341e-001
360599	9.591165e-001	-5.566400e-001
363342	9.584148e-001	-5.461686e-001
366085	9.597664e-001	-4.941563e-001
368828	9.623180e-001	-5.232691e-001
371571	9.628864e-001	-6.099155e-001
374314	9.635540e-001	-6.187435e-001
377057	9.639123e-001	-6.037627e-001
379800	9.626913e-001	-7.133842e-001
382544	9.653326e-001	-7.636060e-001
385287	9.650222e-001	-8.333883e-001
388030	9.651787e-001	-7.807040e-001
390773	9.674667e-001	-9.287351e-001
393516	9.676572e-001	-9.096584e-001
396259	9.664576e-001	-9.428296e-001
399002	9.683468e-001	-1.023938e+000
401746	9.650011e-001	-1.149953e+000
404489	9.685095e-001	-1.140253e+000
407232	9.663521e-001	-1.112910e+000
409975	9.645261e-001	-1.128948e+000
412718	9.660348e-001	-1.087186e+000
415461	9.668208e-001	-1.151217e+000
418204	9.648536e-001	-1.032711e+000
420948	9.660446e-001	-1.085351e+000
423691	9.660631e-001	-1.133645e+000
426434	9.689054e-001	-1.209982e+000
429177	9.685191e-001	-1.145084e+000
431920	9.672972e-001	-1.192713e+000
434663	9.679207e-001	-1.179773e+000
437406	9.704155e-001	-1.246382e+000
440150	9.674796e-001	-1.327480e+000
442893	9.712638e-001	-1.349132e+000
445636	9.684096e-001	-1.390838e+000
448379	9.692763e-001	-1.557709e+000
451122	9.685862e-001	-1.576573e+000
453865	9.658964e-001	-1.509458e+000
456608	9.662730e-001	-1.475995e+000
459352	9.669298e-001	-1.461503e+000
462095	9.667870e-001	-1.499595e+000
464838	9.698603e-001	-1.560892e+000
467581	9.680265e-001	-1.549119e+000
470324	9.679184e-001	-1.487155e+000
473067	9.689449e-001	-1.514201e+000
475810	9.688364e-001	-1.601176e+000
478554	9.691989e-001	-1.542825e+000
481297	9.682209e-001	-1.648277e+000
484040	9.688085e-001	-1.636965e+000
486783	9.705037e-001	-1.604150e+000
489526	9.701264e-001	-1.658664e+000
492269	9.683869e-001	-1.615945e+000
495012	9.686028e-001	-1.760376e+000
497756	9.695306e-001	-1.650158e+000
500499	9.712859e-001	-1.716255e+000
503242	9.707353e-001	-1.733289e+000
505985	9.713553e-001	-1.849941e+000
508728	9.697540e-001	-1.849587e+000
511471	9.712449e-001	-1.958350e+000
514214	9.720579e-001	-1.972926e+000
516958	9.695975e-001	-2.069427e+000
519701	9.716925e-001	-1.992769e+000
522444	9.682367e-001	-2.080644e+000
525187	9.702079e-001	-2.178476e+000
527930	9.686429e-001	-2.117255e+000
530673	9.696381e-001	-2.221736e+000
533416	9.684875e-001	-2.125683e+000
536160	9.680537e-001	-2.108275e+000
538903	9.688575e-001	-2.143154e+000
541646	9.683598e-001	-2.154665e+000
544389	9.689618e-001	-2.213572e+000
547132	9.681225e-001	-2.333318e+000
549875	9.691239e-001	-2.276429e+000
552618	9.668447e-001	-2.355151e+000
555362	9.665134e-001	-2.496687e+000
558105	9.659230e-001	-2.321223e+000
560848	9.635572e-001	-2.433502e+000
563591	9.653917e-001	-2.517515e+000
566334	9.653791e-001	-2.476941e+000
569077	9.641662e-001	-2.558415e+000
571820	9.631649e-001	-2.517013e+000
574564	9.642685e-001	-2.474415e+000
577307	9.628891e-001	-2.547052e+000
580050	9.628250e-001	-2.481092e+000
582793	9.613473e-001	-2.437074e+000
585536	9.620911e-001	-2.507469e+000
588279	9.607957e-001	-2.546930e+000
591022	9.611059e-001	-2.589315e+000
593766	9.600527e-001	-2.507724e+000
596509	9.595360e-001	-2.539833e+000
599252	9.583552e-001	-2.539888e+000
601995	9.591690e-001	-2.610715e+000
604738	9.581501e-001	-2.390611e+000
607481	9.560295e-001	-2.547610e+000
610224	9.568444e-001	-2.516579e+000
612968	9.565893e-001	-2.582586e+000
615711	9.577717e-001	-2.558257e+000
618454	9.568673e-001	-2.551707e+000
621197	9.549714e-001	-2.507919e+000
623940	9.565745e-001	-2.477554e+000
626683	9.546846e-001	-2.489352e+000
629426	9.537563e-001	-2.505271e+000
632170	9.542042e-001	-2.488289e+000
634913	9.524865e-001	-2.484110e+000
637656	9.528425e-001	-2.393261e+000
640399	9.527668e-001	-2.291346e+000
643142	9.507140e-001	-2.207831e+000
645885	9.530586e-001	-2.134209e+000
648628	9.542148e-001	-2.045748e+000
651372	9.553812e-001	-2.115789e+000
654115	9.546288e-001	-2.076578e+000
656858	9.547971e-001	-2.127307e+000
659601	9.548079e-001	-2.149276e+000
662344	9.550357e-001	-2.096017e+000
665087	9.560115e-001	-2.062063e+000
667830	9.564910e-001	-2.057768e+000
670574	9.562866e-001	-1.931059e+000
673317	9.577649e-001	-1.977977e+000
676060	9.570829e-001	-1.925851e+000
678803	9.591879e-001	-1.980967e+000
681546	9.597315e-001	-1.956075e+000
684289	9.612567e-001	-1.944923e+000
687032	9.616922e-001	-2.008985e+000
689776	9.612103e-001	-1.983445e+000
692519	9.633177e-001	-2.005438e+000
695262	9.624503e-001	-1.984596e+000
698005	9.614206e-001	-2.063089e+000
700748	9.635102e-001	-2.054494e+000
703491	9.642841e-001	-2.119471e+000
706234	9.654884e-001	-2.072205e+000
708978	9.643364e-001	-2.097262e+000
711721	9.659803e-001	-2.062368e+000
714464	9.656522e-001	-2.221829e+000
717207	9.656729e-001	-2.264815e+000
719950	9.654308e-001	-2.231408e+000
722693	9.654351e-001	-2.266784e+000
725436	9.651017e-001	-2.212726e+000
728180	9.661184e-001	-2.302780e+000
730923	9.670958e-001	-2.387719e+000
733666	9.670072e-001	-2.348655e+000
736409	9.654403e-001	-2.395027e+000
739152	9.659754e-001	-2.288902e+000
741895	9.672361e-001	-2.491168e+000
744638	9.666548e-001	-2.419006e+000
747382	9.673403e-001	-2.480543e+000
750125	9.669361e-001	-2.480856e+000
752868	9.658570e-001	-2.511240e+000
755611	9.667567e-001	-2.441447e+000
758354	9.680243e-001	-2.469074e+000
761097	9.676935e-001	-2.657566e+000
763840	9.680211e-001	-2.570580e+000
766584	9.665098e-001	-2.779173e+000
769327	9.686120e-001	-2.588392e+000
772070	9.679398e-001	-2.705915e+000
774813	9.693749e-001	-2.688267e+000
777556	9.674411e-001	-2.686685e+000
780299	9.666105e-001	-2.854964e+000
783042	9.667886e-001	-2.759869e+000
785786	9.658723e-001	-2.798223e+000
788529	9.659957e-001	-2.819220e+000
791272	9.661466e-001	-2.855336e+000
794015	9.649899e-001	-2.807957e+000
796758	9.658115e-001	-2.812292e+000
799501	9.659340e-001	-2.851091e+000
802244	9.661632e-001	-2.870352e+000
804988	9.657127e-001	-2.858369e+000
807731	9.646312e-001	-2.869235e+000
810474	9.651706e-001	-2.850528e+000
813217	9.662268e-001	-2.892073e+000
815960	9.645218e-001	-2.891293e+000
818703	9.651100e-001	-2.852347e+000
821446	9.663379e-001	-2.877742e+000
824190	9.643963e-001	-2.840693e+000
826933	9.659248e-001	-2.708367e+000
829676	9.645697e-001	-2.870960e+000
832419	9.662510e-001	-2.915895e+000
835162	9.644756e-001	-2.879252e+000
837905	9.680870e-001	-2.893724e+000
840648	9.662319e-001	-2.796824e+000
843392	9.658045e-001	-2.921556e+000
846135	9.656622e-001	-2.947456e+000
848878	9.656998e-001	-2.921485e+000
851621	9.654683e-001	-3.057364e+000
854364	9.673971e-001	-2.993901e+000
857107	9.655218e-001	-2.967150e+000
859850	9.661969e-001	-2.996471e+000
862594	9.669983e-001	-2.972128e+000
865337	9.654039e-001	-3.034550e+000
868080	9.646009e-001	-3.017289e+000
870823	9.672985e-001	-3.067416e+000
873566	9.670793e-001	-3.003003e+000
876309	9.689936e-001	-3.063417e+000
879052	9.647294e-001	-3.093243e+000
881796	9.685615e-001	-2.958594e+000
884539	9.668609e-001	-3.076391e+000
887282	9.672929e-001	-3.052674e+000
890025	9.668513e-001	-3.131084e+000
892768	9.675997e-001	-3.096049e+000
895511	9.663978e-001	-3.096695e+000
898254	9.678092e-001	-3.111448e+000
900998	9.673772e-001	-3.151325e+000
903741	9.673273e-001	-3.170667e+000
906484	9.665545e-001	-3.149550e+000
909227	9.658388e-001	-3.060457e+000
911970	9.672072e-001	-3.163416e+000
914713	9.668287e-001	-3.290248e+000
917456	9.664311e-001	-3.214246e+000
920200	9.670875e-001	-3.219922e+000
922943	9.682271e-001	-3.197999e+000
925686	9.678863e-001	-3.302527e+000
928429	9.689930e-001	-3.210958e+000
931172	9.674079e-001	-3.190950e+000
933915	9.692889e-001	-3.214482e+000
936658	9.689428e-001	-3.399885e+000
939401	9.702771e-001	-3.189497e+000
942145	9.703834e-001	-3.296121e+000
944888	9.681954e-001	-3.390746e+000
947631	9.688453e-001	-3.407949e+000
950374	9.709827e-001	-3.348911e+000
953117	9.715643e-001	-3.449871e+000
955860	9.694542e-001	-3.369124e+000
958603	9.697654e-001	-3.534905e+000
961347	9.702125e-001	-3.401933e+000
964090	9.703662e-001	-3.456960e+000
966833	9.695666e-001	-3.476379e+000
969576	9.706677e-001	-3.515454e+000
972319	9.704752e-001	-3.494391e+000
975062	9.712892e-001	-3.545038e+000
977805	9.686471e-001	-3.577683e+000
980549	9.704996e-001	-3.558290e+000
983292	9.697734e-001	-3.629205e+000
986035	9.707620e-001	-3.638334e+000
988778	9.702872e-001	-3.729914e+000
991521	9.701207e-001	-3.612570e+000
994264	9.693571e-001	-3.663646e+000
997007	9.702731e-001	-3.826549e+000
999751	9.706408e-001	-3.769312e+000
1002494	9.704321e-001	-3.799999e+000
1005237	9.687139e-001	-3.832424e+000
1007980	9.707677e-001	-3.852095e+000
1010723	9.705329e-001	-3.805621e+000
1013466	9.689233e-001	-3.783642e+000
1016209	9.692924e-001	-3.963861e+000
1018953	9.681704e-001	-3.894471e+000
1021696	9.685076e-001	-3.846803e+000
1024439	9.679154e-001	-3.863045e+000
1027182	9.703043e-001	-3.905779e+000
1029925	9.686657e-001	-3.792447e+000
1032668	9.682048e-001	-3.890555e+000
1035411	9.682345e-001	-3.907075e+000
1038155	9.701042e-001	-3.904781e+000
1040898	9.696953e-001	-3.995626e+000
1043641	9.683855e-001	-3.881256e+000
1046384	9.686704e-001	-3.971898e+000
1049127	9.682309e-001	-3.978802e+000
1051870	9.681067e-001	-3.938752e+000
1054613	9.691258e-001	-3.933487e+000
1057357	9.690539e-001	-4.093502e+000
1060100	9.691624e-001	-4.122929e+000
1062843	9.690448e-001	-3.942522e+000
1065586	9.671344e-001	-4.060394e+000
1068329	9.679862e-001	-4.095663e+000
1071072	9.691537e-001	-4.067303e+000
1073815	9.673920e-001	-4.104998e+000
1076559	9.671939e-001	-4.157874e+000
1079302	9.690455e-001	-4.074856e+000
1082045	9.697515e-001	-4.080979e+000
1084788	9.690508e-001	-4.108216e+000
1087531	9.681025e-001	-4.152877e+000
1090274	9.680927e-001	-4.055045e+000
1093017	9.691936e-001	-4.097321e+000
1095761	9.692942e-001	-4.156887e+000
1098504	9.695355e-001	-4.138366e+000
1101247	9.685614e-001	-4.130114e+000
1103990	9.685605e-001	-4.169550e+000
1106733	9.696685e-001	-4.221705e+000
1109476	9.681326e-001	-4.085551e+000
1112219	9.694426e-001	-4.298572e+000
1114963	9.694296e-001	-4.204273e+000
1117706	9.698143e-001	-4.295807e+000
1120449	9.684815e-001	-4.158813e+000
1123192	9.682350e-001	-4.388190e+000
1125935	9.693919e-001	-4.317379e+000
1128678	9.684717e-001	-4.270152e+000
1131421	9.699648e-001	-4.257361e+000
1134165	9.698907e-001	-4.393129e+000
1136908	9.689292e-001	-4.348562e+000
1139651	9.685887e-001	-4.323984e+000
1142394	9.694286e-001	-4.431606e+000
1145137	9.680242e-001	-4.459852e+000
1147880	9.690351e-001	-4.378334e+000
1150623	9.694663e-001	-4.407195e+000
1153367	9.677781e-001	-4.470869e+000
1156110	9.693536e-001	-4.451132e+000
1158853	9.676998e-001	-4.418730e+000
1161596	9.688623e-001	-4.535188e+000
1164339	9.686418e-001	-4.510580e+000
1167082	9.683021e-001	-4.556252e+000
1169825	9.684649e-001	-4.523029e+000
1172569	9.672358e-001	-4.643810e+000
1175312	9.691754e-001	-4.621007e+000
1178055	9.675383e-001	-4.580143e+000
1180798	9.694470e-001	-4.548772e+000
1183541	9.682127e-001	-4.573449e+000
1186284	9.669005e-001	-4.665764e+000
1189027	9.684809e-001	-4.730782e+000
1191771	9.690394e-001	-4.566016e+000
1194514	9.674378e-001	-4.742053e+000
1197257	9.659039e-001	-4.772306e+000
1200000	9.687471e-001	-4.706953e+000
