!Agilent Technologies,E5071C,MY46100265,A.07.02
!Date: Wed Mar 04 14:56:50 2020
!Data & Calibration Information:
!Freq	S11:SOLT1(ON)
# Hz S MA R 50
100000	9.794116e-001	-2.408421e+000
102743	9.790775e-001	-2.113724e+000
105486	9.801660e-001	-2.402834e+000
108229	9.786014e-001	-2.405776e+000
110973	9.787822e-001	-2.575360e+000
113716	9.809092e-001	-2.791433e+000
116459	9.793974e-001	-3.084863e+000
119202	9.766942e-001	-3.199054e+000
121945	9.760005e-001	-3.367247e+000
124688	9.743769e-001	-3.622782e+000
127431	9.745353e-001	-3.769014e+000
130175	9.753807e-001	-4.083159e+000
132918	9.825298e-001	-4.929003e+000
135661	9.795651e-001	-5.547538e+000
138404	9.716758e-001	-6.163696e+000
141147	9.625475e-001	-6.868264e+000
143890	9.502396e-001	-7.947707e+000
146633	9.333334e-001	-9.307784e+000
149377	9.044372e-001	-1.100967e+001
152120	8.476420e-001	-1.303375e+001
154863	7.488669e-001	-1.365261e+001
157606	6.184129e-001	-6.738052e+000
160349	6.258939e-001	1.322993e+001
163092	8.690287e-001	1.858570e+001
165835	9.839357e-001	8.399923e+000
168579	9.329423e-001	5.765801e+000
171322	9.691544e-001	5.035796e+000
174065	9.504239e-001	4.500734e+000
176808	9.547883e-001	2.993907e+000
179551	9.628488e-001	2.498739e+000
182294	9.634997e-001	2.280804e+000
185037	9.634691e-001	2.214675e+000
187781	9.692750e-001	1.062461e+000
190524	9.736755e-001	1.616029e+000
193267	9.709846e-001	1.073363e+000
196010	9.757842e-001	7.807965e-001
198753	9.719185e-001	6.083391e-001
201496	9.743642e-001	4.192569e-001
204239	9.728165e-001	4.439519e-001
206983	9.734561e-001	1.507681e-001
209726	9.731566e-001	-2.476229e-003
212469	9.709362e-001	-3.705643e-001
215212	9.730116e-001	-3.507335e-001
217955	9.682966e-001	-5.300025e-001
220698	9.636268e-001	-8.190803e-001
223441	9.614381e-001	-8.241014e-001
226185	9.540321e-001	-7.921369e-001
228928	9.475651e-001	-5.085272e-001
231671	9.464682e-001	1.165668e-001
234414	9.582206e-001	5.849848e-001
237157	9.664184e-001	3.616795e-001
239900	9.699612e-001	1.024672e-001
242643	9.721734e-001	-1.312554e-001
245387	9.694013e-001	-2.676877e-001
248130	9.679969e-001	-5.407024e-001
250873	9.681182e-001	-4.249118e-001
253616	9.652910e-001	-5.764704e-001
256359	9.655119e-001	-4.546685e-001
259102	9.714246e-001	-4.706923e-001
261845	9.688304e-001	-5.367561e-001
264589	9.689710e-001	-7.769613e-001
267332	9.661207e-001	-8.521754e-001
270075	9.678527e-001	-8.831180e-001
272818	9.637653e-001	-9.144284e-001
275561	9.658593e-001	-8.399293e-001
278304	9.664589e-001	-8.528906e-001
281047	9.668617e-001	-9.167631e-001
283791	9.649213e-001	-9.546126e-001
286534	9.647591e-001	-9.895824e-001
289277	9.633389e-001	-9.794624e-001
292020	9.654736e-001	-1.096112e+000
294763	9.627211e-001	-1.017442e+000
297506	9.649287e-001	-1.065769e+000
300249	9.640030e-001	-1.072859e+000
302993	9.654460e-001	-1.170393e+000
305736	9.664879e-001	-1.225134e+000
308479	9.642209e-001	-1.248317e+000
311222	9.639929e-001	-1.423717e+000
313965	9.641731e-001	-1.607493e+000
316708	9.604923e-001	-1.732315e+000
319451	9.590011e-001	-1.840752e+000
322195	9.538211e-001	-1.823792e+000
324938	9.489238e-001	-1.755215e+000
327681	9.449393e-001	-1.492470e+000
330424	9.436649e-001	-1.260692e+000
333167	9.467567e-001	-9.608102e-001
335910	9.490733e-001	-8.208271e-001
338653	9.522378e-001	-7.807725e-001
341397	9.507217e-001	-7.404489e-001
344140	9.529449e-001	-8.256891e-001
346883	9.529880e-001	-7.676386e-001
349626	9.526482e-001	-7.408994e-001
352369	9.526798e-001	-6.515596e-001
355112	9.537861e-001	-5.109347e-001
357855	9.533485e-001	-4.335669e-001
360599	9.585712e-001	-4.869930e-001
363342	9.595504e-001	-5.627252e-001
366085	9.605768e-001	-4.492816e-001
368828	9.623857e-001	-5.079312e-001
371571	9.632099e-001	-6.366456e-001
374314	9.639447e-001	-5.421800e-001
377057	9.626290e-001	-5.362476e-001
379800	9.639707e-001	-6.530470e-001
382544	9.657936e-001	-8.043477e-001
385287	9.658559e-001	-7.568576e-001
388030	9.659788e-001	-7.116409e-001
390773	9.680274e-001	-8.522193e-001
393516	9.669655e-001	-9.496659e-001
396259	9.651169e-001	-1.044192e+000
399002	9.676302e-001	-1.087962e+000
401746	9.670084e-001	-1.190984e+000
404489	9.667876e-001	-1.130183e+000
407232	9.669315e-001	-1.067654e+000
409975	9.650845e-001	-1.183070e+000
412718	9.670812e-001	-1.122505e+000
415461	9.651600e-001	-1.139361e+000
418204	9.657999e-001	-1.064823e+000
420948	9.660740e-001	-1.101483e+000
423691	9.658679e-001	-1.145651e+000
426434	9.683715e-001	-1.114267e+000
429177	9.684101e-001	-1.251959e+000
431920	9.689760e-001	-1.205740e+000
434663	9.685599e-001	-1.182147e+000
437406	9.707992e-001	-1.237082e+000
440150	9.701569e-001	-1.346746e+000
442893	9.725480e-001	-1.380600e+000
445636	9.688288e-001	-1.363293e+000
448379	9.698153e-001	-1.408344e+000
451122	9.691896e-001	-1.559908e+000
453865	9.671449e-001	-1.557807e+000
456608	9.670739e-001	-1.482203e+000
459352	9.665369e-001	-1.554660e+000
462095	9.673272e-001	-1.405007e+000
464838	9.679840e-001	-1.498183e+000
467581	9.676164e-001	-1.512937e+000
470324	9.687080e-001	-1.480131e+000
473067	9.678244e-001	-1.503555e+000
475810	9.692170e-001	-1.622553e+000
478554	9.697172e-001	-1.542513e+000
481297	9.679824e-001	-1.558765e+000
484040	9.694665e-001	-1.632241e+000
486783	9.703384e-001	-1.475277e+000
489526	9.699378e-001	-1.668302e+000
492269	9.683875e-001	-1.580640e+000
495012	9.702374e-001	-1.773378e+000
497756	9.694906e-001	-1.597582e+000
500499	9.706838e-001	-1.711886e+000
503242	9.711746e-001	-1.819708e+000
505985	9.703391e-001	-1.816629e+000
508728	9.701529e-001	-1.811001e+000
511471	9.699340e-001	-1.909196e+000
514214	9.723200e-001	-1.929907e+000
516958	9.691002e-001	-2.050667e+000
519701	9.718459e-001	-2.053487e+000
522444	9.699483e-001	-2.081777e+000
525187	9.698712e-001	-2.141131e+000
527930	9.692520e-001	-2.130884e+000
530673	9.698603e-001	-2.196152e+000
533416	9.680134e-001	-2.086703e+000
536160	9.667062e-001	-2.169374e+000
538903	9.679706e-001	-2.126395e+000
541646	9.690490e-001	-2.214026e+000
544389	9.675731e-001	-2.200287e+000
547132	9.677567e-001	-2.319182e+000
549875	9.697064e-001	-2.347980e+000
552618	9.672877e-001	-2.377528e+000
555362	9.668277e-001	-2.487093e+000
558105	9.654687e-001	-2.421099e+000
560848	9.658504e-001	-2.415275e+000
563591	9.657222e-001	-2.511188e+000
566334	9.643005e-001	-2.522955e+000
569077	9.638594e-001	-2.508867e+000
571820	9.634992e-001	-2.555531e+000
574564	9.633287e-001	-2.527036e+000
577307	9.625914e-001	-2.408280e+000
580050	9.639649e-001	-2.531715e+000
582793	9.621730e-001	-2.456907e+000
585536	9.620329e-001	-2.476756e+000
588279	9.612279e-001	-2.584966e+000
591022	9.595962e-001	-2.528620e+000
593766	9.603359e-001	-2.585759e+000
596509	9.596461e-001	-2.500765e+000
599252	9.598472e-001	-2.536830e+000
601995	9.593133e-001	-2.628331e+000
604738	9.596465e-001	-2.518433e+000
607481	9.583974e-001	-2.551326e+000
610224	9.570656e-001	-2.550302e+000
612968	9.571859e-001	-2.545004e+000
615711	9.573594e-001	-2.554349e+000
618454	9.563734e-001	-2.555659e+000
621197	9.579918e-001	-2.509190e+000
623940	9.566106e-001	-2.413815e+000
626683	9.568135e-001	-2.420783e+000
629426	9.547574e-001	-2.519749e+000
632170	9.569855e-001	-2.576836e+000
634913	9.524636e-001	-2.524669e+000
637656	9.538231e-001	-2.430107e+000
640399	9.521168e-001	-2.379079e+000
643142	9.500503e-001	-2.269688e+000
645885	9.518421e-001	-2.200152e+000
648628	9.523593e-001	-2.184077e+000
651372	9.535049e-001	-2.097541e+000
654115	9.538590e-001	-1.995613e+000
656858	9.561142e-001	-2.144986e+000
659601	9.552644e-001	-2.040143e+000
662344	9.547093e-001	-2.049351e+000
665087	9.571072e-001	-1.952577e+000
667830	9.544370e-001	-2.050554e+000
670574	9.552885e-001	-1.970195e+000
673317	9.566286e-001	-2.058007e+000
676060	9.553208e-001	-1.827124e+000
678803	9.580606e-001	-1.916927e+000
681546	9.590930e-001	-1.910449e+000
684289	9.597831e-001	-1.899400e+000
687032	9.603408e-001	-1.913567e+000
689776	9.620294e-001	-1.921957e+000
692519	9.625660e-001	-2.030671e+000
695262	9.626656e-001	-1.971178e+000
698005	9.630805e-001	-1.955195e+000
700748	9.630952e-001	-2.051261e+000
703491	9.646603e-001	-2.035784e+000
706234	9.651995e-001	-2.067247e+000
708978	9.655740e-001	-2.103112e+000
711721	9.656081e-001	-2.158089e+000
714464	9.656707e-001	-2.212982e+000
717207	9.656526e-001	-2.231634e+000
719950	9.664028e-001	-2.240005e+000
722693	9.678769e-001	-2.310618e+000
725436	9.659333e-001	-2.207682e+000
728180	9.652484e-001	-2.287531e+000
730923	9.663663e-001	-2.335184e+000
733666	9.663859e-001	-2.310741e+000
736409	9.677031e-001	-2.302488e+000
739152	9.654177e-001	-2.383390e+000
741895	9.675574e-001	-2.468239e+000
744638	9.673111e-001	-2.372113e+000
747382	9.685230e-001	-2.497164e+000
750125	9.676273e-001	-2.315494e+000
752868	9.672536e-001	-2.438925e+000
755611	9.672122e-001	-2.471805e+000
758354	9.676616e-001	-2.473423e+000
761097	9.688733e-001	-2.669165e+000
763840	9.685509e-001	-2.625802e+000
766584	9.668599e-001	-2.793745e+000
769327	9.673792e-001	-2.569788e+000
772070	9.679447e-001	-2.745449e+000
774813	9.674777e-001	-2.668500e+000
777556	9.674647e-001	-2.683719e+000
780299	9.666935e-001	-2.869117e+000
783042	9.671410e-001	-2.665407e+000
785786	9.656397e-001	-2.810501e+000
788529	9.663890e-001	-2.863886e+000
791272	9.666799e-001	-2.734357e+000
794015	9.647108e-001	-2.863460e+000
796758	9.647092e-001	-2.766026e+000
799501	9.646483e-001	-2.860992e+000
802244	9.673669e-001	-2.830743e+000
804988	9.658423e-001	-2.819074e+000
807731	9.647403e-001	-2.843654e+000
810474	9.636008e-001	-2.856082e+000
813217	9.650543e-001	-2.836443e+000
815960	9.649518e-001	-2.782132e+000
818703	9.634894e-001	-2.752286e+000
821446	9.644612e-001	-2.838502e+000
824190	9.650052e-001	-2.762586e+000
826933	9.648385e-001	-2.741576e+000
829676	9.641348e-001	-2.813464e+000
832419	9.656466e-001	-2.885173e+000
835162	9.647269e-001	-2.854286e+000
837905	9.671275e-001	-2.743156e+000
840648	9.665839e-001	-2.957791e+000
843392	9.659246e-001	-2.936735e+000
846135	9.656989e-001	-2.924995e+000
848878	9.673049e-001	-2.937887e+000
851621	9.653893e-001	-3.002937e+000
854364	9.683031e-001	-2.860049e+000
857107	9.650952e-001	-2.989431e+000
859850	9.673944e-001	-3.018781e+000
862594	9.673531e-001	-2.886252e+000
865337	9.648705e-001	-2.989370e+000
868080	9.657155e-001	-3.008941e+000
870823	9.674573e-001	-2.973746e+000
873566	9.680335e-001	-2.980231e+000
876309	9.685597e-001	-3.059000e+000
879052	9.658474e-001	-3.039811e+000
881796	9.682030e-001	-2.976591e+000
884539	9.670513e-001	-3.076814e+000
887282	9.679063e-001	-3.026425e+000
890025	9.689386e-001	-3.039746e+000
892768	9.678986e-001	-3.052915e+000
895511	9.664108e-001	-3.110813e+000
898254	9.674382e-001	-3.151916e+000
900998	9.682233e-001	-3.110360e+000
903741	9.672039e-001	-3.150824e+000
906484	9.673404e-001	-3.207509e+000
909227	9.652460e-001	-3.130150e+000
911970	9.666274e-001	-3.171843e+000
914713	9.683600e-001	-3.172117e+000
917456	9.669440e-001	-3.162733e+000
920200	9.659762e-001	-3.180993e+000
922943	9.701696e-001	-3.119857e+000
925686	9.659352e-001	-3.203370e+000
928429	9.687457e-001	-3.239140e+000
931172	9.684060e-001	-3.119856e+000
933915	9.693040e-001	-3.267328e+000
936658	9.688786e-001	-3.263532e+000
939401	9.698594e-001	-3.296186e+000
942145	9.706012e-001	-3.202576e+000
944888	9.686737e-001	-3.260475e+000
947631	9.701671e-001	-3.439946e+000
950374	9.711284e-001	-3.307262e+000
953117	9.708875e-001	-3.421452e+000
955860	9.704628e-001	-3.353505e+000
958603	9.702837e-001	-3.392060e+000
961347	9.708159e-001	-3.421854e+000
964090	9.714539e-001	-3.459665e+000
966833	9.695495e-001	-3.481340e+000
969576	9.711600e-001	-3.541903e+000
972319	9.695026e-001	-3.531172e+000
975062	9.700626e-001	-3.562603e+000
977805	9.699155e-001	-3.546574e+000
980549	9.714609e-001	-3.611501e+000
983292	9.697531e-001	-3.647432e+000
986035	9.703171e-001	-3.574979e+000
988778	9.699753e-001	-3.685050e+000
991521	9.694047e-001	-3.625429e+000
994264	9.696167e-001	-3.751818e+000
997007	9.707286e-001	-3.733086e+000
999751	9.692192e-001	-3.722344e+000
1002494	9.688839e-001	-3.785571e+000
1005237	9.693866e-001	-3.768637e+000
1007980	9.699779e-001	-3.845495e+000
1010723	9.703725e-001	-3.822139e+000
1013466	9.708173e-001	-3.826003e+000
1016209	9.705473e-001	-3.889507e+000
1018953	9.698541e-001	-3.922125e+000
1021696	9.694977e-001	-3.828057e+000
1024439	9.680517e-001	-3.841390e+000
1027182	9.687847e-001	-3.893198e+000
1029925	9.686988e-001	-3.825981e+000
1032668	9.682979e-001	-3.881379e+000
1035411	9.695784e-001	-3.900818e+000
1038155	9.684281e-001	-3.898346e+000
1040898	9.701929e-001	-3.997205e+000
1043641	9.684947e-001	-3.859083e+000
1046384	9.689078e-001	-3.965370e+000
1049127	9.677336e-001	-3.930243e+000
1051870	9.682361e-001	-4.055916e+000
1054613	9.690001e-001	-3.924577e+000
1057357	9.689575e-001	-4.060747e+000
1060100	9.685616e-001	-4.045157e+000
1062843	9.674947e-001	-3.937982e+000
1065586	9.679657e-001	-4.060592e+000
1068329	9.692774e-001	-3.973367e+000
1071072	9.684486e-001	-3.939745e+000
1073815	9.665952e-001	-4.066578e+000
1076559	9.687849e-001	-4.117717e+000
1079302	9.692426e-001	-4.052030e+000
1082045	9.684018e-001	-4.124957e+000
1084788	9.677764e-001	-4.113713e+000
1087531	9.691745e-001	-4.086295e+000
1090274	9.680639e-001	-4.153663e+000
1093017	9.686869e-001	-4.119888e+000
1095761	9.691954e-001	-4.081511e+000
1098504	9.693384e-001	-4.096284e+000
1101247	9.687093e-001	-4.078031e+000
1103990	9.700365e-001	-4.174519e+000
1106733	9.689233e-001	-4.097559e+000
1109476	9.695709e-001	-4.091882e+000
1112219	9.690827e-001	-4.285916e+000
1114963	9.690455e-001	-4.114828e+000
1117706	9.708241e-001	-4.327099e+000
1120449	9.675665e-001	-4.240119e+000
1123192	9.676143e-001	-4.359350e+000
1125935	9.694439e-001	-4.311361e+000
1128678	9.695584e-001	-4.216845e+000
1131421	9.699696e-001	-4.281042e+000
1134165	9.690246e-001	-4.372093e+000
1136908	9.699972e-001	-4.313483e+000
1139651	9.690239e-001	-4.348299e+000
1142394	9.693439e-001	-4.472070e+000
1145137	9.690678e-001	-4.424011e+000
1147880	9.709197e-001	-4.400856e+000
1150623	9.700279e-001	-4.376629e+000
1153367	9.681535e-001	-4.402201e+000
1156110	9.692679e-001	-4.422315e+000
1158853	9.682881e-001	-4.496440e+000
1161596	9.689599e-001	-4.534810e+000
1164339	9.682908e-001	-4.534076e+000
1167082	9.690086e-001	-4.528178e+000
1169825	9.681851e-001	-4.543058e+000
1172569	9.674636e-001	-4.579798e+000
1175312	9.688000e-001	-4.571419e+000
1178055	9.673584e-001	-4.529598e+000
1180798	9.687719e-001	-4.545305e+000
1183541	9.688218e-001	-4.559318e+000
1186284	9.682599e-001	-4.603585e+000
1189027	9.681274e-001	-4.639639e+000
1191771	9.688505e-001	-4.535851e+000
1194514	9.678888e-001	-4.756034e+000
1197257	9.663422e-001	-4.757308e+000
1200000	9.683849e-001	-4.697369e+000
