!Agilent Technologies,E5071C,MY46100265,A.07.02
!Date: Wed Mar 04 14:58:09 2020
!Data & Calibration Information:
!Freq	S11:SOLT1(ON)
# Hz S MA R 50
100000	9.878694e-001	-1.996070e+000
102743	9.858531e-001	-1.976730e+000
105486	9.875949e-001	-2.081897e+000
108229	9.869670e-001	-2.118474e+000
110973	9.849695e-001	-2.225627e+000
113716	9.879588e-001	-2.308819e+000
116459	9.866594e-001	-2.593842e+000
119202	9.850886e-001	-2.640447e+000
121945	9.840267e-001	-2.832459e+000
124688	9.827159e-001	-3.120386e+000
127431	9.822061e-001	-3.173049e+000
130175	9.809170e-001	-3.424644e+000
132918	9.805750e-001	-3.610482e+000
135661	9.789889e-001	-4.135728e+000
138404	9.752247e-001	-4.466102e+000
141147	9.698251e-001	-4.960664e+000
143890	9.590957e-001	-5.682353e+000
146633	9.476711e-001	-6.074941e+000
149377	9.334122e-001	-6.504466e+000
152120	9.109039e-001	-6.980105e+000
154863	8.780733e-001	-7.286314e+000
157606	8.350644e-001	-6.022427e+000
160349	7.997877e-001	-3.118687e+000
163092	8.057924e-001	1.412651e+000
165835	8.485847e-001	3.941547e+000
168579	8.853178e-001	3.912931e+000
171322	9.044001e-001	3.870821e+000
174065	9.222027e-001	3.731594e+000
176808	9.386751e-001	3.345716e+000
179551	9.459400e-001	2.825688e+000
182294	9.519967e-001	2.267643e+000
185037	9.551219e-001	2.400470e+000
187781	9.616912e-001	2.117547e+000
190524	9.624324e-001	2.115829e+000
193267	9.688470e-001	1.910936e+000
196010	9.734261e-001	1.726374e+000
198753	9.729276e-001	1.487906e+000
201496	9.762127e-001	1.119735e+000
204239	9.786956e-001	1.095602e+000
206983	9.790824e-001	9.253371e-001
209726	9.830147e-001	8.433423e-001
212469	9.820471e-001	6.292116e-001
215212	9.836692e-001	3.407414e-001
217955	9.816977e-001	3.429317e-001
220698	9.825675e-001	9.610048e-002
223441	9.843555e-001	8.088199e-002
226185	9.843803e-001	-5.287943e-002
228928	9.837414e-001	-2.224251e-001
231671	9.830155e-001	-3.537802e-001
234414	9.847169e-001	-2.911941e-001
237157	9.829655e-001	-5.284284e-001
239900	9.829916e-001	-6.223966e-001
242643	9.847277e-001	-6.756385e-001
245387	9.833077e-001	-9.014400e-001
248130	9.820438e-001	-1.058059e+000
250873	9.802327e-001	-1.046189e+000
253616	9.780478e-001	-1.202884e+000
256359	9.756249e-001	-1.196498e+000
259102	9.742104e-001	-1.310375e+000
261845	9.707849e-001	-1.214920e+000
264589	9.706774e-001	-1.234210e+000
267332	9.705234e-001	-1.145647e+000
270075	9.707337e-001	-1.080831e+000
272818	9.681419e-001	-1.019602e+000
275561	9.717589e-001	-1.157124e+000
278304	9.700116e-001	-1.133626e+000
281047	9.695598e-001	-1.145003e+000
283791	9.691660e-001	-1.207409e+000
286534	9.673771e-001	-1.279392e+000
289277	9.653146e-001	-1.281166e+000
292020	9.642790e-001	-1.334652e+000
294763	9.613368e-001	-1.179938e+000
297506	9.619687e-001	-1.126838e+000
300249	9.593061e-001	-1.070503e+000
302993	9.571749e-001	-8.910699e-001
305736	9.590539e-001	-7.267391e-001
308479	9.589859e-001	-5.959206e-001
311222	9.611401e-001	-5.113912e-001
313965	9.661123e-001	-4.118231e-001
316708	9.677780e-001	-4.826106e-001
319451	9.697549e-001	-4.754229e-001
322195	9.679681e-001	-5.646784e-001
324938	9.715513e-001	-6.369723e-001
327681	9.706972e-001	-6.122417e-001
330424	9.719316e-001	-7.348249e-001
333167	9.716821e-001	-7.908586e-001
335910	9.715891e-001	-8.924034e-001
338653	9.730908e-001	-9.702473e-001
341397	9.705646e-001	-8.474381e-001
344140	9.708035e-001	-1.097078e+000
346883	9.697985e-001	-1.139546e+000
349626	9.699501e-001	-1.201497e+000
352369	9.684346e-001	-1.255811e+000
355112	9.663450e-001	-1.083258e+000
357855	9.655080e-001	-1.194719e+000
360599	9.673236e-001	-1.040739e+000
363342	9.643369e-001	-1.017020e+000
366085	9.645822e-001	-9.226714e-001
368828	9.637528e-001	-7.536904e-001
371571	9.663078e-001	-8.221188e-001
374314	9.667054e-001	-7.863069e-001
377057	9.674633e-001	-6.786988e-001
379800	9.675125e-001	-7.458316e-001
382544	9.709520e-001	-8.547140e-001
385287	9.683970e-001	-7.635105e-001
388030	9.694819e-001	-6.705728e-001
390773	9.725516e-001	-7.758679e-001
393516	9.734988e-001	-6.895945e-001
396259	9.712264e-001	-6.593471e-001
399002	9.732580e-001	-7.063765e-001
401746	9.723997e-001	-9.040940e-001
404489	9.744954e-001	-7.984272e-001
407232	9.745667e-001	-7.935561e-001
409975	9.741440e-001	-8.297136e-001
412718	9.774258e-001	-7.854348e-001
415461	9.775863e-001	-9.097107e-001
418204	9.769241e-001	-8.598685e-001
420948	9.762399e-001	-9.267444e-001
423691	9.770244e-001	-9.574304e-001
426434	9.791007e-001	-9.907233e-001
429177	9.786547e-001	-9.917305e-001
431920	9.791151e-001	-1.012143e+000
434663	9.793505e-001	-1.105051e+000
437406	9.836318e-001	-1.096540e+000
440150	9.798772e-001	-1.191845e+000
442893	9.826544e-001	-1.149460e+000
445636	9.793495e-001	-1.174685e+000
448379	9.804047e-001	-1.231245e+000
451122	9.797874e-001	-1.381319e+000
453865	9.797044e-001	-1.460265e+000
456608	9.804442e-001	-1.386559e+000
459352	9.798585e-001	-1.418104e+000
462095	9.804781e-001	-1.430902e+000
464838	9.827665e-001	-1.487399e+000
467581	9.820241e-001	-1.566276e+000
470324	9.826715e-001	-1.565968e+000
473067	9.826261e-001	-1.562181e+000
475810	9.818462e-001	-1.685393e+000
478554	9.820575e-001	-1.593579e+000
481297	9.825506e-001	-1.624876e+000
484040	9.818909e-001	-1.719385e+000
486783	9.820731e-001	-1.667867e+000
489526	9.823724e-001	-1.742293e+000
492269	9.797436e-001	-1.762011e+000
495012	9.819444e-001	-1.864291e+000
497756	9.806901e-001	-1.864604e+000
500499	9.829238e-001	-1.888517e+000
503242	9.826719e-001	-1.952971e+000
505985	9.809679e-001	-1.984092e+000
508728	9.822734e-001	-2.037906e+000
511471	9.810306e-001	-2.034007e+000
514214	9.822638e-001	-2.129303e+000
516958	9.797578e-001	-2.300028e+000
519701	9.822032e-001	-2.262761e+000
522444	9.792015e-001	-2.255045e+000
525187	9.797453e-001	-2.259363e+000
527930	9.769509e-001	-2.360744e+000
530673	9.788436e-001	-2.480130e+000
533416	9.762393e-001	-2.319741e+000
536160	9.741299e-001	-2.329281e+000
538903	9.749646e-001	-2.293889e+000
541646	9.744350e-001	-2.300973e+000
544389	9.743596e-001	-2.256062e+000
547132	9.760949e-001	-2.389274e+000
549875	9.779016e-001	-2.402382e+000
552618	9.773080e-001	-2.438286e+000
555362	9.773147e-001	-2.562341e+000
558105	9.757343e-001	-2.541727e+000
560848	9.754443e-001	-2.622365e+000
563591	9.761372e-001	-2.751644e+000
566334	9.760439e-001	-2.825159e+000
569077	9.748830e-001	-2.929134e+000
571820	9.749366e-001	-3.073933e+000
574564	9.730291e-001	-3.263599e+000
577307	9.693226e-001	-3.341307e+000
580050	9.661205e-001	-3.463902e+000
582793	9.621347e-001	-3.539912e+000
585536	9.565497e-001	-3.674476e+000
588279	9.472065e-001	-3.600932e+000
591022	9.396066e-001	-3.323036e+000
593766	9.336307e-001	-2.816439e+000
596509	9.308835e-001	-2.089308e+000
599252	9.334122e-001	-1.539131e+000
601995	9.395951e-001	-1.078363e+000
604738	9.477144e-001	-7.399375e-001
607481	9.540374e-001	-8.259510e-001
610224	9.596989e-001	-9.388540e-001
612968	9.636102e-001	-1.097896e+000
615711	9.644661e-001	-1.180674e+000
618454	9.668901e-001	-1.266050e+000
621197	9.676234e-001	-1.209227e+000
623940	9.696729e-001	-1.161392e+000
626683	9.703615e-001	-1.378373e+000
629426	9.714434e-001	-1.374912e+000
632170	9.724653e-001	-1.446486e+000
634913	9.721284e-001	-1.469853e+000
637656	9.733613e-001	-1.533387e+000
640399	9.723355e-001	-1.549034e+000
643142	9.726474e-001	-1.507717e+000
645885	9.741613e-001	-1.605536e+000
648628	9.755485e-001	-1.585073e+000
651372	9.754435e-001	-1.636567e+000
654115	9.771033e-001	-1.569478e+000
656858	9.773869e-001	-1.667059e+000
659601	9.753815e-001	-1.682006e+000
662344	9.763044e-001	-1.785875e+000
665087	9.801203e-001	-1.768905e+000
667830	9.788628e-001	-1.866965e+000
670574	9.767865e-001	-1.772908e+000
673317	9.787580e-001	-1.835409e+000
676060	9.787494e-001	-1.898031e+000
678803	9.797151e-001	-1.927118e+000
681546	9.805125e-001	-1.998869e+000
684289	9.804992e-001	-2.047950e+000
687032	9.805368e-001	-2.001045e+000
689776	9.798637e-001	-2.045705e+000
692519	9.811990e-001	-2.160899e+000
695262	9.819312e-001	-2.245990e+000
698005	9.805963e-001	-2.114408e+000
700748	9.819424e-001	-2.258427e+000
703491	9.808375e-001	-2.308658e+000
706234	9.818855e-001	-2.267768e+000
708978	9.813895e-001	-2.324762e+000
711721	9.814575e-001	-2.340297e+000
714464	9.815706e-001	-2.464318e+000
717207	9.814843e-001	-2.463408e+000
719950	9.798944e-001	-2.429471e+000
722693	9.813295e-001	-2.503726e+000
725436	9.817056e-001	-2.391205e+000
728180	9.792427e-001	-2.494564e+000
730923	9.808343e-001	-2.572575e+000
733666	9.825342e-001	-2.623958e+000
736409	9.793525e-001	-2.650391e+000
739152	9.787848e-001	-2.626975e+000
741895	9.790848e-001	-2.690557e+000
744638	9.775704e-001	-2.646124e+000
747382	9.803160e-001	-2.650092e+000
750125	9.795519e-001	-2.724979e+000
752868	9.780733e-001	-2.660376e+000
755611	9.784093e-001	-2.690738e+000
758354	9.796920e-001	-2.745387e+000
761097	9.780006e-001	-2.917622e+000
763840	9.776980e-001	-2.809185e+000
766584	9.778074e-001	-2.956251e+000
769327	9.786629e-001	-2.876781e+000
772070	9.783310e-001	-2.978651e+000
774813	9.773502e-001	-2.912306e+000
777556	9.777413e-001	-2.922230e+000
780299	9.761568e-001	-2.985243e+000
783042	9.778687e-001	-2.940402e+000
785786	9.773987e-001	-2.994642e+000
788529	9.773582e-001	-3.037142e+000
791272	9.773445e-001	-2.948168e+000
794015	9.746789e-001	-3.045436e+000
796758	9.744214e-001	-3.002558e+000
799501	9.747356e-001	-3.039554e+000
802244	9.759864e-001	-3.013538e+000
804988	9.755078e-001	-2.999266e+000
807731	9.741834e-001	-2.971215e+000
810474	9.734855e-001	-3.019274e+000
813217	9.750254e-001	-3.018342e+000
815960	9.740271e-001	-2.872889e+000
818703	9.739689e-001	-2.963633e+000
821446	9.741900e-001	-2.978050e+000
824190	9.746780e-001	-2.905471e+000
826933	9.744041e-001	-2.832043e+000
829676	9.745554e-001	-2.988559e+000
832419	9.759581e-001	-2.995312e+000
835162	9.745391e-001	-3.009556e+000
837905	9.768340e-001	-2.871129e+000
840648	9.759888e-001	-2.929821e+000
843392	9.756345e-001	-2.928813e+000
846135	9.754387e-001	-3.014893e+000
848878	9.763852e-001	-2.929046e+000
851621	9.756040e-001	-2.927948e+000
854364	9.777577e-001	-2.987074e+000
857107	9.753436e-001	-2.959255e+000
859850	9.765500e-001	-3.028233e+000
862594	9.778509e-001	-2.984709e+000
865337	9.763862e-001	-3.075383e+000
868080	9.777973e-001	-3.068819e+000
870823	9.784765e-001	-3.052563e+000
873566	9.788997e-001	-3.076896e+000
876309	9.798019e-001	-3.080723e+000
879052	9.787977e-001	-3.116235e+000
881796	9.793236e-001	-3.146673e+000
884539	9.785082e-001	-3.225132e+000
887282	9.782164e-001	-3.184405e+000
890025	9.785518e-001	-3.149731e+000
892768	9.806705e-001	-3.196837e+000
895511	9.785682e-001	-3.241990e+000
898254	9.795784e-001	-3.369158e+000
900998	9.783570e-001	-3.287624e+000
903741	9.792659e-001	-3.260154e+000
906484	9.785185e-001	-3.306702e+000
909227	9.769415e-001	-3.284959e+000
911970	9.777686e-001	-3.395400e+000
914713	9.786666e-001	-3.347684e+000
917456	9.763540e-001	-3.350605e+000
920200	9.770139e-001	-3.404090e+000
922943	9.788991e-001	-3.319168e+000
925686	9.773129e-001	-3.409428e+000
928429	9.779876e-001	-3.417159e+000
931172	9.766177e-001	-3.411080e+000
933915	9.776145e-001	-3.396987e+000
936658	9.765752e-001	-3.554006e+000
939401	9.787815e-001	-3.423610e+000
942145	9.785466e-001	-3.507580e+000
944888	9.779324e-001	-3.460243e+000
947631	9.771606e-001	-3.534634e+000
950374	9.788486e-001	-3.493039e+000
953117	9.777358e-001	-3.558138e+000
955860	9.794410e-001	-3.462915e+000
958603	9.794122e-001	-3.565928e+000
961347	9.798413e-001	-3.499448e+000
964090	9.795450e-001	-3.569750e+000
966833	9.785898e-001	-3.577868e+000
969576	9.783592e-001	-3.644548e+000
972319	9.788243e-001	-3.623124e+000
975062	9.784703e-001	-3.651991e+000
977805	9.780210e-001	-3.635858e+000
980549	9.783171e-001	-3.806333e+000
983292	9.783537e-001	-3.727306e+000
986035	9.789961e-001	-3.768818e+000
988778	9.779237e-001	-3.817602e+000
991521	9.775599e-001	-3.716272e+000
994264	9.765403e-001	-3.766100e+000
997007	9.784698e-001	-3.773534e+000
999751	9.782390e-001	-3.758520e+000
1002494	9.775640e-001	-3.888196e+000
1005237	9.773054e-001	-3.808833e+000
1007980	9.792679e-001	-3.881722e+000
1010723	9.778644e-001	-3.886108e+000
1013466	9.789719e-001	-3.825184e+000
1016209	9.769054e-001	-3.967115e+000
1018953	9.774204e-001	-3.915047e+000
1021696	9.769874e-001	-3.832011e+000
1024439	9.759997e-001	-3.860493e+000
1027182	9.775023e-001	-3.898626e+000
1029925	9.772283e-001	-3.873458e+000
1032668	9.751583e-001	-3.997056e+000
1035411	9.766477e-001	-3.956842e+000
1038155	9.774564e-001	-3.941915e+000
1040898	9.773975e-001	-3.992597e+000
1043641	9.782491e-001	-3.966015e+000
1046384	9.760294e-001	-4.116255e+000
1049127	9.765984e-001	-4.073083e+000
1051870	9.755949e-001	-4.026936e+000
1054613	9.777014e-001	-4.025509e+000
1057357	9.768830e-001	-4.180642e+000
1060100	9.767378e-001	-4.163997e+000
1062843	9.777959e-001	-4.040278e+000
1065586	9.765930e-001	-4.134057e+000
1068329	9.765199e-001	-4.051173e+000
1071072	9.761048e-001	-4.100265e+000
1073815	9.769887e-001	-4.075125e+000
1076559	9.777864e-001	-4.144137e+000
1079302	9.782840e-001	-4.095346e+000
1082045	9.767807e-001	-4.133314e+000
1084788	9.769333e-001	-4.140573e+000
1087531	9.759575e-001	-4.195467e+000
1090274	9.753478e-001	-4.228472e+000
1093017	9.756649e-001	-4.175633e+000
1095761	9.777755e-001	-4.210809e+000
1098504	9.763927e-001	-4.221832e+000
1101247	9.774697e-001	-4.214264e+000
1103990	9.768310e-001	-4.296822e+000
1106733	9.784972e-001	-4.256581e+000
1109476	9.769937e-001	-4.190368e+000
1112219	9.767741e-001	-4.358516e+000
1114963	9.767038e-001	-4.239285e+000
1117706	9.761164e-001	-4.337430e+000
1120449	9.747699e-001	-4.237566e+000
1123192	9.752369e-001	-4.422128e+000
1125935	9.760905e-001	-4.362742e+000
1128678	9.753864e-001	-4.298866e+000
1131421	9.778112e-001	-4.334203e+000
1134165	9.760848e-001	-4.389172e+000
1136908	9.771303e-001	-4.405411e+000
1139651	9.758685e-001	-4.301346e+000
1142394	9.753330e-001	-4.390168e+000
1145137	9.755100e-001	-4.401960e+000
1147880	9.767067e-001	-4.344128e+000
1150623	9.771514e-001	-4.357651e+000
1153367	9.765174e-001	-4.450577e+000
1156110	9.764835e-001	-4.437898e+000
1158853	9.762998e-001	-4.396999e+000
1161596	9.778825e-001	-4.487473e+000
1164339	9.774686e-001	-4.535332e+000
1167082	9.781849e-001	-4.523760e+000
1169825	9.764353e-001	-4.643913e+000
1172569	9.766709e-001	-4.661237e+000
1175312	9.776292e-001	-4.565642e+000
1178055	9.772951e-001	-4.579794e+000
1180798	9.773497e-001	-4.621586e+000
1183541	9.770973e-001	-4.560605e+000
1186284	9.778422e-001	-4.688303e+000
1189027	9.766765e-001	-4.656949e+000
1191771	9.757465e-001	-4.585110e+000
1194514	9.762485e-001	-4.789954e+000
1197257	9.747863e-001	-4.693750e+000
1200000	9.763280e-001	-4.829075e+000
