!Agilent Technologies,E5071C,MY46100265,A.07.02
!Date: Wed Mar 04 14:48:16 2020
!Data & Calibration Information:
!Freq	S11:SOLT1(ON)
# Hz S MA R 50
100000	9.889116e-001	-2.010124e+000
102743	9.865872e-001	-1.908480e+000
105486	9.874280e-001	-2.095630e+000
108229	9.870275e-001	-2.184556e+000
110973	9.858397e-001	-2.386081e+000
113716	9.866042e-001	-2.436330e+000
116459	9.863403e-001	-2.663772e+000
119202	9.841289e-001	-2.806992e+000
121945	9.831134e-001	-2.876277e+000
124688	9.793841e-001	-3.167660e+000
127431	9.801501e-001	-3.272069e+000
130175	9.797245e-001	-3.455536e+000
132918	9.758295e-001	-3.894723e+000
135661	9.705695e-001	-4.162676e+000
138404	9.659724e-001	-4.490933e+000
141147	9.550053e-001	-4.811975e+000
143890	9.434165e-001	-4.923313e+000
146633	9.387928e-001	-4.948648e+000
149377	9.258748e-001	-5.039971e+000
152120	9.134249e-001	-5.295555e+000
154863	8.908858e-001	-4.615018e+000
157606	8.785603e-001	-3.406913e+000
160349	8.638830e-001	-2.238447e+000
163092	8.542463e-001	-5.970748e-001
165835	8.762524e-001	7.074430e-001
168579	8.911279e-001	1.549312e+000
171322	9.062153e-001	1.738870e+000
174065	9.293178e-001	1.502519e+000
176808	9.316224e-001	2.232057e+000
179551	9.283750e-001	2.671015e+000
182294	9.544928e-001	2.601417e+000
185037	9.675681e-001	3.367713e+000
187781	9.568160e-001	1.389187e+000
190524	9.676126e-001	6.473365e-001
193267	9.651537e-001	4.794927e-001
196010	9.841418e-001	1.549406e+000
198753	9.705926e-001	5.459207e-001
201496	9.639477e-001	1.032649e+000
204239	9.599688e-001	7.301332e-001
206983	9.770718e-001	4.758992e-001
209726	9.728912e-001	2.352338e-001
212469	9.740009e-001	-2.616676e-001
215212	9.715396e-001	1.827609e-001
217955	9.688389e-001	-2.390028e-001
220698	9.706657e-001	-4.046745e-001
223441	9.717733e-001	-1.058397e-001
226185	9.732896e-001	-4.027149e-002
228928	9.711071e-001	-2.242139e-001
231671	9.712464e-001	-3.179033e-001
234414	9.710853e-001	-2.375360e-001
237157	9.701283e-001	-5.348802e-001
239900	9.689045e-001	-3.187661e-001
242643	9.674880e-001	-1.748691e-001
245387	9.705758e-001	-1.907543e-001
248130	9.689355e-001	-1.437841e-001
250873	9.707137e-001	-8.292836e-003
253616	9.733523e-001	-2.008867e-001
256359	9.715529e-001	-1.632032e-001
259102	9.769466e-001	-2.711417e-001
261845	9.748527e-001	-1.751387e-001
264589	9.779489e-001	-4.398891e-001
267332	9.778712e-001	-4.359371e-001
270075	9.808042e-001	-5.403078e-001
272818	9.777148e-001	-5.675171e-001
275561	9.797066e-001	-6.458420e-001
278304	9.786353e-001	-7.134296e-001
281047	9.787832e-001	-7.316841e-001
283791	9.785255e-001	-7.143966e-001
286534	9.767819e-001	-8.551811e-001
289277	9.784740e-001	-8.195484e-001
292020	9.780421e-001	-9.180315e-001
294763	9.752766e-001	-1.077900e+000
297506	9.761937e-001	-1.014289e+000
300249	9.738691e-001	-1.060870e+000
302993	9.742045e-001	-1.177603e+000
305736	9.736462e-001	-1.143305e+000
308479	9.694457e-001	-1.067675e+000
311222	9.684633e-001	-9.692908e-001
313965	9.723810e-001	-8.995851e-001
316708	9.711754e-001	-7.572292e-001
319451	9.712167e-001	-7.431207e-001
322195	9.713490e-001	-6.668963e-001
324938	9.732304e-001	-8.081213e-001
327681	9.732765e-001	-5.642174e-001
330424	9.768051e-001	-9.031739e-001
333167	9.782562e-001	-8.037118e-001
335910	9.781308e-001	-8.617418e-001
338653	9.785905e-001	-8.810401e-001
341397	9.785121e-001	-8.776940e-001
344140	9.807258e-001	-1.088660e+000
346883	9.791595e-001	-1.047812e+000
349626	9.790373e-001	-1.099804e+000
352369	9.798729e-001	-1.175982e+000
355112	9.808772e-001	-1.101003e+000
357855	9.784312e-001	-1.188550e+000
360599	9.812535e-001	-1.322459e+000
363342	9.786719e-001	-1.430700e+000
366085	9.777794e-001	-1.330316e+000
368828	9.780334e-001	-1.388205e+000
371571	9.786526e-001	-1.447821e+000
374314	9.771321e-001	-1.442982e+000
377057	9.773645e-001	-1.375041e+000
379800	9.754878e-001	-1.452638e+000
382544	9.780025e-001	-1.452480e+000
385287	9.762905e-001	-1.487154e+000
388030	9.768821e-001	-1.335655e+000
390773	9.781532e-001	-1.470870e+000
393516	9.797649e-001	-1.456430e+000
396259	9.769806e-001	-1.414034e+000
399002	9.783918e-001	-1.553715e+000
401746	9.756388e-001	-1.601512e+000
404489	9.783768e-001	-1.477398e+000
407232	9.767283e-001	-1.502817e+000
409975	9.765108e-001	-1.495725e+000
412718	9.801048e-001	-1.507488e+000
415461	9.788613e-001	-1.638833e+000
418204	9.772971e-001	-1.528761e+000
420948	9.791175e-001	-1.645126e+000
423691	9.774158e-001	-1.728504e+000
426434	9.794498e-001	-1.713388e+000
429177	9.790600e-001	-1.745840e+000
431920	9.788664e-001	-1.777613e+000
434663	9.779787e-001	-1.802029e+000
437406	9.794676e-001	-1.658142e+000
440150	9.762025e-001	-1.848421e+000
442893	9.785706e-001	-1.809744e+000
445636	9.761541e-001	-1.856606e+000
448379	9.773047e-001	-1.892203e+000
451122	9.757501e-001	-1.939875e+000
453865	9.764594e-001	-1.899941e+000
456608	9.749489e-001	-1.872459e+000
459352	9.742018e-001	-1.826018e+000
462095	9.750668e-001	-1.811608e+000
464838	9.758659e-001	-1.806998e+000
467581	9.758196e-001	-1.878258e+000
470324	9.754859e-001	-1.878884e+000
473067	9.778523e-001	-1.806575e+000
475810	9.780039e-001	-1.849732e+000
478554	9.776634e-001	-1.868074e+000
481297	9.770652e-001	-1.873713e+000
484040	9.780483e-001	-1.884976e+000
486783	9.783160e-001	-1.876453e+000
489526	9.805623e-001	-1.964326e+000
492269	9.766454e-001	-1.974476e+000
495012	9.784621e-001	-2.026102e+000
497756	9.774058e-001	-1.998122e+000
500499	9.791198e-001	-2.060184e+000
503242	9.806097e-001	-2.159983e+000
505985	9.789224e-001	-2.144330e+000
508728	9.780661e-001	-2.120321e+000
511471	9.790085e-001	-2.169550e+000
514214	9.807665e-001	-2.078227e+000
516958	9.783817e-001	-2.218764e+000
519701	9.797979e-001	-2.206853e+000
522444	9.783037e-001	-2.243001e+000
525187	9.804637e-001	-2.212067e+000
527930	9.783313e-001	-2.309292e+000
530673	9.811118e-001	-2.384425e+000
533416	9.785572e-001	-2.353129e+000
536160	9.775076e-001	-2.349414e+000
538903	9.787197e-001	-2.329355e+000
541646	9.785985e-001	-2.364247e+000
544389	9.782454e-001	-2.485319e+000
547132	9.782156e-001	-2.475548e+000
549875	9.804925e-001	-2.458290e+000
552618	9.788258e-001	-2.523898e+000
555362	9.787851e-001	-2.605432e+000
558105	9.775076e-001	-2.530310e+000
560848	9.777227e-001	-2.496218e+000
563591	9.778924e-001	-2.671345e+000
566334	9.775633e-001	-2.770185e+000
569077	9.792591e-001	-2.727901e+000
571820	9.788626e-001	-2.756203e+000
574564	9.774346e-001	-2.828348e+000
577307	9.772613e-001	-2.710467e+000
580050	9.780080e-001	-2.840716e+000
582793	9.772276e-001	-2.748868e+000
585536	9.769434e-001	-2.939832e+000
588279	9.747345e-001	-2.886200e+000
591022	9.749137e-001	-2.976604e+000
593766	9.733780e-001	-2.867857e+000
596509	9.745362e-001	-2.889907e+000
599252	9.715889e-001	-2.961978e+000
601995	9.710855e-001	-3.024967e+000
604738	9.715480e-001	-2.918484e+000
607481	9.697900e-001	-2.961502e+000
610224	9.711606e-001	-2.987178e+000
612968	9.690968e-001	-3.043373e+000
615711	9.675009e-001	-2.980445e+000
618454	9.681268e-001	-2.818523e+000
621197	9.680471e-001	-2.749057e+000
623940	9.678112e-001	-2.766749e+000
626683	9.664351e-001	-2.673779e+000
629426	9.682692e-001	-2.647178e+000
632170	9.690780e-001	-2.620556e+000
634913	9.675131e-001	-2.658255e+000
637656	9.714584e-001	-2.604991e+000
640399	9.713776e-001	-2.596051e+000
643142	9.707809e-001	-2.464815e+000
645885	9.727638e-001	-2.529824e+000
648628	9.725907e-001	-2.624565e+000
651372	9.746094e-001	-2.569560e+000
654115	9.736544e-001	-2.623654e+000
656858	9.743654e-001	-2.724173e+000
659601	9.732245e-001	-2.704225e+000
662344	9.734165e-001	-2.693816e+000
665087	9.739703e-001	-2.715358e+000
667830	9.733579e-001	-2.801812e+000
670574	9.715698e-001	-2.692368e+000
673317	9.745987e-001	-2.821734e+000
676060	9.732691e-001	-2.746406e+000
678803	9.742079e-001	-2.838123e+000
681546	9.739555e-001	-2.853169e+000
684289	9.752524e-001	-2.833872e+000
687032	9.754544e-001	-2.892281e+000
689776	9.759253e-001	-2.868478e+000
692519	9.750348e-001	-2.910088e+000
695262	9.760787e-001	-2.892178e+000
698005	9.753533e-001	-2.910256e+000
700748	9.756313e-001	-2.912527e+000
703491	9.748154e-001	-2.968883e+000
706234	9.762572e-001	-3.015623e+000
708978	9.741483e-001	-3.019216e+000
711721	9.746592e-001	-3.008770e+000
714464	9.747173e-001	-3.122751e+000
717207	9.745795e-001	-3.086399e+000
719950	9.748762e-001	-3.083709e+000
722693	9.751680e-001	-3.146907e+000
725436	9.761717e-001	-3.031324e+000
728180	9.745013e-001	-3.140226e+000
730923	9.755620e-001	-3.168906e+000
733666	9.772965e-001	-3.100304e+000
736409	9.749627e-001	-3.182977e+000
739152	9.753420e-001	-3.202684e+000
741895	9.765277e-001	-3.277766e+000
744638	9.761076e-001	-3.223473e+000
747382	9.751882e-001	-3.285820e+000
750125	9.742218e-001	-3.314276e+000
752868	9.764668e-001	-3.246040e+000
755611	9.756772e-001	-3.248442e+000
758354	9.756163e-001	-3.286446e+000
761097	9.759525e-001	-3.435933e+000
763840	9.754952e-001	-3.453710e+000
766584	9.744720e-001	-3.550174e+000
769327	9.756943e-001	-3.344199e+000
772070	9.763830e-001	-3.507545e+000
774813	9.747713e-001	-3.449901e+000
777556	9.742055e-001	-3.492963e+000
780299	9.749092e-001	-3.665553e+000
783042	9.746887e-001	-3.515821e+000
785786	9.740208e-001	-3.591388e+000
788529	9.755287e-001	-3.577237e+000
791272	9.758126e-001	-3.582929e+000
794015	9.737490e-001	-3.649982e+000
796758	9.743739e-001	-3.663734e+000
799501	9.741518e-001	-3.607208e+000
802244	9.733807e-001	-3.704222e+000
804988	9.739207e-001	-3.732815e+000
807731	9.729194e-001	-3.680152e+000
810474	9.737675e-001	-3.732378e+000
813217	9.743237e-001	-3.816407e+000
815960	9.727311e-001	-3.736249e+000
818703	9.723170e-001	-3.734093e+000
821446	9.723875e-001	-3.767958e+000
824190	9.733301e-001	-3.786393e+000
826933	9.725061e-001	-3.732046e+000
829676	9.714637e-001	-3.941787e+000
832419	9.713974e-001	-3.873351e+000
835162	9.698637e-001	-3.884705e+000
837905	9.722430e-001	-3.779275e+000
840648	9.712661e-001	-3.894814e+000
843392	9.711828e-001	-3.783456e+000
846135	9.691435e-001	-3.861751e+000
848878	9.706203e-001	-3.903080e+000
851621	9.693749e-001	-3.917903e+000
854364	9.710126e-001	-3.815551e+000
857107	9.688154e-001	-3.856651e+000
859850	9.717213e-001	-3.861656e+000
862594	9.694951e-001	-3.888948e+000
865337	9.674661e-001	-3.869701e+000
868080	9.699363e-001	-3.931374e+000
870823	9.712107e-001	-3.861077e+000
873566	9.705390e-001	-3.840566e+000
876309	9.700404e-001	-3.881345e+000
879052	9.703862e-001	-4.027672e+000
881796	9.703438e-001	-3.863382e+000
884539	9.692992e-001	-4.032954e+000
887282	9.705501e-001	-3.838903e+000
890025	9.706042e-001	-3.922865e+000
892768	9.712222e-001	-3.836840e+000
895511	9.698095e-001	-3.908275e+000
898254	9.703237e-001	-3.982746e+000
900998	9.704608e-001	-4.061785e+000
903741	9.700642e-001	-3.933442e+000
906484	9.683866e-001	-4.014036e+000
909227	9.683411e-001	-3.973035e+000
911970	9.692611e-001	-3.941389e+000
914713	9.692922e-001	-3.963857e+000
917456	9.684777e-001	-3.987603e+000
920200	9.693384e-001	-4.075109e+000
922943	9.719402e-001	-3.868465e+000
925686	9.699284e-001	-4.005101e+000
928429	9.719635e-001	-4.049944e+000
931172	9.701166e-001	-4.074488e+000
933915	9.699568e-001	-4.084503e+000
936658	9.694778e-001	-4.146280e+000
939401	9.700980e-001	-4.052214e+000
942145	9.705389e-001	-4.206403e+000
944888	9.686727e-001	-4.231084e+000
947631	9.681714e-001	-4.150164e+000
950374	9.696052e-001	-4.179191e+000
953117	9.693066e-001	-4.209346e+000
955860	9.686153e-001	-4.183695e+000
958603	9.674941e-001	-4.160010e+000
961347	9.682163e-001	-4.194268e+000
964090	9.671117e-001	-4.120467e+000
966833	9.681237e-001	-4.127826e+000
969576	9.684062e-001	-4.102566e+000
972319	9.692893e-001	-4.047666e+000
975062	9.695426e-001	-4.191076e+000
977805	9.685826e-001	-4.108700e+000
980549	9.700659e-001	-4.194644e+000
983292	9.686383e-001	-4.196951e+000
986035	9.711021e-001	-4.211494e+000
988778	9.698987e-001	-4.309199e+000
991521	9.691201e-001	-4.203780e+000
994264	9.693554e-001	-4.281306e+000
997007	9.690818e-001	-4.293364e+000
999751	9.697472e-001	-4.252364e+000
1002494	9.688701e-001	-4.369970e+000
1005237	9.691791e-001	-4.402336e+000
1007980	9.699377e-001	-4.368970e+000
1010723	9.695585e-001	-4.385547e+000
1013466	9.696721e-001	-4.337887e+000
1016209	9.706800e-001	-4.431137e+000
1018953	9.682845e-001	-4.492806e+000
1021696	9.691316e-001	-4.325888e+000
1024439	9.670554e-001	-4.487285e+000
1027182	9.695756e-001	-4.526658e+000
1029925	9.680589e-001	-4.447969e+000
1032668	9.694471e-001	-4.481345e+000
1035411	9.674018e-001	-4.537928e+000
1038155	9.688900e-001	-4.428556e+000
1040898	9.685306e-001	-4.576688e+000
1043641	9.689749e-001	-4.448368e+000
1046384	9.683114e-001	-4.507238e+000
1049127	9.687597e-001	-4.667255e+000
1051870	9.672126e-001	-4.603874e+000
1054613	9.698597e-001	-4.601288e+000
1057357	9.688837e-001	-4.643665e+000
1060100	9.677140e-001	-4.669500e+000
1062843	9.674708e-001	-4.542229e+000
1065586	9.671920e-001	-4.564440e+000
1068329	9.681680e-001	-4.587613e+000
1071072	9.672588e-001	-4.592235e+000
1073815	9.667672e-001	-4.557041e+000
1076559	9.659996e-001	-4.585125e+000
1079302	9.674246e-001	-4.570694e+000
1082045	9.690774e-001	-4.627375e+000
1084788	9.658392e-001	-4.643259e+000
1087531	9.674765e-001	-4.625644e+000
1090274	9.672753e-001	-4.562581e+000
1093017	9.682618e-001	-4.610713e+000
1095761	9.660174e-001	-4.624327e+000
1098504	9.668924e-001	-4.582840e+000
1101247	9.673627e-001	-4.570434e+000
1103990	9.668259e-001	-4.625992e+000
1106733	9.690924e-001	-4.507221e+000
1109476	9.688418e-001	-4.446898e+000
1112219	9.683684e-001	-4.675624e+000
1114963	9.682728e-001	-4.479632e+000
1117706	9.702235e-001	-4.606304e+000
1120449	9.682451e-001	-4.513833e+000
1123192	9.699260e-001	-4.675086e+000
1125935	9.701545e-001	-4.655087e+000
1128678	9.699468e-001	-4.640551e+000
1131421	9.721940e-001	-4.785727e+000
1134165	9.711223e-001	-4.804883e+000
1136908	9.713898e-001	-4.774243e+000
1139651	9.701270e-001	-4.742149e+000
1142394	9.701052e-001	-4.857930e+000
1145137	9.698152e-001	-4.853152e+000
1147880	9.703802e-001	-4.830213e+000
1150623	9.713407e-001	-4.968865e+000
1153367	9.689861e-001	-4.953649e+000
1156110	9.715310e-001	-4.875836e+000
1158853	9.694526e-001	-4.882503e+000
1161596	9.697868e-001	-4.968099e+000
1164339	9.708076e-001	-4.996229e+000
1167082	9.709105e-001	-5.015279e+000
1169825	9.695320e-001	-5.057698e+000
1172569	9.681413e-001	-5.114674e+000
1175312	9.686217e-001	-5.086941e+000
1178055	9.688114e-001	-4.982024e+000
1180798	9.687846e-001	-5.132398e+000
1183541	9.684758e-001	-5.037556e+000
1186284	9.671322e-001	-5.116946e+000
1189027	9.684112e-001	-5.152454e+000
1191771	9.689682e-001	-5.063534e+000
1194514	9.684881e-001	-5.216165e+000
1197257	9.665229e-001	-5.168803e+000
1200000	9.686389e-001	-5.177023e+000
