!Agilent Technologies,E5071C,MY46100265,A.07.02
!Date: Wed Mar 04 14:48:27 2020
!Data & Calibration Information:
!Freq	S11:SOLT1(ON)
# Hz S MA R 50
100000	9.895899e-001	-1.949872e+000
102743	9.867848e-001	-1.896151e+000
105486	9.879286e-001	-2.081087e+000
108229	9.876389e-001	-2.160879e+000
110973	9.870404e-001	-2.256868e+000
113716	9.868417e-001	-2.463637e+000
116459	9.868050e-001	-2.674456e+000
119202	9.853383e-001	-2.762411e+000
121945	9.827828e-001	-2.861023e+000
124688	9.812839e-001	-3.082625e+000
127431	9.785793e-001	-3.225102e+000
130175	9.793398e-001	-3.496751e+000
132918	9.759542e-001	-3.714434e+000
135661	9.713111e-001	-4.222122e+000
138404	9.662036e-001	-4.386316e+000
141147	9.601336e-001	-4.549308e+000
143890	9.484669e-001	-4.944524e+000
146633	9.401039e-001	-4.863227e+000
149377	9.310592e-001	-5.211344e+000
152120	9.145840e-001	-5.273735e+000
154863	8.957521e-001	-4.871003e+000
157606	8.766564e-001	-3.932245e+000
160349	8.538344e-001	-2.117775e+000
163092	8.597286e-001	-1.141193e+000
165835	8.664231e-001	1.320068e+000
168579	8.890228e-001	1.808072e+000
171322	9.112500e-001	2.127306e+000
174065	9.363800e-001	2.744088e+000
176808	9.152785e-001	2.635249e+000
179551	9.224316e-001	2.664738e+000
182294	9.555000e-001	2.530198e+000
185037	9.388823e-001	3.069163e+000
187781	9.562255e-001	1.058072e+000
190524	9.707270e-001	1.252502e+000
193267	9.725560e-001	5.033471e-001
196010	9.697397e-001	2.161648e+000
198753	9.748211e-001	1.313081e+000
201496	9.654200e-001	8.086449e-001
204239	9.679217e-001	6.121275e-001
206983	9.828677e-001	8.531538e-001
209726	9.748944e-001	3.689468e-001
212469	9.797352e-001	1.038214e-001
215212	9.727367e-001	5.224978e-002
217955	9.743604e-001	-3.113041e-001
220698	9.740213e-001	-2.616867e-001
223441	9.724255e-001	-5.110587e-002
226185	9.740700e-001	-1.169210e-001
228928	9.728919e-001	-1.897314e-001
231671	9.732208e-001	-2.391002e-001
234414	9.721251e-001	-1.571092e-001
237157	9.714242e-001	-3.093402e-001
239900	9.680935e-001	-1.874574e-001
242643	9.708456e-001	-1.266471e-001
245387	9.702628e-001	-1.842329e-001
248130	9.708010e-001	-1.080498e-001
250873	9.734276e-001	-1.277953e-001
253616	9.754991e-001	-2.415698e-001
256359	9.743914e-001	-1.671383e-001
259102	9.772078e-001	-2.573140e-001
261845	9.768143e-001	-2.161201e-001
264589	9.789382e-001	-3.659715e-001
267332	9.784671e-001	-4.119331e-001
270075	9.816394e-001	-5.295536e-001
272818	9.777137e-001	-4.929829e-001
275561	9.799386e-001	-6.726215e-001
278304	9.797396e-001	-6.127370e-001
281047	9.792095e-001	-7.020420e-001
283791	9.789494e-001	-7.908038e-001
286534	9.783821e-001	-8.277294e-001
289277	9.785482e-001	-8.414663e-001
292020	9.765866e-001	-1.036465e+000
294763	9.763546e-001	-9.808512e-001
297506	9.758473e-001	-1.071741e+000
300249	9.742563e-001	-1.150040e+000
302993	9.732650e-001	-1.108037e+000
305736	9.717133e-001	-1.102447e+000
308479	9.691646e-001	-1.129749e+000
311222	9.699096e-001	-9.673820e-001
313965	9.718112e-001	-8.806939e-001
316708	9.702390e-001	-7.765531e-001
319451	9.727333e-001	-6.528557e-001
322195	9.711058e-001	-7.814533e-001
324938	9.753615e-001	-7.034921e-001
327681	9.751019e-001	-6.395627e-001
330424	9.768243e-001	-7.520925e-001
333167	9.785866e-001	-7.814678e-001
335910	9.771812e-001	-8.718172e-001
338653	9.788384e-001	-8.997704e-001
341397	9.777427e-001	-9.345405e-001
344140	9.797121e-001	-9.684960e-001
346883	9.788241e-001	-1.040658e+000
349626	9.787966e-001	-1.069429e+000
352369	9.789942e-001	-1.198141e+000
355112	9.809501e-001	-1.084323e+000
357855	9.797432e-001	-1.200918e+000
360599	9.814247e-001	-1.288590e+000
363342	9.791330e-001	-1.404161e+000
366085	9.786639e-001	-1.334220e+000
368828	9.797257e-001	-1.292994e+000
371571	9.783317e-001	-1.401687e+000
374314	9.789929e-001	-1.423785e+000
377057	9.761633e-001	-1.324804e+000
379800	9.771397e-001	-1.387108e+000
382544	9.766979e-001	-1.460085e+000
385287	9.767061e-001	-1.485211e+000
388030	9.767120e-001	-1.432369e+000
390773	9.777893e-001	-1.433099e+000
393516	9.795009e-001	-1.475135e+000
396259	9.767221e-001	-1.493336e+000
399002	9.787369e-001	-1.504151e+000
401746	9.773668e-001	-1.532592e+000
404489	9.785456e-001	-1.475855e+000
407232	9.776271e-001	-1.486588e+000
409975	9.776894e-001	-1.489152e+000
412718	9.799321e-001	-1.576183e+000
415461	9.796141e-001	-1.522380e+000
418204	9.783540e-001	-1.548542e+000
420948	9.776118e-001	-1.615146e+000
423691	9.780434e-001	-1.640809e+000
426434	9.803243e-001	-1.739311e+000
429177	9.789886e-001	-1.713982e+000
431920	9.788100e-001	-1.770939e+000
434663	9.779805e-001	-1.728773e+000
437406	9.792821e-001	-1.631607e+000
440150	9.772064e-001	-1.894849e+000
442893	9.791621e-001	-1.811296e+000
445636	9.761640e-001	-1.854069e+000
448379	9.770949e-001	-1.854636e+000
451122	9.782855e-001	-1.963310e+000
453865	9.757579e-001	-1.943123e+000
456608	9.750115e-001	-1.859710e+000
459352	9.747136e-001	-1.848777e+000
462095	9.754761e-001	-1.826620e+000
464838	9.760612e-001	-1.840168e+000
467581	9.761743e-001	-1.779383e+000
470324	9.763147e-001	-1.835769e+000
473067	9.773583e-001	-1.861015e+000
475810	9.783080e-001	-1.839865e+000
478554	9.803055e-001	-1.914542e+000
481297	9.771632e-001	-1.834281e+000
484040	9.777214e-001	-1.852676e+000
486783	9.789260e-001	-1.885735e+000
489526	9.804613e-001	-1.978304e+000
492269	9.782913e-001	-1.982768e+000
495012	9.780673e-001	-1.934592e+000
497756	9.777187e-001	-1.982812e+000
500499	9.814434e-001	-1.987875e+000
503242	9.799780e-001	-2.052702e+000
505985	9.796507e-001	-2.127232e+000
508728	9.795998e-001	-2.141493e+000
511471	9.789401e-001	-2.080631e+000
514214	9.809223e-001	-2.166711e+000
516958	9.781196e-001	-2.223065e+000
519701	9.803715e-001	-2.218649e+000
522444	9.786670e-001	-2.175117e+000
525187	9.781843e-001	-2.287542e+000
527930	9.784735e-001	-2.211141e+000
530673	9.808614e-001	-2.369810e+000
533416	9.786252e-001	-2.305205e+000
536160	9.795765e-001	-2.431208e+000
538903	9.783277e-001	-2.415745e+000
541646	9.798231e-001	-2.415227e+000
544389	9.782494e-001	-2.442318e+000
547132	9.775067e-001	-2.446997e+000
549875	9.806188e-001	-2.466732e+000
552618	9.785859e-001	-2.498965e+000
555362	9.786434e-001	-2.679554e+000
558105	9.776884e-001	-2.456962e+000
560848	9.787139e-001	-2.508204e+000
563591	9.785182e-001	-2.680943e+000
566334	9.780687e-001	-2.683015e+000
569077	9.780766e-001	-2.643592e+000
571820	9.790097e-001	-2.674799e+000
574564	9.782034e-001	-2.773716e+000
577307	9.772990e-001	-2.814808e+000
580050	9.777779e-001	-2.727093e+000
582793	9.774941e-001	-2.772238e+000
585536	9.772449e-001	-2.795404e+000
588279	9.760258e-001	-2.886398e+000
591022	9.752658e-001	-3.034250e+000
593766	9.743763e-001	-2.907761e+000
596509	9.736443e-001	-2.921381e+000
599252	9.727814e-001	-2.950838e+000
601995	9.727853e-001	-2.986301e+000
604738	9.724003e-001	-2.849123e+000
607481	9.702167e-001	-2.908244e+000
610224	9.704476e-001	-2.918079e+000
612968	9.692119e-001	-2.936933e+000
615711	9.696817e-001	-3.013269e+000
618454	9.679867e-001	-2.822207e+000
621197	9.688681e-001	-2.810059e+000
623940	9.669546e-001	-2.782074e+000
626683	9.677772e-001	-2.666509e+000
629426	9.682817e-001	-2.598155e+000
632170	9.706971e-001	-2.734854e+000
634913	9.689014e-001	-2.641100e+000
637656	9.713244e-001	-2.646340e+000
640399	9.709607e-001	-2.507235e+000
643142	9.705586e-001	-2.620939e+000
645885	9.713217e-001	-2.611861e+000
648628	9.727486e-001	-2.581926e+000
651372	9.747110e-001	-2.614030e+000
654115	9.734816e-001	-2.623993e+000
656858	9.748883e-001	-2.649456e+000
659601	9.746972e-001	-2.579094e+000
662344	9.735800e-001	-2.773449e+000
665087	9.746046e-001	-2.730241e+000
667830	9.729192e-001	-2.796623e+000
670574	9.753778e-001	-2.753207e+000
673317	9.745387e-001	-2.791853e+000
676060	9.729260e-001	-2.860929e+000
678803	9.748384e-001	-2.818089e+000
681546	9.756190e-001	-2.845744e+000
684289	9.768353e-001	-2.796333e+000
687032	9.762024e-001	-2.866839e+000
689776	9.746853e-001	-2.927979e+000
692519	9.766272e-001	-2.926263e+000
695262	9.764457e-001	-2.942425e+000
698005	9.756576e-001	-2.916140e+000
700748	9.760935e-001	-2.964587e+000
703491	9.763075e-001	-2.961115e+000
706234	9.767026e-001	-2.936735e+000
708978	9.752280e-001	-2.998173e+000
711721	9.765919e-001	-2.985660e+000
714464	9.765759e-001	-3.100953e+000
717207	9.759029e-001	-3.056419e+000
719950	9.766290e-001	-3.083396e+000
722693	9.751714e-001	-3.119169e+000
725436	9.762438e-001	-2.994522e+000
728180	9.760692e-001	-3.088943e+000
730923	9.776836e-001	-3.128914e+000
733666	9.775087e-001	-3.083967e+000
736409	9.764405e-001	-3.109450e+000
739152	9.752715e-001	-3.111854e+000
741895	9.756255e-001	-3.289272e+000
744638	9.767235e-001	-3.250506e+000
747382	9.770247e-001	-3.248562e+000
750125	9.766611e-001	-3.222600e+000
752868	9.764642e-001	-3.278878e+000
755611	9.766241e-001	-3.327427e+000
758354	9.758772e-001	-3.299630e+000
761097	9.758298e-001	-3.426712e+000
763840	9.757798e-001	-3.347010e+000
766584	9.740293e-001	-3.465723e+000
769327	9.750711e-001	-3.398928e+000
772070	9.767601e-001	-3.557004e+000
774813	9.775512e-001	-3.496597e+000
777556	9.765596e-001	-3.497993e+000
780299	9.756817e-001	-3.594103e+000
783042	9.767626e-001	-3.502455e+000
785786	9.741188e-001	-3.507939e+000
788529	9.748194e-001	-3.568308e+000
791272	9.761019e-001	-3.590429e+000
794015	9.755058e-001	-3.598885e+000
796758	9.732018e-001	-3.633224e+000
799501	9.737213e-001	-3.668734e+000
802244	9.745386e-001	-3.617178e+000
804988	9.753908e-001	-3.662006e+000
807731	9.727706e-001	-3.685009e+000
810474	9.726478e-001	-3.740522e+000
813217	9.747881e-001	-3.749634e+000
815960	9.734715e-001	-3.700216e+000
818703	9.724785e-001	-3.772176e+000
821446	9.718207e-001	-3.779206e+000
824190	9.714988e-001	-3.705535e+000
826933	9.727411e-001	-3.794517e+000
829676	9.718273e-001	-3.873008e+000
832419	9.722757e-001	-3.760905e+000
835162	9.708572e-001	-3.878360e+000
837905	9.714254e-001	-3.802171e+000
840648	9.727973e-001	-3.844026e+000
843392	9.697022e-001	-3.835477e+000
846135	9.698580e-001	-3.875041e+000
848878	9.725497e-001	-3.825913e+000
851621	9.688703e-001	-3.780385e+000
854364	9.706044e-001	-3.851705e+000
857107	9.684583e-001	-3.827495e+000
859850	9.718738e-001	-3.862867e+000
862594	9.711574e-001	-3.810872e+000
865337	9.700180e-001	-3.888076e+000
868080	9.705341e-001	-3.857796e+000
870823	9.703061e-001	-3.883256e+000
873566	9.709321e-001	-3.792566e+000
876309	9.726054e-001	-3.955700e+000
879052	9.700525e-001	-3.963617e+000
881796	9.701057e-001	-3.946622e+000
884539	9.690139e-001	-4.004907e+000
887282	9.693996e-001	-3.857672e+000
890025	9.708325e-001	-3.872664e+000
892768	9.708103e-001	-3.909858e+000
895511	9.679692e-001	-3.992804e+000
898254	9.703365e-001	-4.042869e+000
900998	9.701011e-001	-4.017439e+000
903741	9.694909e-001	-3.949993e+000
906484	9.682146e-001	-3.965032e+000
909227	9.687066e-001	-3.923991e+000
911970	9.703597e-001	-3.955555e+000
914713	9.699633e-001	-3.995439e+000
917456	9.698975e-001	-4.062716e+000
920200	9.701235e-001	-3.987813e+000
922943	9.710001e-001	-3.927513e+000
925686	9.696198e-001	-4.031382e+000
928429	9.711164e-001	-4.037244e+000
931172	9.702783e-001	-4.048894e+000
933915	9.709826e-001	-4.092946e+000
936658	9.706905e-001	-4.174508e+000
939401	9.709280e-001	-4.196113e+000
942145	9.703015e-001	-4.312096e+000
944888	9.698432e-001	-4.227458e+000
947631	9.683182e-001	-4.131198e+000
950374	9.703774e-001	-4.230665e+000
953117	9.689249e-001	-4.257172e+000
955860	9.691799e-001	-4.217648e+000
958603	9.686611e-001	-4.122949e+000
961347	9.686366e-001	-4.148542e+000
964090	9.688728e-001	-4.105197e+000
966833	9.682270e-001	-4.140110e+000
969576	9.686654e-001	-4.121858e+000
972319	9.688285e-001	-4.127222e+000
975062	9.694618e-001	-4.111829e+000
977805	9.691753e-001	-4.156956e+000
980549	9.691495e-001	-4.206965e+000
983292	9.684448e-001	-4.132278e+000
986035	9.708417e-001	-4.271910e+000
988778	9.693492e-001	-4.258350e+000
991521	9.716171e-001	-4.248553e+000
994264	9.680415e-001	-4.359147e+000
997007	9.699330e-001	-4.271835e+000
999751	9.699650e-001	-4.261063e+000
1002494	9.699455e-001	-4.380812e+000
1005237	9.703700e-001	-4.452110e+000
1007980	9.708809e-001	-4.383787e+000
1010723	9.707717e-001	-4.425258e+000
1013466	9.696338e-001	-4.358030e+000
1016209	9.693527e-001	-4.478838e+000
1018953	9.695725e-001	-4.480960e+000
1021696	9.687341e-001	-4.380426e+000
1024439	9.684991e-001	-4.476069e+000
1027182	9.698278e-001	-4.422980e+000
1029925	9.691774e-001	-4.481236e+000
1032668	9.677028e-001	-4.395057e+000
1035411	9.687290e-001	-4.555526e+000
1038155	9.699923e-001	-4.455710e+000
1040898	9.700671e-001	-4.492208e+000
1043641	9.691268e-001	-4.483141e+000
1046384	9.691980e-001	-4.533320e+000
1049127	9.695832e-001	-4.492084e+000
1051870	9.698948e-001	-4.584355e+000
1054613	9.692549e-001	-4.530623e+000
1057357	9.692975e-001	-4.642579e+000
1060100	9.676091e-001	-4.653310e+000
1062843	9.681507e-001	-4.520065e+000
1065586	9.676462e-001	-4.559412e+000
1068329	9.674125e-001	-4.622814e+000
1071072	9.668492e-001	-4.528676e+000
1073815	9.664165e-001	-4.554031e+000
1076559	9.677166e-001	-4.620666e+000
1079302	9.676672e-001	-4.603257e+000
1082045	9.677955e-001	-4.677512e+000
1084788	9.666563e-001	-4.581750e+000
1087531	9.675165e-001	-4.643922e+000
1090274	9.653569e-001	-4.554831e+000
1093017	9.661082e-001	-4.586742e+000
1095761	9.662038e-001	-4.546414e+000
1098504	9.676714e-001	-4.603388e+000
1101247	9.681421e-001	-4.563129e+000
1103990	9.673378e-001	-4.627817e+000
1106733	9.689080e-001	-4.550690e+000
1109476	9.698014e-001	-4.395339e+000
1112219	9.701329e-001	-4.675903e+000
1114963	9.683524e-001	-4.541830e+000
1117706	9.704466e-001	-4.545541e+000
1120449	9.697770e-001	-4.576283e+000
1123192	9.696864e-001	-4.639179e+000
1125935	9.710388e-001	-4.647257e+000
1128678	9.705172e-001	-4.711792e+000
1131421	9.712160e-001	-4.706785e+000
1134165	9.705308e-001	-4.746127e+000
1136908	9.727887e-001	-4.731395e+000
1139651	9.700202e-001	-4.728436e+000
1142394	9.715908e-001	-4.840348e+000
1145137	9.713082e-001	-4.823421e+000
1147880	9.711817e-001	-4.868032e+000
1150623	9.716657e-001	-4.894809e+000
1153367	9.706652e-001	-4.871213e+000
1156110	9.703820e-001	-4.937346e+000
1158853	9.696476e-001	-4.854860e+000
1161596	9.710100e-001	-4.985652e+000
1164339	9.700091e-001	-5.015960e+000
1167082	9.709784e-001	-5.069696e+000
1169825	9.691493e-001	-5.053503e+000
1172569	9.689506e-001	-5.149045e+000
1175312	9.695134e-001	-5.083106e+000
1178055	9.682093e-001	-5.042307e+000
1180798	9.698687e-001	-5.075858e+000
1183541	9.701379e-001	-5.120752e+000
1186284	9.684208e-001	-5.126804e+000
1189027	9.694526e-001	-5.129128e+000
1191771	9.686315e-001	-5.050826e+000
1194514	9.685055e-001	-5.165401e+000
1197257	9.683160e-001	-5.157364e+000
1200000	9.676972e-001	-5.105701e+000
