!Agilent Technologies,E5071C,MY46100265,A.07.02
!Date: Wed Mar 04 14:42:50 2020
!Data & Calibration Information:
!Freq	S11:SOLT1(ON)
# Hz S MA R 50
100000	1.000415e+000	-1.963523e+000
102743	9.987998e-001	-1.806208e+000
105486	9.993487e-001	-2.030880e+000
108229	1.000461e+000	-2.025062e+000
110973	1.000172e+000	-2.261046e+000
113716	9.994242e-001	-2.390009e+000
116459	9.979629e-001	-2.708951e+000
119202	9.968667e-001	-2.788332e+000
121945	9.945698e-001	-3.006936e+000
124688	9.941059e-001	-3.174081e+000
127431	9.941597e-001	-3.409240e+000
130175	9.956410e-001	-3.791781e+000
132918	1.000387e+000	-4.334412e+000
135661	9.973824e-001	-4.921396e+000
138404	9.918200e-001	-5.599400e+000
141147	9.832514e-001	-6.435243e+000
143890	9.674358e-001	-7.327876e+000
146633	9.538443e-001	-8.447006e+000
149377	9.242815e-001	-9.916288e+000
152120	8.745607e-001	-1.148236e+001
154863	7.958253e-001	-1.193205e+001
157606	6.877475e-001	-7.789903e+000
160349	6.442108e-001	5.887107e+000
163092	7.866827e-001	1.644722e+001
165835	9.536775e-001	1.231761e+001
168579	9.685674e-001	6.825898e+000
171322	9.743672e-001	6.277692e+000
174065	9.772083e-001	4.827474e+000
176808	9.864013e-001	3.389932e+000
179551	9.937026e-001	3.513678e+000
182294	9.912104e-001	3.138803e+000
185037	9.926691e-001	2.865169e+000
187781	9.922728e-001	1.501678e+000
190524	9.893795e-001	2.161993e+000
193267	9.977035e-001	1.750632e+000
196010	9.976464e-001	1.662330e+000
198753	9.945075e-001	1.165767e+000
201496	9.974606e-001	1.021373e+000
204239	9.947221e-001	8.683536e-001
206983	9.948795e-001	8.733651e-001
209726	9.958459e-001	6.648322e-001
212469	9.952859e-001	3.971641e-001
215212	9.955024e-001	2.544742e-001
217955	9.947494e-001	1.424190e-001
220698	9.938571e-001	-7.451946e-002
223441	9.908322e-001	-5.976791e-002
226185	9.868608e-001	-2.735117e-001
228928	9.866347e-001	-4.011019e-001
231671	9.826419e-001	-2.682627e-001
234414	9.842478e-001	-1.518306e-001
237157	9.832223e-001	-2.203798e-001
239900	9.840381e-001	-8.405455e-002
242643	9.843976e-001	-2.319975e-001
245387	9.860232e-001	-2.594949e-001
248130	9.839509e-001	-3.890978e-001
250873	9.843871e-001	-4.522384e-001
253616	9.815525e-001	-6.015688e-001
256359	9.776356e-001	-4.440479e-001
259102	9.774335e-001	-4.547090e-001
261845	9.763726e-001	-1.695280e-001
264589	9.782862e-001	-3.173112e-001
267332	9.758569e-001	-3.024802e-001
270075	9.775577e-001	-1.274365e-001
272818	9.748528e-001	-1.806688e-001
275561	9.782665e-001	-2.361355e-001
278304	9.764422e-001	-1.081426e-001
281047	9.769572e-001	-1.868983e-002
283791	9.764692e-001	1.262353e-001
286534	9.774741e-001	1.620354e-001
289277	9.793194e-001	2.341686e-001
292020	9.805258e-001	1.749057e-001
294763	9.823442e-001	2.355112e-001
297506	9.836502e-001	1.747134e-001
300249	9.840332e-001	2.011728e-001
302993	9.851075e-001	-2.069516e-002
305736	9.854343e-001	1.146825e-001
308479	9.835687e-001	1.258111e-001
311222	9.868272e-001	1.596913e-002
313965	9.882621e-001	-1.316579e-002
316708	9.876527e-001	-6.898245e-002
319451	9.875533e-001	-1.048534e-001
322195	9.863610e-001	-2.249262e-001
324938	9.879769e-001	-2.113940e-001
327681	9.868328e-001	-2.150535e-001
330424	9.867757e-001	-3.458887e-001
333167	9.862477e-001	-3.816773e-001
335910	9.862940e-001	-4.249560e-001
338653	9.863772e-001	-4.238218e-001
341397	9.867209e-001	-3.053098e-001
344140	9.871717e-001	-5.278454e-001
346883	9.856562e-001	-4.751013e-001
349626	9.850259e-001	-5.041097e-001
352369	9.859563e-001	-5.141801e-001
355112	9.850696e-001	-3.897321e-001
357855	9.840827e-001	-4.617629e-001
360599	9.861561e-001	-5.032967e-001
363342	9.820154e-001	-4.502245e-001
366085	9.836793e-001	-3.240400e-001
368828	9.839310e-001	-4.082616e-001
371571	9.840528e-001	-2.824654e-001
374314	9.832905e-001	-3.838003e-001
377057	9.841395e-001	-1.117455e-001
379800	9.820904e-001	-2.408968e-001
382544	9.848134e-001	-2.327687e-001
385287	9.852884e-001	-2.097874e-001
388030	9.862759e-001	-1.138461e-001
390773	9.872947e-001	-1.357539e-001
393516	9.901886e-001	-1.102861e-001
396259	9.903771e-001	-2.206749e-001
399002	9.915364e-001	-2.463007e-001
401746	9.890486e-001	-2.900162e-001
404489	9.932035e-001	-1.765139e-001
407232	9.918159e-001	-2.005299e-001
409975	9.915982e-001	-3.198262e-001
412718	9.951650e-001	-3.532022e-001
415461	9.937692e-001	-3.658092e-001
418204	9.937005e-001	-3.104024e-001
420948	9.948862e-001	-4.407370e-001
423691	9.931940e-001	-4.315525e-001
426434	9.978318e-001	-4.709326e-001
429177	9.962475e-001	-4.858082e-001
431920	9.955633e-001	-6.192467e-001
434663	9.968331e-001	-6.323176e-001
437406	9.982444e-001	-5.814853e-001
440150	9.960031e-001	-7.127466e-001
442893	9.974817e-001	-7.565118e-001
445636	9.952975e-001	-7.440956e-001
448379	9.973681e-001	-8.412287e-001
451122	9.957090e-001	-8.795982e-001
453865	9.965385e-001	-9.053251e-001
456608	9.953449e-001	-8.489726e-001
459352	9.949921e-001	-8.860277e-001
462095	9.958004e-001	-9.223924e-001
464838	9.969408e-001	-9.892185e-001
467581	9.956089e-001	-9.693214e-001
470324	9.965109e-001	-1.011275e+000
473067	9.979350e-001	-8.822332e-001
475810	9.969969e-001	-1.034072e+000
478554	9.974633e-001	-1.069508e+000
481297	9.961730e-001	-1.032253e+000
484040	9.972714e-001	-1.064787e+000
486783	9.974036e-001	-1.054779e+000
489526	9.985243e-001	-1.195386e+000
492269	9.966794e-001	-1.210638e+000
495012	9.967798e-001	-1.297972e+000
497756	9.971646e-001	-1.203884e+000
500499	9.966012e-001	-1.279922e+000
503242	9.961706e-001	-1.335346e+000
505985	9.958905e-001	-1.409762e+000
508728	9.974072e-001	-1.410670e+000
511471	9.953022e-001	-1.442691e+000
514214	9.963097e-001	-1.420020e+000
516958	9.941953e-001	-1.502080e+000
519701	9.957358e-001	-1.535301e+000
522444	9.936353e-001	-1.476856e+000
525187	9.952063e-001	-1.604255e+000
527930	9.921395e-001	-1.465602e+000
530673	9.933681e-001	-1.540822e+000
533416	9.925133e-001	-1.475311e+000
536160	9.923083e-001	-1.369450e+000
538903	9.939408e-001	-1.429313e+000
541646	9.928641e-001	-1.467742e+000
544389	9.943610e-001	-1.519387e+000
547132	9.940634e-001	-1.511666e+000
549875	9.964513e-001	-1.495699e+000
552618	9.956787e-001	-1.611783e+000
555362	9.956887e-001	-1.744860e+000
558105	9.941745e-001	-1.749385e+000
560848	9.947709e-001	-1.822404e+000
563591	9.945673e-001	-1.872858e+000
566334	9.924314e-001	-1.897455e+000
569077	9.922409e-001	-1.959371e+000
571820	9.916748e-001	-1.995799e+000
574564	9.913429e-001	-1.959747e+000
577307	9.905676e-001	-2.076513e+000
580050	9.893925e-001	-2.011184e+000
582793	9.896801e-001	-1.909194e+000
585536	9.890231e-001	-2.037589e+000
588279	9.874552e-001	-1.979309e+000
591022	9.853475e-001	-2.150833e+000
593766	9.835899e-001	-2.085398e+000
596509	9.836899e-001	-1.999890e+000
599252	9.819893e-001	-1.955591e+000
601995	9.796262e-001	-2.015452e+000
604738	9.796127e-001	-1.862152e+000
607481	9.780553e-001	-1.788047e+000
610224	9.789373e-001	-1.728327e+000
612968	9.802360e-001	-1.693112e+000
615711	9.811432e-001	-1.521281e+000
618454	9.810814e-001	-1.447188e+000
621197	9.825492e-001	-1.459237e+000
623940	9.821793e-001	-1.418360e+000
626683	9.826166e-001	-1.534931e+000
629426	9.831418e-001	-1.511330e+000
632170	9.840680e-001	-1.499902e+000
634913	9.812589e-001	-1.560351e+000
637656	9.838298e-001	-1.433057e+000
640399	9.835008e-001	-1.375814e+000
643142	9.826860e-001	-1.299318e+000
645885	9.840073e-001	-1.371440e+000
648628	9.854138e-001	-1.283200e+000
651372	9.884196e-001	-1.364112e+000
654115	9.873334e-001	-1.246916e+000
656858	9.885634e-001	-1.428500e+000
659601	9.883957e-001	-1.460211e+000
662344	9.888872e-001	-1.485572e+000
665087	9.897828e-001	-1.409777e+000
667830	9.880089e-001	-1.522437e+000
670574	9.873903e-001	-1.347294e+000
673317	9.880299e-001	-1.536671e+000
676060	9.864253e-001	-1.494684e+000
678803	9.869744e-001	-1.554557e+000
681546	9.881691e-001	-1.429589e+000
684289	9.893012e-001	-1.523974e+000
687032	9.882551e-001	-1.425632e+000
689776	9.886305e-001	-1.403973e+000
692519	9.902442e-001	-1.407186e+000
695262	9.910581e-001	-1.450234e+000
698005	9.916908e-001	-1.467791e+000
700748	9.911830e-001	-1.372190e+000
703491	9.919569e-001	-1.432061e+000
706234	9.923468e-001	-1.512212e+000
708978	9.904180e-001	-1.451420e+000
711721	9.938907e-001	-1.435514e+000
714464	9.939784e-001	-1.535520e+000
717207	9.934178e-001	-1.523551e+000
719950	9.940309e-001	-1.557350e+000
722693	9.949995e-001	-1.644411e+000
725436	9.944545e-001	-1.499935e+000
728180	9.935263e-001	-1.622044e+000
730923	9.957358e-001	-1.690966e+000
733666	9.949889e-001	-1.637150e+000
736409	9.950832e-001	-1.619240e+000
739152	9.930843e-001	-1.637240e+000
741895	9.950838e-001	-1.738707e+000
744638	9.961856e-001	-1.639019e+000
747382	9.978165e-001	-1.753026e+000
750125	9.964899e-001	-1.705133e+000
752868	9.963356e-001	-1.695249e+000
755611	9.964094e-001	-1.744906e+000
758354	9.960014e-001	-1.752853e+000
761097	9.973390e-001	-1.885531e+000
763840	9.966147e-001	-1.943335e+000
766584	9.957668e-001	-2.014684e+000
769327	9.955755e-001	-1.926691e+000
772070	9.983995e-001	-2.009901e+000
774813	9.974269e-001	-1.969941e+000
777556	9.978029e-001	-1.961911e+000
780299	9.968430e-001	-2.076917e+000
783042	9.973217e-001	-2.016443e+000
785786	9.969531e-001	-1.987124e+000
788529	9.983988e-001	-2.020134e+000
791272	9.974074e-001	-2.120797e+000
794015	9.975237e-001	-2.111111e+000
796758	9.971496e-001	-2.138574e+000
799501	9.974523e-001	-2.150901e+000
802244	9.972508e-001	-2.208867e+000
804988	9.982530e-001	-2.289782e+000
807731	9.973676e-001	-2.189855e+000
810474	9.968511e-001	-2.290966e+000
813217	9.992963e-001	-2.341461e+000
815960	9.974244e-001	-2.385205e+000
818703	9.958240e-001	-2.359037e+000
821446	9.960063e-001	-2.410471e+000
824190	9.950921e-001	-2.331296e+000
826933	9.956353e-001	-2.402381e+000
829676	9.965442e-001	-2.476222e+000
832419	9.952234e-001	-2.549190e+000
835162	9.936679e-001	-2.558444e+000
837905	9.936299e-001	-2.397524e+000
840648	9.929035e-001	-2.436332e+000
843392	9.927795e-001	-2.370650e+000
846135	9.914986e-001	-2.294954e+000
848878	9.934557e-001	-2.249272e+000
851621	9.937744e-001	-2.302846e+000
854364	9.953504e-001	-2.364700e+000
857107	9.939791e-001	-2.408254e+000
859850	9.950799e-001	-2.354484e+000
862594	9.958961e-001	-2.383881e+000
865337	9.942608e-001	-2.440713e+000
868080	9.948802e-001	-2.380089e+000
870823	9.956901e-001	-2.349015e+000
873566	9.949641e-001	-2.402018e+000
876309	9.967368e-001	-2.410998e+000
879052	9.961667e-001	-2.516112e+000
881796	9.963936e-001	-2.377652e+000
884539	9.940866e-001	-2.564823e+000
887282	9.948898e-001	-2.453729e+000
890025	9.951708e-001	-2.496658e+000
892768	9.953385e-001	-2.505549e+000
895511	9.937678e-001	-2.501505e+000
898254	9.953753e-001	-2.622995e+000
900998	9.940296e-001	-2.636755e+000
903741	9.936640e-001	-2.555049e+000
906484	9.931647e-001	-2.586569e+000
909227	9.928274e-001	-2.567817e+000
911970	9.938502e-001	-2.518955e+000
914713	9.936414e-001	-2.491086e+000
917456	9.915696e-001	-2.587432e+000
920200	9.930687e-001	-2.532576e+000
922943	9.940672e-001	-2.348368e+000
925686	9.949768e-001	-2.501753e+000
928429	9.975565e-001	-2.453561e+000
931172	9.945872e-001	-2.394637e+000
933915	9.959143e-001	-2.507100e+000
936658	9.954212e-001	-2.624630e+000
939401	9.981049e-001	-2.489404e+000
942145	9.971776e-001	-2.526517e+000
944888	9.954476e-001	-2.548537e+000
947631	9.962340e-001	-2.657083e+000
950374	9.986494e-001	-2.600535e+000
953117	9.986316e-001	-2.727538e+000
955860	9.982595e-001	-2.631066e+000
958603	9.960611e-001	-2.633316e+000
961347	1.000777e+000	-2.633118e+000
964090	9.991770e-001	-2.652846e+000
966833	9.969473e-001	-2.673068e+000
969576	9.979336e-001	-2.785726e+000
972319	9.976525e-001	-2.690971e+000
975062	9.991997e-001	-2.785767e+000
977805	9.982294e-001	-2.736850e+000
980549	9.992678e-001	-2.943809e+000
983292	9.978449e-001	-2.849607e+000
986035	9.984956e-001	-2.884236e+000
988778	9.976419e-001	-2.935169e+000
991521	9.990779e-001	-2.800897e+000
994264	9.973339e-001	-2.894579e+000
997007	9.982482e-001	-2.947385e+000
999751	9.987273e-001	-2.867764e+000
1002494	9.973260e-001	-3.023003e+000
1005237	9.972559e-001	-2.987023e+000
1007980	1.000199e+000	-3.065631e+000
1010723	9.996677e-001	-3.006502e+000
1013466	9.991321e-001	-2.928864e+000
1016209	1.000128e+000	-3.167773e+000
1018953	9.989502e-001	-3.074706e+000
1021696	9.978777e-001	-2.943470e+000
1024439	9.974371e-001	-3.028310e+000
1027182	9.972788e-001	-3.105003e+000
1029925	9.990591e-001	-3.110325e+000
1032668	9.970484e-001	-3.127422e+000
1035411	9.979711e-001	-3.127233e+000
1038155	9.991107e-001	-3.151993e+000
1040898	9.986561e-001	-3.174901e+000
1043641	9.979211e-001	-3.123135e+000
1046384	9.970319e-001	-3.262012e+000
1049127	9.959510e-001	-3.220593e+000
1051870	9.980636e-001	-3.247514e+000
1054613	9.998794e-001	-3.230315e+000
1057357	9.983857e-001	-3.376530e+000
1060100	9.987727e-001	-3.354532e+000
1062843	9.969829e-001	-3.226321e+000
1065586	9.964659e-001	-3.259467e+000
1068329	9.975146e-001	-3.332260e+000
1071072	9.970961e-001	-3.238040e+000
1073815	9.968031e-001	-3.355351e+000
1076559	9.971996e-001	-3.382840e+000
1079302	9.953692e-001	-3.356400e+000
1082045	9.961605e-001	-3.402583e+000
1084788	9.952348e-001	-3.299896e+000
1087531	9.959068e-001	-3.326232e+000
1090274	9.945121e-001	-3.295524e+000
1093017	9.957894e-001	-3.272649e+000
1095761	9.962768e-001	-3.282533e+000
1098504	9.968881e-001	-3.265022e+000
1101247	9.967912e-001	-3.179179e+000
1103990	9.972096e-001	-3.323540e+000
1106733	9.987575e-001	-3.282376e+000
1109476	9.974690e-001	-3.187293e+000
1112219	9.977094e-001	-3.491341e+000
1114963	9.989384e-001	-3.338494e+000
1117706	9.984303e-001	-3.344174e+000
1120449	9.975120e-001	-3.381123e+000
1123192	9.968177e-001	-3.432888e+000
1125935	9.982797e-001	-3.472948e+000
1128678	9.982963e-001	-3.422466e+000
1131421	9.997335e-001	-3.500656e+000
1134165	9.977604e-001	-3.551601e+000
1136908	9.991857e-001	-3.543900e+000
1139651	9.982612e-001	-3.449665e+000
1142394	9.983026e-001	-3.514216e+000
1145137	9.987837e-001	-3.560047e+000
1147880	9.985747e-001	-3.524179e+000
1150623	9.994612e-001	-3.586036e+000
1153367	9.968056e-001	-3.620131e+000
1156110	9.975208e-001	-3.623336e+000
1158853	9.983016e-001	-3.503618e+000
1161596	9.978355e-001	-3.584697e+000
1164339	9.973636e-001	-3.572017e+000
1167082	9.984305e-001	-3.703871e+000
1169825	9.985738e-001	-3.687130e+000
1172569	9.975869e-001	-3.763818e+000
1175312	9.991468e-001	-3.669017e+000
1178055	9.978699e-001	-3.661062e+000
1180798	9.973806e-001	-3.758252e+000
1183541	9.979204e-001	-3.723729e+000
1186284	9.984395e-001	-3.762907e+000
1189027	9.988379e-001	-3.852450e+000
1191771	9.987494e-001	-3.749847e+000
1194514	9.971586e-001	-3.893033e+000
1197257	9.957184e-001	-3.862736e+000
1200000	9.980693e-001	-3.895695e+000
