!Agilent Technologies,E5071C,MY46100265,A.07.02
!Date: Wed Mar 04 14:42:15 2020
!Data & Calibration Information:
!Freq	S11:SOLT1(ON)
# Hz S MA R 50
100000	1.001094e+000	-1.858889e+000
102743	9.972666e-001	-1.811195e+000
105486	9.991701e-001	-2.042787e+000
108229	9.978188e-001	-2.155450e+000
110973	9.972188e-001	-2.292714e+000
113716	9.998966e-001	-2.442107e+000
116459	9.997801e-001	-2.644272e+000
119202	9.950180e-001	-2.848262e+000
121945	9.948652e-001	-2.907689e+000
124688	9.928302e-001	-3.037800e+000
127431	9.942192e-001	-3.361179e+000
130175	9.943646e-001	-3.710749e+000
132918	9.990238e-001	-4.059301e+000
135661	9.949519e-001	-4.760216e+000
138404	9.907836e-001	-5.474490e+000
141147	9.810104e-001	-6.105118e+000
143890	9.687550e-001	-7.181048e+000
146633	9.517309e-001	-8.265097e+000
149377	9.252214e-001	-9.419838e+000
152120	8.767447e-001	-1.078232e+001
154863	8.078213e-001	-1.091552e+001
157606	7.148058e-001	-7.244350e+000
160349	6.697811e-001	3.515555e+000
163092	7.766771e-001	1.393347e+001
165835	9.278757e-001	1.184250e+001
168579	9.576632e-001	7.700916e+000
171322	9.714357e-001	5.382494e+000
174065	9.758528e-001	5.149163e+000
176808	9.851343e-001	4.084542e+000
179551	9.848794e-001	3.605880e+000
182294	9.902697e-001	2.972682e+000
185037	9.865124e-001	2.637065e+000
187781	9.910672e-001	1.978239e+000
190524	9.974610e-001	2.177682e+000
193267	9.924575e-001	1.928760e+000
196010	9.959557e-001	1.396969e+000
198753	9.946647e-001	1.206902e+000
201496	9.948987e-001	9.750137e-001
204239	9.933468e-001	8.127830e-001
206983	9.954759e-001	5.747782e-001
209726	9.959814e-001	3.809610e-001
212469	9.925158e-001	2.717847e-001
215212	9.953444e-001	2.370664e-001
217955	9.937191e-001	2.618289e-001
220698	9.913244e-001	-1.327589e-001
223441	9.916249e-001	-1.427260e-001
226185	9.891201e-001	-2.598966e-001
228928	9.850092e-001	-4.131163e-001
231671	9.814552e-001	-3.344582e-001
234414	9.822788e-001	-9.794141e-002
237157	9.820541e-001	-2.185114e-001
239900	9.834489e-001	-2.671562e-002
242643	9.845543e-001	-6.692689e-002
245387	9.847322e-001	-2.342929e-001
248130	9.836625e-001	-2.667846e-001
250873	9.837238e-001	-3.332936e-001
253616	9.815942e-001	-5.059163e-001
256359	9.770159e-001	-4.743786e-001
259102	9.781177e-001	-3.593052e-001
261845	9.773887e-001	-1.198943e-001
264589	9.780542e-001	-2.588235e-001
267332	9.765715e-001	-1.629579e-001
270075	9.787641e-001	-1.595381e-001
272818	9.760448e-001	-1.857871e-001
275561	9.789345e-001	-1.815315e-001
278304	9.771376e-001	-1.431764e-001
281047	9.781437e-001	-5.004658e-002
283791	9.753733e-001	1.811908e-002
286534	9.789977e-001	3.488200e-002
289277	9.787885e-001	1.489979e-001
292020	9.798516e-001	1.459227e-001
294763	9.793522e-001	2.491199e-001
297506	9.843442e-001	1.603333e-001
300249	9.841758e-001	8.540836e-002
302993	9.850913e-001	5.047973e-002
305736	9.860252e-001	-6.536705e-003
308479	9.841647e-001	1.954989e-002
311222	9.848983e-001	-5.150839e-002
313965	9.869070e-001	-1.115063e-001
316708	9.870597e-001	-1.106487e-001
319451	9.876553e-001	-1.551888e-001
322195	9.846206e-001	-1.690787e-001
324938	9.869506e-001	-1.692397e-001
327681	9.870245e-001	-1.517541e-001
330424	9.865957e-001	-2.942454e-001
333167	9.875784e-001	-3.842120e-001
335910	9.862675e-001	-4.136082e-001
338653	9.873770e-001	-3.779329e-001
341397	9.862784e-001	-3.135866e-001
344140	9.883932e-001	-3.932278e-001
346883	9.860630e-001	-4.053460e-001
349626	9.861796e-001	-5.169891e-001
352369	9.864800e-001	-5.439862e-001
355112	9.851001e-001	-5.397583e-001
357855	9.842400e-001	-3.994306e-001
360599	9.870998e-001	-4.039538e-001
363342	9.846541e-001	-4.350349e-001
366085	9.837571e-001	-3.684248e-001
368828	9.836168e-001	-4.032467e-001
371571	9.839123e-001	-4.646822e-001
374314	9.824190e-001	-2.553120e-001
377057	9.829843e-001	-1.988170e-001
379800	9.824336e-001	-2.069648e-001
382544	9.853554e-001	-2.058233e-001
385287	9.840824e-001	-1.780838e-001
388030	9.869962e-001	-8.646185e-002
390773	9.871104e-001	-1.349985e-001
393516	9.893137e-001	-1.590384e-001
396259	9.886226e-001	-1.668513e-001
399002	9.913661e-001	-2.674601e-001
401746	9.906229e-001	-2.836543e-001
404489	9.930785e-001	-2.178292e-001
407232	9.918689e-001	-1.803494e-001
409975	9.926394e-001	-3.103963e-001
412718	9.949107e-001	-2.636201e-001
415461	9.958596e-001	-4.378646e-001
418204	9.934982e-001	-2.711670e-001
420948	9.948221e-001	-4.449865e-001
423691	9.943654e-001	-3.816112e-001
426434	9.973838e-001	-5.053406e-001
429177	9.972514e-001	-5.262128e-001
431920	9.966858e-001	-5.752760e-001
434663	9.970950e-001	-6.080888e-001
437406	9.983480e-001	-7.345816e-001
440150	9.953785e-001	-6.863113e-001
442893	9.981298e-001	-7.776546e-001
445636	9.971951e-001	-7.732457e-001
448379	9.978544e-001	-8.403782e-001
451122	9.958493e-001	-8.324751e-001
453865	9.962903e-001	-9.053024e-001
456608	9.965785e-001	-8.844964e-001
459352	9.942724e-001	-9.494044e-001
462095	9.959141e-001	-9.155097e-001
464838	9.971350e-001	-9.489875e-001
467581	9.971661e-001	-9.955001e-001
470324	9.967779e-001	-1.002947e+000
473067	9.956366e-001	-9.470368e-001
475810	9.973870e-001	-1.061798e+000
478554	9.994107e-001	-1.083282e+000
481297	9.968422e-001	-1.158905e+000
484040	9.968391e-001	-1.128100e+000
486783	9.980461e-001	-1.099922e+000
489526	9.984501e-001	-1.208973e+000
492269	9.966566e-001	-1.156747e+000
495012	9.964809e-001	-1.302218e+000
497756	9.967848e-001	-1.310091e+000
500499	9.976461e-001	-1.260853e+000
503242	9.962295e-001	-1.338407e+000
505985	9.961477e-001	-1.428797e+000
508728	9.959848e-001	-1.383527e+000
511471	9.955315e-001	-1.366101e+000
514214	9.968248e-001	-1.393069e+000
516958	9.939967e-001	-1.594520e+000
519701	9.952208e-001	-1.444410e+000
522444	9.937544e-001	-1.512677e+000
525187	9.948418e-001	-1.566928e+000
527930	9.922749e-001	-1.475762e+000
530673	9.944062e-001	-1.588500e+000
533416	9.923920e-001	-1.539679e+000
536160	9.926575e-001	-1.499871e+000
538903	9.928351e-001	-1.481136e+000
541646	9.937397e-001	-1.424691e+000
544389	9.942121e-001	-1.478861e+000
547132	9.940053e-001	-1.530735e+000
549875	9.969048e-001	-1.637426e+000
552618	9.946523e-001	-1.674592e+000
555362	9.946680e-001	-1.806559e+000
558105	9.933616e-001	-1.749418e+000
560848	9.952155e-001	-1.864618e+000
563591	9.945000e-001	-2.010595e+000
566334	9.933968e-001	-1.930989e+000
569077	9.932567e-001	-1.976459e+000
571820	9.921066e-001	-1.943739e+000
574564	9.909591e-001	-2.037853e+000
577307	9.909160e-001	-1.971843e+000
580050	9.901237e-001	-2.025882e+000
582793	9.886802e-001	-1.962877e+000
585536	9.881070e-001	-1.991340e+000
588279	9.867842e-001	-2.056838e+000
591022	9.857178e-001	-2.103969e+000
593766	9.826495e-001	-2.101849e+000
596509	9.820200e-001	-2.013372e+000
599252	9.813372e-001	-2.006757e+000
601995	9.794989e-001	-1.968972e+000
604738	9.781120e-001	-1.805073e+000
607481	9.775524e-001	-1.711714e+000
610224	9.778697e-001	-1.660365e+000
612968	9.774412e-001	-1.674215e+000
615711	9.807418e-001	-1.509313e+000
618454	9.823863e-001	-1.553704e+000
621197	9.836101e-001	-1.443245e+000
623940	9.836386e-001	-1.439835e+000
626683	9.825925e-001	-1.570205e+000
629426	9.825306e-001	-1.545995e+000
632170	9.829534e-001	-1.524454e+000
634913	9.832007e-001	-1.487257e+000
637656	9.838373e-001	-1.451452e+000
640399	9.821440e-001	-1.394574e+000
643142	9.826669e-001	-1.332439e+000
645885	9.842472e-001	-1.272405e+000
648628	9.869833e-001	-1.347463e+000
651372	9.873640e-001	-1.362913e+000
654115	9.878977e-001	-1.303813e+000
656858	9.885667e-001	-1.356020e+000
659601	9.896831e-001	-1.442518e+000
662344	9.866767e-001	-1.473306e+000
665087	9.876187e-001	-1.408656e+000
667830	9.881711e-001	-1.446066e+000
670574	9.883654e-001	-1.428819e+000
673317	9.877781e-001	-1.517680e+000
676060	9.863058e-001	-1.416673e+000
678803	9.872574e-001	-1.403129e+000
681546	9.884770e-001	-1.474703e+000
684289	9.881672e-001	-1.453233e+000
687032	9.890869e-001	-1.481457e+000
689776	9.889226e-001	-1.343241e+000
692519	9.904011e-001	-1.482054e+000
695262	9.902035e-001	-1.508995e+000
698005	9.901016e-001	-1.452486e+000
700748	9.918768e-001	-1.505681e+000
703491	9.914060e-001	-1.504515e+000
706234	9.933972e-001	-1.503550e+000
708978	9.920499e-001	-1.369930e+000
711721	9.924992e-001	-1.535269e+000
714464	9.934624e-001	-1.555613e+000
717207	9.948900e-001	-1.535890e+000
719950	9.939026e-001	-1.514485e+000
722693	9.960379e-001	-1.678085e+000
725436	9.940333e-001	-1.458107e+000
728180	9.945481e-001	-1.553243e+000
730923	9.955482e-001	-1.628316e+000
733666	9.963781e-001	-1.648723e+000
736409	9.970762e-001	-1.589804e+000
739152	9.938811e-001	-1.624729e+000
741895	9.961081e-001	-1.807257e+000
744638	9.972129e-001	-1.655086e+000
747382	9.971009e-001	-1.705404e+000
750125	9.963335e-001	-1.750215e+000
752868	9.965224e-001	-1.757984e+000
755611	9.962845e-001	-1.800846e+000
758354	9.965971e-001	-1.799336e+000
761097	9.973695e-001	-1.878322e+000
763840	9.962448e-001	-1.917944e+000
766584	9.970572e-001	-2.046511e+000
769327	9.968326e-001	-2.005562e+000
772070	9.978563e-001	-1.963836e+000
774813	9.984753e-001	-1.996817e+000
777556	9.971307e-001	-1.997611e+000
780299	9.977453e-001	-2.067827e+000
783042	9.974476e-001	-1.957280e+000
785786	9.969142e-001	-2.050551e+000
788529	9.988113e-001	-2.113237e+000
791272	9.979491e-001	-2.090834e+000
794015	9.971992e-001	-2.084361e+000
796758	9.964032e-001	-2.258393e+000
799501	9.969231e-001	-2.217051e+000
802244	9.986536e-001	-2.249577e+000
804988	9.980399e-001	-2.273170e+000
807731	9.972597e-001	-2.230189e+000
810474	9.979134e-001	-2.279759e+000
813217	9.988179e-001	-2.418946e+000
815960	9.972747e-001	-2.345485e+000
818703	9.958689e-001	-2.365702e+000
821446	9.969619e-001	-2.374121e+000
824190	9.969260e-001	-2.377785e+000
826933	9.955246e-001	-2.362494e+000
829676	9.971376e-001	-2.505456e+000
832419	9.941758e-001	-2.555245e+000
835162	9.929507e-001	-2.554832e+000
837905	9.925448e-001	-2.429369e+000
840648	9.926881e-001	-2.427932e+000
843392	9.927195e-001	-2.319238e+000
846135	9.918909e-001	-2.379860e+000
848878	9.943222e-001	-2.345187e+000
851621	9.933185e-001	-2.353359e+000
854364	9.954795e-001	-2.282608e+000
857107	9.935362e-001	-2.426365e+000
859850	9.963063e-001	-2.434924e+000
862594	9.957176e-001	-2.395906e+000
865337	9.945025e-001	-2.426907e+000
868080	9.940208e-001	-2.460379e+000
870823	9.958215e-001	-2.393951e+000
873566	9.963989e-001	-2.475954e+000
876309	9.963507e-001	-2.472527e+000
879052	9.937771e-001	-2.529579e+000
881796	9.970293e-001	-2.455495e+000
884539	9.944179e-001	-2.532521e+000
887282	9.958542e-001	-2.490186e+000
890025	9.949063e-001	-2.518017e+000
892768	9.944964e-001	-2.563168e+000
895511	9.942726e-001	-2.580615e+000
898254	9.953881e-001	-2.598927e+000
900998	9.941915e-001	-2.553003e+000
903741	9.938592e-001	-2.564318e+000
906484	9.925206e-001	-2.575178e+000
909227	9.931494e-001	-2.573205e+000
911970	9.932792e-001	-2.502150e+000
914713	9.942984e-001	-2.608980e+000
917456	9.916203e-001	-2.609454e+000
920200	9.933139e-001	-2.535884e+000
922943	9.952623e-001	-2.441424e+000
925686	9.943452e-001	-2.549381e+000
928429	9.957272e-001	-2.479322e+000
931172	9.944429e-001	-2.486742e+000
933915	9.958435e-001	-2.484627e+000
936658	9.965953e-001	-2.576570e+000
939401	9.978525e-001	-2.465417e+000
942145	9.973716e-001	-2.629240e+000
944888	9.982571e-001	-2.552220e+000
947631	9.959558e-001	-2.632737e+000
950374	9.986446e-001	-2.587260e+000
953117	9.985522e-001	-2.701977e+000
955860	9.977453e-001	-2.730985e+000
958603	9.969503e-001	-2.734755e+000
961347	9.990838e-001	-2.660614e+000
964090	9.977143e-001	-2.700359e+000
966833	9.982057e-001	-2.685466e+000
969576	9.973368e-001	-2.820590e+000
972319	9.987144e-001	-2.720415e+000
975062	9.999630e-001	-2.778537e+000
977805	9.978831e-001	-2.814163e+000
980549	9.995375e-001	-2.892092e+000
983292	9.977350e-001	-2.831495e+000
986035	9.990462e-001	-2.908808e+000
988778	9.972345e-001	-2.934449e+000
991521	9.987936e-001	-2.868637e+000
994264	9.979582e-001	-2.866268e+000
997007	9.987930e-001	-2.933744e+000
999751	9.984978e-001	-2.848495e+000
1002494	9.991531e-001	-3.002061e+000
1005237	9.970456e-001	-3.024557e+000
1007980	9.989195e-001	-3.050128e+000
1010723	1.000666e+000	-3.035961e+000
1013466	9.983260e-001	-3.021472e+000
1016209	9.998033e-001	-3.080976e+000
1018953	9.982532e-001	-3.102284e+000
1021696	9.975186e-001	-3.031897e+000
1024439	9.971762e-001	-3.015934e+000
1027182	9.989778e-001	-3.111831e+000
1029925	9.994996e-001	-3.078043e+000
1032668	9.968417e-001	-3.097075e+000
1035411	9.984418e-001	-3.196721e+000
1038155	9.991695e-001	-3.167184e+000
1040898	9.997726e-001	-3.179345e+000
1043641	9.975259e-001	-3.151144e+000
1046384	9.977691e-001	-3.185392e+000
1049127	9.978099e-001	-3.230988e+000
1051870	9.983011e-001	-3.337076e+000
1054613	9.986745e-001	-3.303097e+000
1057357	9.995781e-001	-3.424923e+000
1060100	9.981124e-001	-3.355434e+000
1062843	9.976989e-001	-3.294339e+000
1065586	9.960530e-001	-3.309932e+000
1068329	9.967146e-001	-3.359980e+000
1071072	9.969235e-001	-3.304005e+000
1073815	9.962299e-001	-3.352806e+000
1076559	9.965187e-001	-3.447245e+000
1079302	9.969854e-001	-3.360872e+000
1082045	9.973402e-001	-3.398653e+000
1084788	9.950969e-001	-3.355114e+000
1087531	9.956260e-001	-3.430318e+000
1090274	9.940104e-001	-3.386098e+000
1093017	9.956981e-001	-3.330093e+000
1095761	9.966263e-001	-3.249960e+000
1098504	9.968936e-001	-3.298768e+000
1101247	9.975431e-001	-3.294091e+000
1103990	9.958202e-001	-3.375620e+000
1106733	9.987050e-001	-3.309245e+000
1109476	9.971934e-001	-3.254479e+000
1112219	9.975999e-001	-3.466463e+000
1114963	9.978497e-001	-3.383245e+000
1117706	9.993971e-001	-3.429233e+000
1120449	9.976335e-001	-3.366447e+000
1123192	9.975180e-001	-3.447945e+000
1125935	9.984872e-001	-3.516391e+000
1128678	9.986294e-001	-3.497747e+000
1131421	9.997181e-001	-3.503852e+000
1134165	9.977824e-001	-3.540288e+000
1136908	9.998591e-001	-3.601347e+000
1139651	9.979777e-001	-3.487986e+000
1142394	9.988403e-001	-3.556560e+000
1145137	9.973614e-001	-3.556261e+000
1147880	9.980345e-001	-3.604040e+000
1150623	9.982375e-001	-3.543997e+000
1153367	9.970447e-001	-3.589020e+000
1156110	9.970723e-001	-3.549815e+000
1158853	9.987664e-001	-3.534016e+000
1161596	9.987435e-001	-3.677515e+000
1164339	1.000055e+000	-3.611665e+000
1167082	9.993495e-001	-3.613920e+000
1169825	9.991340e-001	-3.684027e+000
1172569	9.971844e-001	-3.728389e+000
1175312	9.984316e-001	-3.735909e+000
1178055	9.974319e-001	-3.628071e+000
1180798	9.991002e-001	-3.674349e+000
1183541	9.974032e-001	-3.745645e+000
1186284	9.983222e-001	-3.868589e+000
1189027	9.974579e-001	-3.829261e+000
1191771	9.974901e-001	-3.762747e+000
1194514	9.970454e-001	-3.924887e+000
1197257	9.966822e-001	-3.868833e+000
1200000	9.985751e-001	-3.918220e+000
