!Agilent Technologies,E5071C,MY46100265,A.07.02
!Date: Wed Mar 04 14:34:05 2020
!Data & Calibration Information:
!Freq	S11:SOLT1(ON)
# Hz S MA R 50
100000	9.966824e-001	-1.928266e+000
102743	9.934006e-001	-1.992039e+000
105486	9.945119e-001	-2.058441e+000
108229	9.961343e-001	-2.108571e+000
110973	9.938210e-001	-2.256928e+000
113716	9.944815e-001	-2.426866e+000
116459	9.945044e-001	-2.561121e+000
119202	9.940014e-001	-2.800890e+000
121945	9.907771e-001	-2.945814e+000
124688	9.889392e-001	-3.091739e+000
127431	9.880873e-001	-3.308589e+000
130175	9.883540e-001	-3.546383e+000
132918	9.859940e-001	-3.598198e+000
135661	9.849069e-001	-4.230104e+000
138404	9.847161e-001	-4.485335e+000
141147	9.812382e-001	-5.152893e+000
143890	9.714253e-001	-5.770312e+000
146633	9.607761e-001	-6.438516e+000
149377	9.430536e-001	-7.238694e+000
152120	9.232797e-001	-7.929627e+000
154863	8.923912e-001	-8.559659e+000
157606	8.389544e-001	-8.391067e+000
160349	7.896185e-001	-6.251454e+000
163092	7.446505e-001	-1.035536e+000
165835	7.806567e-001	6.074262e+000
168579	8.615597e-001	8.043866e+000
171322	9.071625e-001	7.075982e+000
174065	9.482354e-001	4.656322e+000
176808	9.566948e-001	5.150137e+000
179551	9.648390e-001	4.754603e+000
182294	9.724326e-001	4.020957e+000
185037	9.782079e-001	3.061651e+000
187781	9.824488e-001	2.469947e+000
190524	9.806519e-001	2.374705e+000
193267	9.867974e-001	2.305700e+000
196010	9.853255e-001	1.744985e+000
198753	9.882385e-001	1.689569e+000
201496	9.889335e-001	1.129790e+000
204239	9.930613e-001	9.813613e-001
206983	9.947674e-001	8.840182e-001
209726	9.959138e-001	6.457064e-001
212469	9.929299e-001	5.353876e-001
215212	9.937107e-001	3.605005e-001
217955	9.899059e-001	3.422184e-001
220698	9.911553e-001	3.095515e-001
223441	9.907920e-001	2.856706e-003
226185	9.906522e-001	9.279286e-003
228928	9.909686e-001	-1.740478e-001
231671	9.918681e-001	-3.196338e-001
234414	9.931155e-001	-2.752254e-001
237157	9.902701e-001	-5.812371e-001
239900	9.914464e-001	-6.391879e-001
242643	9.904163e-001	-6.876418e-001
245387	9.904473e-001	-8.207396e-001
248130	9.895149e-001	-8.992123e-001
250873	9.904073e-001	-9.969502e-001
253616	9.898704e-001	-1.253803e+000
256359	9.888657e-001	-1.411361e+000
259102	9.873916e-001	-1.570868e+000
261845	9.844672e-001	-1.690113e+000
264589	9.820880e-001	-2.092660e+000
267332	9.763944e-001	-2.118231e+000
270075	9.708847e-001	-2.354248e+000
272818	9.624257e-001	-2.462638e+000
275561	9.521535e-001	-2.531269e+000
278304	9.393885e-001	-2.117975e+000
281047	9.307093e-001	-1.251560e+000
283791	9.295827e-001	-1.687135e-001
286534	9.394551e-001	6.696923e-001
289277	9.543020e-001	1.068957e+000
292020	9.644810e-001	8.707282e-001
294763	9.683143e-001	7.821998e-001
297506	9.720081e-001	5.971400e-001
300249	9.743228e-001	4.636116e-001
302993	9.761392e-001	3.226727e-001
305736	9.779577e-001	2.710363e-001
308479	9.801981e-001	1.301352e-001
311222	9.806346e-001	-1.180699e-001
313965	9.815740e-001	-2.046784e-001
316708	9.803907e-001	-2.404769e-001
319451	9.799442e-001	-3.154186e-001
322195	9.778978e-001	-2.723174e-001
324938	9.784344e-001	-3.462784e-001
327681	9.787714e-001	-3.818527e-001
330424	9.800208e-001	-5.039097e-001
333167	9.821944e-001	-6.067450e-001
335910	9.808178e-001	-7.473804e-001
338653	9.781662e-001	-7.824855e-001
341397	9.776962e-001	-7.920392e-001
344140	9.745442e-001	-9.915272e-001
346883	9.715892e-001	-9.325765e-001
349626	9.669599e-001	-8.986654e-001
352369	9.653493e-001	-5.145332e-001
355112	9.647975e-001	-7.769386e-002
357855	9.678769e-001	1.137315e-001
360599	9.745849e-001	2.180161e-001
363342	9.765729e-001	7.153935e-002
366085	9.784191e-001	5.662822e-002
368828	9.817400e-001	-1.298433e-001
371571	9.816709e-001	-1.637587e-001
374314	9.800482e-001	-1.452758e-001
377057	9.844162e-001	-1.317461e-001
379800	9.823050e-001	-1.941483e-001
382544	9.848950e-001	-2.303466e-001
385287	9.832690e-001	-2.613210e-001
388030	9.837889e-001	-2.651521e-001
390773	9.862750e-001	-3.341093e-001
393516	9.880245e-001	-3.614480e-001
396259	9.856260e-001	-4.328643e-001
399002	9.894226e-001	-5.208366e-001
401746	9.865012e-001	-5.230552e-001
404489	9.905573e-001	-4.614281e-001
407232	9.889076e-001	-5.074460e-001
409975	9.891106e-001	-6.172358e-001
412718	9.896331e-001	-4.953800e-001
415461	9.912927e-001	-6.344471e-001
418204	9.902073e-001	-6.346253e-001
420948	9.907014e-001	-6.573159e-001
423691	9.896128e-001	-7.393508e-001
426434	9.927909e-001	-8.894826e-001
429177	9.920077e-001	-9.489024e-001
431920	9.912972e-001	-9.177471e-001
434663	9.915738e-001	-1.010636e+000
437406	9.919773e-001	-9.611369e-001
440150	9.895894e-001	-1.110175e+000
442893	9.920818e-001	-1.102617e+000
445636	9.908638e-001	-1.096550e+000
448379	9.914266e-001	-1.181053e+000
451122	9.886930e-001	-1.301955e+000
453865	9.870448e-001	-1.265249e+000
456608	9.875414e-001	-1.148822e+000
459352	9.875830e-001	-1.148117e+000
462095	9.892018e-001	-1.200308e+000
464838	9.910627e-001	-1.228148e+000
467581	9.903787e-001	-1.271841e+000
470324	9.897851e-001	-1.255718e+000
473067	9.902002e-001	-1.279096e+000
475810	9.927066e-001	-1.424759e+000
478554	9.914313e-001	-1.320550e+000
481297	9.908611e-001	-1.386252e+000
484040	9.911437e-001	-1.461570e+000
486783	9.909286e-001	-1.447149e+000
489526	9.924737e-001	-1.424899e+000
492269	9.895008e-001	-1.551030e+000
495012	9.905866e-001	-1.628407e+000
497756	9.906337e-001	-1.609890e+000
500499	9.911225e-001	-1.653018e+000
503242	9.911294e-001	-1.776704e+000
505985	9.895736e-001	-1.867215e+000
508728	9.881638e-001	-1.838049e+000
511471	9.879083e-001	-1.835925e+000
514214	9.899536e-001	-1.833986e+000
516958	9.871817e-001	-1.952222e+000
519701	9.894714e-001	-1.895711e+000
522444	9.870609e-001	-1.976509e+000
525187	9.872868e-001	-2.010458e+000
527930	9.864947e-001	-1.989807e+000
530673	9.875522e-001	-2.070795e+000
533416	9.853161e-001	-2.053053e+000
536160	9.853660e-001	-2.011879e+000
538903	9.858944e-001	-2.164558e+000
541646	9.838225e-001	-2.099097e+000
544389	9.849112e-001	-2.070249e+000
547132	9.837475e-001	-2.193107e+000
549875	9.858915e-001	-2.203152e+000
552618	9.842680e-001	-2.230840e+000
555362	9.846553e-001	-2.376526e+000
558105	9.837811e-001	-2.294379e+000
560848	9.839935e-001	-2.327897e+000
563591	9.835793e-001	-2.542377e+000
566334	9.826160e-001	-2.680359e+000
569077	9.825450e-001	-2.810574e+000
571820	9.795958e-001	-2.928371e+000
574564	9.782560e-001	-3.035254e+000
577307	9.749535e-001	-3.152103e+000
580050	9.690120e-001	-3.239553e+000
582793	9.626580e-001	-3.113577e+000
585536	9.579678e-001	-3.035667e+000
588279	9.518790e-001	-2.665612e+000
591022	9.495116e-001	-2.412113e+000
593766	9.480881e-001	-1.941042e+000
596509	9.495400e-001	-1.648043e+000
599252	9.504679e-001	-1.270308e+000
601995	9.541824e-001	-1.010902e+000
604738	9.581942e-001	-7.965234e-001
607481	9.610467e-001	-7.758829e-001
610224	9.662511e-001	-6.919235e-001
612968	9.669039e-001	-7.949602e-001
615711	9.716018e-001	-8.212506e-001
618454	9.743982e-001	-7.391972e-001
621197	9.734955e-001	-9.192550e-001
623940	9.751781e-001	-9.329017e-001
626683	9.747110e-001	-9.541570e-001
629426	9.760976e-001	-1.013314e+000
632170	9.791785e-001	-1.104324e+000
634913	9.773922e-001	-1.058971e+000
637656	9.793676e-001	-1.032712e+000
640399	9.781360e-001	-1.006036e+000
643142	9.788411e-001	-9.979577e-001
645885	9.797085e-001	-9.871552e-001
648628	9.834199e-001	-1.004514e+000
651372	9.837176e-001	-9.935271e-001
654115	9.827511e-001	-1.046520e+000
656858	9.854660e-001	-1.203439e+000
659601	9.864647e-001	-1.129067e+000
662344	9.852125e-001	-1.265172e+000
665087	9.880578e-001	-1.281821e+000
667830	9.872727e-001	-1.358461e+000
670574	9.882545e-001	-1.359123e+000
673317	9.878797e-001	-1.445906e+000
676060	9.873851e-001	-1.393052e+000
678803	9.882341e-001	-1.551982e+000
681546	9.888046e-001	-1.502304e+000
684289	9.883023e-001	-1.546095e+000
687032	9.886342e-001	-1.600093e+000
689776	9.883641e-001	-1.578535e+000
692519	9.894585e-001	-1.609507e+000
695262	9.899405e-001	-1.635308e+000
698005	9.888731e-001	-1.742290e+000
700748	9.875608e-001	-1.750907e+000
703491	9.883616e-001	-1.713412e+000
706234	9.901435e-001	-1.730183e+000
708978	9.893339e-001	-1.702353e+000
711721	9.898215e-001	-1.760717e+000
714464	9.909947e-001	-1.879400e+000
717207	9.905171e-001	-1.748572e+000
719950	9.890956e-001	-1.848873e+000
722693	9.899935e-001	-1.897092e+000
725436	9.909901e-001	-1.798602e+000
728180	9.878865e-001	-1.857326e+000
730923	9.905988e-001	-1.839065e+000
733666	9.918673e-001	-1.823559e+000
736409	9.894415e-001	-1.915077e+000
739152	9.910857e-001	-1.925220e+000
741895	9.909599e-001	-2.099882e+000
744638	9.919076e-001	-1.970777e+000
747382	9.920662e-001	-1.969122e+000
750125	9.908194e-001	-1.984280e+000
752868	9.901800e-001	-2.106416e+000
755611	9.917684e-001	-2.069401e+000
758354	9.907881e-001	-2.062874e+000
761097	9.925883e-001	-2.148110e+000
763840	9.902437e-001	-2.213740e+000
766584	9.902051e-001	-2.244219e+000
769327	9.905313e-001	-2.207144e+000
772070	9.912674e-001	-2.362590e+000
774813	9.926263e-001	-2.279755e+000
777556	9.922023e-001	-2.340454e+000
780299	9.907780e-001	-2.409158e+000
783042	9.920173e-001	-2.394765e+000
785786	9.888346e-001	-2.401755e+000
788529	9.918012e-001	-2.392326e+000
791272	9.913210e-001	-2.440986e+000
794015	9.896558e-001	-2.500475e+000
796758	9.899911e-001	-2.483037e+000
799501	9.899145e-001	-2.518567e+000
802244	9.898656e-001	-2.512605e+000
804988	9.910607e-001	-2.561632e+000
807731	9.896280e-001	-2.553040e+000
810474	9.883032e-001	-2.601833e+000
813217	9.895503e-001	-2.588343e+000
815960	9.880917e-001	-2.466663e+000
818703	9.872845e-001	-2.595060e+000
821446	9.885543e-001	-2.560001e+000
824190	9.887093e-001	-2.420759e+000
826933	9.890685e-001	-2.539211e+000
829676	9.878155e-001	-2.515492e+000
832419	9.875811e-001	-2.630419e+000
835162	9.866052e-001	-2.534464e+000
837905	9.895033e-001	-2.521703e+000
840648	9.885799e-001	-2.587198e+000
843392	9.887577e-001	-2.552863e+000
846135	9.873108e-001	-2.672482e+000
848878	9.879976e-001	-2.657159e+000
851621	9.884460e-001	-2.609133e+000
854364	9.887168e-001	-2.651586e+000
857107	9.874179e-001	-2.612573e+000
859850	9.893437e-001	-2.628881e+000
862594	9.885002e-001	-2.666343e+000
865337	9.895289e-001	-2.678587e+000
868080	9.880647e-001	-2.659327e+000
870823	9.889402e-001	-2.662987e+000
873566	9.877692e-001	-2.687355e+000
876309	9.912714e-001	-2.677791e+000
879052	9.876909e-001	-2.726747e+000
881796	9.902975e-001	-2.633864e+000
884539	9.890112e-001	-2.711080e+000
887282	9.892021e-001	-2.635730e+000
890025	9.898196e-001	-2.653936e+000
892768	9.885113e-001	-2.707482e+000
895511	9.890588e-001	-2.783491e+000
898254	9.903737e-001	-2.801417e+000
900998	9.897743e-001	-2.826297e+000
903741	9.897940e-001	-2.783395e+000
906484	9.886584e-001	-2.731673e+000
909227	9.902135e-001	-2.723378e+000
911970	9.913516e-001	-2.735536e+000
914713	9.910916e-001	-2.828792e+000
917456	9.900662e-001	-2.891966e+000
920200	9.906755e-001	-2.899691e+000
922943	9.919884e-001	-2.804185e+000
925686	9.901620e-001	-2.953692e+000
928429	9.926639e-001	-2.806766e+000
931172	9.900854e-001	-2.853848e+000
933915	9.909379e-001	-2.902473e+000
936658	9.922232e-001	-2.998698e+000
939401	9.924159e-001	-2.962343e+000
942145	9.925057e-001	-2.948627e+000
944888	9.914973e-001	-3.039813e+000
947631	9.909990e-001	-2.973391e+000
950374	9.935918e-001	-2.978933e+000
953117	9.917071e-001	-3.082682e+000
955860	9.907203e-001	-3.028949e+000
958603	9.928019e-001	-3.054027e+000
961347	9.925933e-001	-3.002633e+000
964090	9.925467e-001	-3.007331e+000
966833	9.914482e-001	-3.067154e+000
969576	9.922198e-001	-3.051922e+000
972319	9.907538e-001	-3.095603e+000
975062	9.941448e-001	-3.165022e+000
977805	9.932074e-001	-3.182472e+000
980549	9.928082e-001	-3.249222e+000
983292	9.920598e-001	-3.204012e+000
986035	9.940114e-001	-3.249887e+000
988778	9.918126e-001	-3.331342e+000
991521	9.925974e-001	-3.243986e+000
994264	9.922260e-001	-3.271094e+000
997007	9.920284e-001	-3.376203e+000
999751	9.928061e-001	-3.281460e+000
1002494	9.918766e-001	-3.481295e+000
1005237	9.912043e-001	-3.409281e+000
1007980	9.940925e-001	-3.512723e+000
1010723	9.928788e-001	-3.424221e+000
1013466	9.913956e-001	-3.429034e+000
1016209	9.909212e-001	-3.552893e+000
1018953	9.905617e-001	-3.437733e+000
1021696	9.919475e-001	-3.381114e+000
1024439	9.904722e-001	-3.454842e+000
1027182	9.909223e-001	-3.471831e+000
1029925	9.922307e-001	-3.497509e+000
1032668	9.906012e-001	-3.583744e+000
1035411	9.922845e-001	-3.524526e+000
1038155	9.919271e-001	-3.545289e+000
1040898	9.914809e-001	-3.647477e+000
1043641	9.898501e-001	-3.488859e+000
1046384	9.905611e-001	-3.619770e+000
1049127	9.893300e-001	-3.645902e+000
1051870	9.915899e-001	-3.625560e+000
1054613	9.924024e-001	-3.577982e+000
1057357	9.907676e-001	-3.730395e+000
1060100	9.911479e-001	-3.701567e+000
1062843	9.892568e-001	-3.597611e+000
1065586	9.896981e-001	-3.617792e+000
1068329	9.911404e-001	-3.726766e+000
1071072	9.896191e-001	-3.673582e+000
1073815	9.889218e-001	-3.691134e+000
1076559	9.906727e-001	-3.810177e+000
1079302	9.910858e-001	-3.737147e+000
1082045	9.920585e-001	-3.847687e+000
1084788	9.897629e-001	-3.770592e+000
1087531	9.892353e-001	-3.849191e+000
1090274	9.882765e-001	-3.817224e+000
1093017	9.897186e-001	-3.794798e+000
1095761	9.903102e-001	-3.793799e+000
1098504	9.895137e-001	-3.771960e+000
1101247	9.900742e-001	-3.784692e+000
1103990	9.894189e-001	-3.797771e+000
1106733	9.910660e-001	-3.903645e+000
1109476	9.899943e-001	-3.742883e+000
1112219	9.916265e-001	-3.841062e+000
1114963	9.902770e-001	-3.677057e+000
1117706	9.914089e-001	-3.820923e+000
1120449	9.898666e-001	-3.791527e+000
1123192	9.884237e-001	-3.914423e+000
1125935	9.897302e-001	-3.855476e+000
1128678	9.898517e-001	-3.913024e+000
1131421	9.915508e-001	-3.905640e+000
1134165	9.897728e-001	-3.992928e+000
1136908	9.911548e-001	-3.871364e+000
1139651	9.888893e-001	-3.825358e+000
1142394	9.902191e-001	-3.925358e+000
1145137	9.910540e-001	-3.882119e+000
1147880	9.909143e-001	-3.892407e+000
1150623	9.912123e-001	-3.953930e+000
1153367	9.907043e-001	-3.925077e+000
1156110	9.922346e-001	-3.916066e+000
1158853	9.910125e-001	-3.914666e+000
1161596	9.912296e-001	-3.971039e+000
1164339	9.929152e-001	-4.049928e+000
1167082	9.922618e-001	-4.035209e+000
1169825	9.915531e-001	-4.132185e+000
1172569	9.898989e-001	-4.093016e+000
1175312	9.927611e-001	-4.105958e+000
1178055	9.910839e-001	-4.065774e+000
1180798	9.916852e-001	-4.161283e+000
1183541	9.917524e-001	-4.133286e+000
1186284	9.909067e-001	-4.223761e+000
1189027	9.919804e-001	-4.285836e+000
1191771	9.923134e-001	-4.290404e+000
1194514	9.907332e-001	-4.389077e+000
1197257	9.904569e-001	-4.266847e+000
1200000	9.910915e-001	-4.305523e+000
