!Agilent Technologies,E5071C,MY46100265,A.07.02
!Date: Wed Mar 04 14:33:10 2020
!Data & Calibration Information:
!Freq	S11:SOLT1(ON)
# Hz S MA R 50
100000	9.971684e-001	-1.968084e+000
102743	9.949168e-001	-1.873262e+000
105486	9.963671e-001	-2.067994e+000
108229	9.946437e-001	-2.138420e+000
110973	9.924673e-001	-2.283375e+000
113716	9.967031e-001	-2.453854e+000
116459	9.963469e-001	-2.654474e+000
119202	9.931088e-001	-2.793879e+000
121945	9.919068e-001	-2.911488e+000
124688	9.897937e-001	-3.211536e+000
127431	9.908825e-001	-3.207055e+000
130175	9.910093e-001	-3.627646e+000
132918	9.877761e-001	-3.621729e+000
135661	9.884589e-001	-4.350282e+000
138404	9.853866e-001	-4.619939e+000
141147	9.813888e-001	-5.124763e+000
143890	9.723531e-001	-5.885768e+000
146633	9.616955e-001	-6.503326e+000
149377	9.468106e-001	-7.183883e+000
152120	9.229263e-001	-8.219132e+000
154863	8.910667e-001	-8.777457e+000
157606	8.403743e-001	-8.580610e+000
160349	7.799855e-001	-6.525008e+000
163092	7.447667e-001	-5.813320e-001
165835	7.773311e-001	5.947665e+000
168579	8.607823e-001	8.493471e+000
171322	9.237046e-001	7.164595e+000
174065	9.245828e-001	5.278380e+000
176808	9.557333e-001	4.028104e+000
179551	9.597648e-001	4.673436e+000
182294	9.660691e-001	3.279832e+000
185037	9.804543e-001	2.546528e+000
187781	9.835674e-001	2.763594e+000
190524	9.791173e-001	2.417058e+000
193267	9.880946e-001	2.107609e+000
196010	9.862275e-001	1.827020e+000
198753	9.851270e-001	1.619738e+000
201496	9.912820e-001	1.064721e+000
204239	9.909009e-001	1.219100e+000
206983	9.872019e-001	8.936373e-001
209726	9.887731e-001	7.571866e-001
212469	9.910848e-001	6.940797e-001
215212	9.934024e-001	3.718531e-001
217955	9.901262e-001	2.255196e-001
220698	9.924353e-001	1.466780e-001
223441	9.915825e-001	8.668381e-002
226185	9.910173e-001	-1.819516e-002
228928	9.917179e-001	-2.355504e-001
231671	9.915988e-001	-4.202609e-001
234414	9.923815e-001	-4.142325e-001
237157	9.917637e-001	-5.607587e-001
239900	9.903939e-001	-5.108364e-001
242643	9.900649e-001	-7.028912e-001
245387	9.901848e-001	-7.797095e-001
248130	9.888451e-001	-9.524181e-001
250873	9.889783e-001	-9.640570e-001
253616	9.882125e-001	-1.169296e+000
256359	9.878391e-001	-1.329994e+000
259102	9.881194e-001	-1.598268e+000
261845	9.840924e-001	-1.686916e+000
264589	9.817884e-001	-2.055375e+000
267332	9.785421e-001	-2.132614e+000
270075	9.712047e-001	-2.402599e+000
272818	9.628750e-001	-2.531129e+000
275561	9.542467e-001	-2.626394e+000
278304	9.397540e-001	-2.152230e+000
281047	9.270450e-001	-1.477305e+000
283791	9.248823e-001	-1.351226e-001
286534	9.355360e-001	8.049022e-001
289277	9.503133e-001	1.268002e+000
292020	9.626445e-001	1.002690e+000
294763	9.668595e-001	8.459167e-001
297506	9.722868e-001	6.233388e-001
300249	9.748395e-001	4.496637e-001
302993	9.752386e-001	3.691456e-001
305736	9.791796e-001	1.831669e-001
308479	9.798741e-001	1.341623e-001
311222	9.799034e-001	-2.267990e-002
313965	9.812366e-001	-9.916713e-002
316708	9.807109e-001	-2.998566e-001
319451	9.782248e-001	-3.152157e-001
322195	9.780809e-001	-2.865557e-001
324938	9.796831e-001	-2.865794e-001
327681	9.814387e-001	-3.940269e-001
330424	9.804701e-001	-5.219593e-001
333167	9.818644e-001	-5.654160e-001
335910	9.798047e-001	-6.927891e-001
338653	9.788568e-001	-7.734193e-001
341397	9.770970e-001	-8.501087e-001
344140	9.744671e-001	-9.820112e-001
346883	9.712317e-001	-9.075501e-001
349626	9.670792e-001	-8.730251e-001
352369	9.654719e-001	-6.076203e-001
355112	9.636463e-001	-1.206266e-001
357855	9.678558e-001	1.034791e-001
360599	9.756290e-001	2.387452e-001
363342	9.781994e-001	1.333494e-001
366085	9.792739e-001	1.283537e-001
368828	9.803607e-001	-6.532206e-002
371571	9.813501e-001	-1.188110e-001
374314	9.822880e-001	-8.156646e-002
377057	9.828447e-001	-9.575463e-002
379800	9.819416e-001	-1.689067e-001
382544	9.851532e-001	-2.478729e-001
385287	9.839607e-001	-1.811747e-001
388030	9.835864e-001	-1.913590e-001
390773	9.876105e-001	-2.976482e-001
393516	9.889673e-001	-3.078374e-001
396259	9.874634e-001	-3.383504e-001
399002	9.880807e-001	-4.129451e-001
401746	9.876318e-001	-6.396455e-001
404489	9.901604e-001	-4.586300e-001
407232	9.886581e-001	-4.746425e-001
409975	9.892145e-001	-6.561162e-001
412718	9.917200e-001	-5.202933e-001
415461	9.903151e-001	-5.680041e-001
418204	9.906184e-001	-5.844197e-001
420948	9.903589e-001	-7.057205e-001
423691	9.892793e-001	-8.513760e-001
426434	9.928003e-001	-8.348032e-001
429177	9.929640e-001	-8.854261e-001
431920	9.909539e-001	-9.521184e-001
434663	9.926672e-001	-9.814997e-001
437406	9.932457e-001	-9.220553e-001
440150	9.898034e-001	-1.144822e+000
442893	9.921349e-001	-1.160675e+000
445636	9.902200e-001	-1.164717e+000
448379	9.902312e-001	-1.190147e+000
451122	9.899203e-001	-1.250613e+000
453865	9.878287e-001	-1.261394e+000
456608	9.871117e-001	-1.114107e+000
459352	9.887593e-001	-1.137869e+000
462095	9.902851e-001	-1.161100e+000
464838	9.904553e-001	-1.249893e+000
467581	9.906731e-001	-1.303770e+000
470324	9.908402e-001	-1.300013e+000
473067	9.920380e-001	-1.231429e+000
475810	9.921814e-001	-1.404243e+000
478554	9.915552e-001	-1.355912e+000
481297	9.911446e-001	-1.408275e+000
484040	9.908550e-001	-1.520912e+000
486783	9.909413e-001	-1.536187e+000
489526	9.930894e-001	-1.577459e+000
492269	9.904004e-001	-1.520309e+000
495012	9.909315e-001	-1.547824e+000
497756	9.898994e-001	-1.611424e+000
500499	9.920475e-001	-1.754943e+000
503242	9.901565e-001	-1.704562e+000
505985	9.898806e-001	-1.832648e+000
508728	9.890408e-001	-1.825382e+000
511471	9.889208e-001	-1.864999e+000
514214	9.905659e-001	-1.777478e+000
516958	9.885198e-001	-1.970858e+000
519701	9.886777e-001	-1.899529e+000
522444	9.885727e-001	-1.957856e+000
525187	9.884690e-001	-2.029478e+000
527930	9.863495e-001	-2.069995e+000
530673	9.876416e-001	-2.029785e+000
533416	9.871976e-001	-2.015613e+000
536160	9.837664e-001	-2.088451e+000
538903	9.850220e-001	-2.000868e+000
541646	9.855985e-001	-2.111963e+000
544389	9.858346e-001	-2.212811e+000
547132	9.841088e-001	-2.168155e+000
549875	9.856019e-001	-2.105842e+000
552618	9.854710e-001	-2.209574e+000
555362	9.843200e-001	-2.354174e+000
558105	9.848047e-001	-2.229856e+000
560848	9.839994e-001	-2.351597e+000
563591	9.833705e-001	-2.563480e+000
566334	9.831531e-001	-2.742564e+000
569077	9.823908e-001	-2.761616e+000
571820	9.811087e-001	-2.941225e+000
574564	9.788066e-001	-3.080174e+000
577307	9.735246e-001	-3.089942e+000
580050	9.686537e-001	-3.181182e+000
582793	9.629385e-001	-3.063231e+000
585536	9.572887e-001	-3.013942e+000
588279	9.505840e-001	-2.673856e+000
591022	9.480490e-001	-2.376397e+000
593766	9.470761e-001	-1.976025e+000
596509	9.488426e-001	-1.553884e+000
599252	9.481452e-001	-1.224792e+000
601995	9.541567e-001	-9.767912e-001
604738	9.587911e-001	-7.938521e-001
607481	9.600154e-001	-7.634292e-001
610224	9.662945e-001	-6.494338e-001
612968	9.693874e-001	-8.816759e-001
615711	9.714316e-001	-7.983749e-001
618454	9.735690e-001	-8.249188e-001
621197	9.739690e-001	-8.483888e-001
623940	9.760184e-001	-9.767098e-001
626683	9.752862e-001	-9.392457e-001
629426	9.771428e-001	-1.001131e+000
632170	9.781263e-001	-1.113683e+000
634913	9.765396e-001	-1.005631e+000
637656	9.780994e-001	-1.095826e+000
640399	9.788492e-001	-9.879755e-001
643142	9.805567e-001	-8.978076e-001
645885	9.823596e-001	-1.094603e+000
648628	9.815100e-001	-9.812638e-001
651372	9.847080e-001	-1.123494e+000
654115	9.855883e-001	-1.085395e+000
656858	9.853526e-001	-1.167969e+000
659601	9.870546e-001	-1.221242e+000
662344	9.859897e-001	-1.318617e+000
665087	9.876694e-001	-1.247815e+000
667830	9.877681e-001	-1.312137e+000
670574	9.877320e-001	-1.349150e+000
673317	9.879587e-001	-1.402509e+000
676060	9.867143e-001	-1.494368e+000
678803	9.883052e-001	-1.490825e+000
681546	9.889573e-001	-1.618467e+000
684289	9.897076e-001	-1.583840e+000
687032	9.880733e-001	-1.627494e+000
689776	9.885268e-001	-1.570749e+000
692519	9.885515e-001	-1.682730e+000
695262	9.900062e-001	-1.761571e+000
698005	9.888175e-001	-1.718165e+000
700748	9.899047e-001	-1.705831e+000
703491	9.897323e-001	-1.697362e+000
706234	9.898449e-001	-1.745585e+000
708978	9.883023e-001	-1.749352e+000
711721	9.911043e-001	-1.719777e+000
714464	9.903396e-001	-1.845283e+000
717207	9.889654e-001	-1.882182e+000
719950	9.896450e-001	-1.857594e+000
722693	9.904778e-001	-1.897258e+000
725436	9.893211e-001	-1.709676e+000
728180	9.892140e-001	-1.844877e+000
730923	9.915245e-001	-1.869202e+000
733666	9.913661e-001	-1.849666e+000
736409	9.901833e-001	-1.943181e+000
739152	9.893684e-001	-1.943085e+000
741895	9.923665e-001	-2.022100e+000
744638	9.917939e-001	-1.953366e+000
747382	9.927012e-001	-2.049194e+000
750125	9.919192e-001	-1.984334e+000
752868	9.926714e-001	-2.047962e+000
755611	9.914374e-001	-2.051906e+000
758354	9.913999e-001	-2.091009e+000
761097	9.916695e-001	-2.282060e+000
763840	9.917718e-001	-2.165949e+000
766584	9.905324e-001	-2.319791e+000
769327	9.913127e-001	-2.256221e+000
772070	9.918270e-001	-2.342765e+000
774813	9.914960e-001	-2.275531e+000
777556	9.917871e-001	-2.336960e+000
780299	9.907572e-001	-2.371988e+000
783042	9.897311e-001	-2.317833e+000
785786	9.905484e-001	-2.413531e+000
788529	9.911724e-001	-2.450597e+000
791272	9.900236e-001	-2.461939e+000
794015	9.916265e-001	-2.455731e+000
796758	9.902309e-001	-2.469500e+000
799501	9.906330e-001	-2.559853e+000
802244	9.918314e-001	-2.605157e+000
804988	9.896109e-001	-2.599898e+000
807731	9.882787e-001	-2.456981e+000
810474	9.883989e-001	-2.562189e+000
813217	9.887828e-001	-2.656093e+000
815960	9.886454e-001	-2.605040e+000
818703	9.874808e-001	-2.499809e+000
821446	9.889395e-001	-2.516820e+000
824190	9.888027e-001	-2.482981e+000
826933	9.879293e-001	-2.501718e+000
829676	9.892139e-001	-2.584956e+000
832419	9.885825e-001	-2.608299e+000
835162	9.878350e-001	-2.633894e+000
837905	9.903024e-001	-2.549226e+000
840648	9.898678e-001	-2.549802e+000
843392	9.884774e-001	-2.615614e+000
846135	9.869654e-001	-2.625001e+000
848878	9.889703e-001	-2.556263e+000
851621	9.874725e-001	-2.541677e+000
854364	9.891848e-001	-2.614976e+000
857107	9.876064e-001	-2.576401e+000
859850	9.890593e-001	-2.673434e+000
862594	9.885477e-001	-2.659972e+000
865337	9.878866e-001	-2.660585e+000
868080	9.889488e-001	-2.708925e+000
870823	9.898445e-001	-2.669831e+000
873566	9.869804e-001	-2.728318e+000
876309	9.891321e-001	-2.652782e+000
879052	9.892569e-001	-2.693198e+000
881796	9.888016e-001	-2.663812e+000
884539	9.879616e-001	-2.789207e+000
887282	9.891218e-001	-2.681233e+000
890025	9.883210e-001	-2.714885e+000
892768	9.897925e-001	-2.748460e+000
895511	9.884236e-001	-2.792132e+000
898254	9.915937e-001	-2.821955e+000
900998	9.901481e-001	-2.748111e+000
903741	9.898885e-001	-2.708070e+000
906484	9.906158e-001	-2.686891e+000
909227	9.892878e-001	-2.700981e+000
911970	9.894954e-001	-2.767809e+000
914713	9.910839e-001	-2.807477e+000
917456	9.905038e-001	-2.822837e+000
920200	9.909285e-001	-2.921592e+000
922943	9.921996e-001	-2.786713e+000
925686	9.912168e-001	-2.884309e+000
928429	9.932224e-001	-2.985414e+000
931172	9.917222e-001	-2.909656e+000
933915	9.923613e-001	-2.911427e+000
936658	9.920524e-001	-3.050097e+000
939401	9.924941e-001	-3.014258e+000
942145	9.913887e-001	-3.032753e+000
944888	9.914004e-001	-3.014951e+000
947631	9.911775e-001	-3.042621e+000
950374	9.907414e-001	-3.041631e+000
953117	9.926113e-001	-3.076352e+000
955860	9.913304e-001	-3.153860e+000
958603	9.913172e-001	-3.107109e+000
961347	9.926324e-001	-3.088055e+000
964090	9.921771e-001	-3.005513e+000
966833	9.922190e-001	-3.074005e+000
969576	9.930625e-001	-3.146874e+000
972319	9.936501e-001	-3.093269e+000
975062	9.930994e-001	-3.142247e+000
977805	9.922517e-001	-3.165342e+000
980549	9.920819e-001	-3.181650e+000
983292	9.919619e-001	-3.294597e+000
986035	9.922292e-001	-3.297818e+000
988778	9.928897e-001	-3.309340e+000
991521	9.921201e-001	-3.321104e+000
994264	9.913252e-001	-3.307016e+000
997007	9.913272e-001	-3.413032e+000
999751	9.920527e-001	-3.303980e+000
1002494	9.915937e-001	-3.467487e+000
1005237	9.929626e-001	-3.414346e+000
1007980	9.920416e-001	-3.437947e+000
1010723	9.926810e-001	-3.441986e+000
1013466	9.915904e-001	-3.464007e+000
1016209	9.924224e-001	-3.561098e+000
1018953	9.905938e-001	-3.500968e+000
1021696	9.918510e-001	-3.458701e+000
1024439	9.910261e-001	-3.479183e+000
1027182	9.924907e-001	-3.571807e+000
1029925	9.924963e-001	-3.442167e+000
1032668	9.909715e-001	-3.484878e+000
1035411	9.913297e-001	-3.536896e+000
1038155	9.907308e-001	-3.491937e+000
1040898	9.913114e-001	-3.625542e+000
1043641	9.906197e-001	-3.578929e+000
1046384	9.912628e-001	-3.603163e+000
1049127	9.918467e-001	-3.707438e+000
1051870	9.905177e-001	-3.678965e+000
1054613	9.912785e-001	-3.684583e+000
1057357	9.926338e-001	-3.691448e+000
1060100	9.926155e-001	-3.677805e+000
1062843	9.906810e-001	-3.596794e+000
1065586	9.906244e-001	-3.779724e+000
1068329	9.902293e-001	-3.692725e+000
1071072	9.896261e-001	-3.728346e+000
1073815	9.904733e-001	-3.758123e+000
1076559	9.905973e-001	-3.765429e+000
1079302	9.911821e-001	-3.774197e+000
1082045	9.899825e-001	-3.816233e+000
1084788	9.905156e-001	-3.801215e+000
1087531	9.908579e-001	-3.814248e+000
1090274	9.909656e-001	-3.824012e+000
1093017	9.895308e-001	-3.825364e+000
1095761	9.903143e-001	-3.839783e+000
1098504	9.889233e-001	-3.805339e+000
1101247	9.899791e-001	-3.834553e+000
1103990	9.890647e-001	-3.766252e+000
1106733	9.922094e-001	-3.816795e+000
1109476	9.905005e-001	-3.684262e+000
1112219	9.898220e-001	-3.917547e+000
1114963	9.905347e-001	-3.761911e+000
1117706	9.900058e-001	-3.905039e+000
1120449	9.892936e-001	-3.857533e+000
1123192	9.897185e-001	-3.931589e+000
1125935	9.906689e-001	-3.917115e+000
1128678	9.905289e-001	-3.839103e+000
1131421	9.919907e-001	-3.873476e+000
1134165	9.899911e-001	-3.967550e+000
1136908	9.908342e-001	-3.947183e+000
1139651	9.895785e-001	-3.908767e+000
1142394	9.921574e-001	-3.908045e+000
1145137	9.911364e-001	-3.935484e+000
1147880	9.910735e-001	-3.906760e+000
1150623	9.919667e-001	-3.974885e+000
1153367	9.912088e-001	-3.988750e+000
1156110	9.893645e-001	-3.911815e+000
1158853	9.901641e-001	-3.915398e+000
1161596	9.926893e-001	-4.035549e+000
1164339	9.915813e-001	-4.053517e+000
1167082	9.909152e-001	-4.076651e+000
1169825	9.926522e-001	-4.052277e+000
1172569	9.908536e-001	-4.144028e+000
1175312	9.930077e-001	-4.129165e+000
1178055	9.913495e-001	-4.131615e+000
1180798	9.926412e-001	-4.201515e+000
1183541	9.911225e-001	-4.213060e+000
1186284	9.908650e-001	-4.238189e+000
1189027	9.922074e-001	-4.167230e+000
1191771	9.922997e-001	-4.110684e+000
1194514	9.907522e-001	-4.357706e+000
1197257	9.897977e-001	-4.321727e+000
1200000	9.908279e-001	-4.316555e+000
