!Agilent Technologies,E5071C,MY46100265,A.07.02
!Date: Wed Mar 04 14:18:33 2020
!Data & Calibration Information:
!Freq	S11:SOLT1(ON)
# Hz S RI R 50
100000	9.696406e-001	-2.516936e-001
102743	9.694840e-001	-2.413365e-001
105486	9.572916e-001	-2.534756e-001
108229	9.528911e-001	-2.699643e-001
110973	9.516319e-001	-2.806574e-001
113716	9.527931e-001	-2.923257e-001
116459	9.522275e-001	-3.101560e-001
119202	9.389362e-001	-3.263551e-001
121945	9.333419e-001	-3.412599e-001
124688	9.142362e-001	-3.520042e-001
127431	8.979767e-001	-3.707044e-001
130175	8.681696e-001	-3.814057e-001
132918	7.950898e-001	-3.149206e-001
135661	7.930519e-001	-2.827647e-001
138404	8.658884e-001	-2.197284e-001
141147	9.631696e-001	-2.892134e-001
143890	8.912047e-001	-3.445429e-001
146633	9.764881e-001	-3.728710e-001
149377	8.904406e-001	-3.505270e-001
152120	8.531019e-001	-4.314590e-001
154863	8.691841e-001	-4.493793e-001
157606	8.333530e-001	-4.434385e-001
160349	8.082817e-001	-4.190170e-001
163092	8.039255e-001	-4.022746e-001
165835	7.824992e-001	-3.861556e-001
168579	7.969169e-001	-3.116442e-001
171322	8.940140e-001	-3.513134e-001
174065	9.064330e-001	-3.964266e-001
176808	8.823736e-001	-4.367519e-001
179551	8.528684e-001	-4.307230e-001
182294	8.441041e-001	-4.904900e-001
185037	8.092444e-001	-4.923776e-001
187781	7.590057e-001	-4.938842e-001
190524	7.430607e-001	-5.057535e-001
193267	7.113661e-001	-4.546251e-001
196010	7.641132e-001	-3.648025e-001
198753	8.649391e-001	-3.915438e-001
201496	8.918064e-001	-5.195823e-001
204239	7.798359e-001	-5.362288e-001
206983	8.042766e-001	-5.144603e-001
209726	7.800611e-001	-5.357974e-001
212469	7.839702e-001	-5.983801e-001
215212	7.085904e-001	-5.796630e-001
217955	7.266496e-001	-5.920254e-001
220698	6.962126e-001	-5.664454e-001
223441	6.406437e-001	-5.852406e-001
226185	6.443813e-001	-5.119785e-001
228928	6.731286e-001	-5.647194e-001
231671	7.578240e-001	-6.420447e-001
234414	5.545699e-001	-7.078440e-001
237157	5.235124e-001	-5.956575e-001
239900	4.919097e-001	-5.229555e-001
242643	5.710771e-001	-6.234726e-001
245387	4.596874e-001	-6.255657e-001
248130	3.339391e-001	-5.745925e-001
250873	5.324648e-001	-2.109510e-001
253616	6.190092e-001	-6.180838e-001
256359	5.475743e-001	-7.066722e-001
259102	3.958091e-001	-8.046832e-001
261845	3.884065e-001	-6.767404e-001
264589	-1.084773e-001	-6.215210e-001
267332	-7.578668e-002	-4.265208e-001
270075	-4.615867e-002	-3.248091e-001
272818	-1.478227e-001	-6.055796e-001
275561	-3.261474e-001	3.773654e-001
278304	8.614273e-001	3.279886e-001
281047	4.098783e-001	-3.375194e-001
283791	-2.477058e-001	5.459915e-001
286534	1.279052e+000	4.958753e-001
289277	7.003801e-001	-5.904585e-001
292020	4.551847e-001	4.723661e-001
294763	8.629085e-001	-2.073908e-001
297506	8.873548e-001	-2.741376e-001
300249	8.353188e-001	2.955117e-001
302993	8.121276e-001	-3.010136e-001
305736	1.129104e+000	4.964478e-002
308479	8.869212e-001	-1.454530e-001
311222	8.713763e-001	-1.525342e-001
313965	9.994728e-001	-8.251903e-002
316708	1.097961e+000	-3.105537e-001
319451	8.606448e-001	-4.190027e-001
322195	9.178594e-001	-3.352040e-001
324938	8.794525e-001	-2.845766e-001
327681	8.403483e-001	-4.091230e-001
330424	8.247546e-001	-3.582091e-001
333167	8.721179e-001	-4.263497e-001
335910	9.332667e-001	-3.992514e-001
338653	8.741991e-001	-3.595732e-001
341397	8.883599e-001	-3.832892e-001
344140	9.088458e-001	-4.151205e-001
346883	9.259192e-001	-4.190432e-001
349626	8.469035e-001	-4.816226e-001
352369	8.811532e-001	-4.443341e-001
355112	8.669854e-001	-4.365988e-001
357855	8.600869e-001	-5.206289e-001
360599	8.149815e-001	-4.827717e-001
363342	8.421372e-001	-4.818233e-001
366085	8.377194e-001	-4.956138e-001
368828	8.393588e-001	-5.231324e-001
371571	8.318908e-001	-5.272443e-001
374314	8.320200e-001	-5.231380e-001
377057	8.461009e-001	-5.353597e-001
379800	8.138401e-001	-5.658365e-001
382544	8.090473e-001	-5.507397e-001
385287	8.130903e-001	-5.576954e-001
388030	8.150823e-001	-5.759549e-001
390773	7.972301e-001	-5.844478e-001
393516	7.893183e-001	-5.805875e-001
396259	7.914765e-001	-5.742715e-001
399002	7.990062e-001	-5.919155e-001
401746	7.797615e-001	-6.067369e-001
404489	7.787368e-001	-6.051217e-001
407232	7.830217e-001	-6.128418e-001
409975	7.720461e-001	-6.228134e-001
412718	7.648577e-001	-6.260397e-001
415461	7.565541e-001	-6.291823e-001
418204	7.584714e-001	-6.341293e-001
420948	7.525007e-001	-6.407197e-001
423691	7.482020e-001	-6.415294e-001
426434	7.484344e-001	-6.510767e-001
429177	7.428529e-001	-6.614788e-001
431920	7.300165e-001	-6.636715e-001
434663	7.293964e-001	-6.651908e-001
437406	7.293991e-001	-6.659611e-001
440150	7.205902e-001	-6.812217e-001
442893	7.150559e-001	-6.834764e-001
445636	7.131912e-001	-6.856366e-001
448379	7.091550e-001	-6.908213e-001
451122	7.059779e-001	-6.960903e-001
453865	7.026356e-001	-7.006510e-001
456608	6.953678e-001	-7.067248e-001
459352	6.912160e-001	-7.105862e-001
462095	6.815185e-001	-7.180693e-001
464838	6.755036e-001	-7.154314e-001
467581	6.728279e-001	-7.166041e-001
470324	6.724840e-001	-7.194128e-001
473067	6.724517e-001	-7.233911e-001
475810	6.710027e-001	-7.317269e-001
478554	6.655458e-001	-7.399710e-001
481297	6.624334e-001	-7.460679e-001
484040	6.565443e-001	-7.510055e-001
486783	6.495623e-001	-7.555685e-001
489526	6.432969e-001	-7.596217e-001
492269	6.360692e-001	-7.610717e-001
495012	6.268746e-001	-7.616287e-001
497756	6.242967e-001	-7.581979e-001
500499	6.263141e-001	-7.581384e-001
503242	6.263372e-001	-7.650763e-001
505985	6.248569e-001	-7.728083e-001
508728	6.154199e-001	-7.810085e-001
511471	6.127670e-001	-7.830720e-001
514214	6.065043e-001	-7.893012e-001
516958	5.991402e-001	-7.949928e-001
519701	5.944857e-001	-7.969434e-001
522444	5.881947e-001	-8.005837e-001
525187	5.793470e-001	-8.042309e-001
527930	5.730571e-001	-7.993725e-001
530673	5.753876e-001	-8.005576e-001
533416	5.782185e-001	-7.999438e-001
536160	5.743662e-001	-8.101964e-001
538903	5.675386e-001	-8.155565e-001
541646	5.611852e-001	-8.162759e-001
544389	5.560302e-001	-8.231872e-001
547132	5.553110e-001	-8.257855e-001
549875	5.446748e-001	-8.321744e-001
552618	5.412873e-001	-8.350973e-001
555362	5.310074e-001	-8.365593e-001
558105	5.276262e-001	-8.368284e-001
560848	5.186633e-001	-8.344184e-001
563591	5.197900e-001	-8.326370e-001
566334	5.229126e-001	-8.384277e-001
569077	5.154576e-001	-8.439212e-001
571820	5.183368e-001	-8.471904e-001
574564	5.073567e-001	-8.558298e-001
577307	5.041473e-001	-8.602566e-001
580050	4.953804e-001	-8.620688e-001
582793	4.885216e-001	-8.649901e-001
585536	4.820889e-001	-8.647256e-001
588279	4.745858e-001	-8.665535e-001
591022	4.639684e-001	-8.680478e-001
593766	4.574703e-001	-8.590814e-001
596509	4.645894e-001	-8.457433e-001
599252	4.775547e-001	-8.547409e-001
601995	4.723607e-001	-8.736345e-001
604738	4.683662e-001	-8.819682e-001
607481	4.449780e-001	-8.778008e-001
610224	4.521012e-001	-8.843947e-001
612968	4.508424e-001	-8.804321e-001
615711	4.466794e-001	-8.931472e-001
618454	4.292680e-001	-8.880844e-001
621197	4.379667e-001	-8.926041e-001
623940	4.191510e-001	-8.945580e-001
626683	4.140950e-001	-8.933098e-001
629426	4.118888e-001	-8.891442e-001
632170	4.096365e-001	-8.893116e-001
634913	4.163567e-001	-8.893428e-001
637656	4.156252e-001	-9.017574e-001
640399	4.019423e-001	-9.096826e-001
643142	4.005033e-001	-9.040221e-001
645885	3.928056e-001	-9.187267e-001
648628	3.884845e-001	-9.105152e-001
651372	3.818376e-001	-9.139999e-001
654115	3.787901e-001	-9.209034e-001
656858	3.701017e-001	-9.193601e-001
659601	3.655050e-001	-9.165691e-001
662344	3.614295e-001	-9.203159e-001
665087	3.565845e-001	-9.225030e-001
667830	3.543862e-001	-9.229681e-001
670574	3.515105e-001	-9.285835e-001
673317	3.443635e-001	-9.265133e-001
676060	3.388300e-001	-9.266025e-001
678803	3.328988e-001	-9.243563e-001
681546	3.361743e-001	-9.247456e-001
684289	3.320166e-001	-9.377633e-001
687032	3.216744e-001	-9.398984e-001
689776	3.154961e-001	-9.362873e-001
692519	3.083930e-001	-9.374978e-001
695262	3.024570e-001	-9.344797e-001
698005	3.075017e-001	-9.358264e-001
700748	3.015034e-001	-9.401717e-001
703491	2.952425e-001	-9.440298e-001
706234	2.830356e-001	-9.499381e-001
708978	2.814231e-001	-9.415250e-001
711721	2.816061e-001	-9.423719e-001
714464	2.820003e-001	-9.497946e-001
717207	2.713813e-001	-9.584573e-001
719950	2.618250e-001	-9.553752e-001
722693	2.547423e-001	-9.562087e-001
725436	2.490317e-001	-9.546544e-001
728180	2.425934e-001	-9.505308e-001
730923	2.421192e-001	-9.495271e-001
733666	2.451928e-001	-9.528743e-001
736409	2.381005e-001	-9.587869e-001
739152	2.281554e-001	-9.511908e-001
741895	2.322983e-001	-9.533421e-001
744638	2.282753e-001	-9.647805e-001
747382	2.127106e-001	-9.675937e-001
750125	2.114591e-001	-9.651367e-001
752868	2.024105e-001	-9.648780e-001
755611	1.962847e-001	-9.632489e-001
758354	1.928202e-001	-9.622661e-001
761097	1.854939e-001	-9.604561e-001
763840	1.895732e-001	-9.588120e-001
766584	1.833056e-001	-9.675476e-001
769327	1.697036e-001	-9.705036e-001
772070	1.686878e-001	-9.587811e-001
774813	1.708053e-001	-9.719532e-001
777556	1.617678e-001	-9.778432e-001
780299	1.464765e-001	-9.710514e-001
783042	1.425309e-001	-9.724976e-001
785786	1.405491e-001	-9.707622e-001
788529	1.358781e-001	-9.727981e-001
791272	1.237091e-001	-9.716411e-001
794015	1.215319e-001	-9.624209e-001
796758	1.242979e-001	-9.677843e-001
799501	1.109288e-001	-9.794397e-001
802244	9.877156e-002	-9.655357e-001
804988	1.071097e-001	-9.671994e-001
807731	9.767105e-002	-9.780920e-001
810474	8.566187e-002	-9.776407e-001
813217	7.433526e-002	-9.787380e-001
815960	6.280165e-002	-9.759690e-001
818703	5.873204e-002	-9.655739e-001
821446	5.412036e-002	-9.694165e-001
824190	5.056932e-002	-9.638425e-001
826933	4.476416e-002	-9.691290e-001
829676	2.979653e-002	-9.774762e-001
832419	1.934661e-002	-9.763168e-001
835162	6.472548e-003	-9.593985e-001
837905	3.255396e-003	-9.646413e-001
840648	-2.985522e-003	-9.637592e-001
843392	-2.856074e-002	-9.754689e-001
846135	-4.534120e-002	-9.569036e-001
848878	-5.494241e-002	-9.489726e-001
851621	-6.339061e-002	-9.392146e-001
854364	-6.377284e-002	-9.266942e-001
857107	-5.363761e-002	-9.434882e-001
859850	-1.021525e-001	-9.712619e-001
862594	-1.445322e-001	-9.354923e-001
865337	-1.540414e-001	-9.041101e-001
868080	-1.773762e-001	-9.089507e-001
870823	-2.116357e-001	-8.939068e-001
873566	-2.710664e-001	-8.668310e-001
876309	-2.846033e-001	-8.027060e-001
879052	-3.507516e-001	-7.493884e-001
881796	-3.791220e-001	-6.273501e-001
884539	-3.404103e-001	-4.841799e-001
887282	-2.874252e-001	-4.531651e-001
890025	-2.301160e-001	-2.447955e-001
892768	2.790413e-002	-1.333162e-001
895511	2.666040e-001	-2.966380e-001
898254	2.198005e-001	-1.990340e-001
900998	4.974415e-001	-5.656838e-001
903741	4.750042e-001	-5.049470e-001
906484	2.955017e-001	-6.237556e-001
909227	3.584350e-001	-6.995967e-001
911970	2.589788e-001	-9.469850e-001
914713	3.275960e-001	-8.211991e-001
917456	4.231664e-001	-9.081500e-001
920200	3.510177e-001	-8.364461e-001
922943	2.203481e-001	-9.185787e-001
925686	1.499750e-001	-8.954973e-001
928429	1.863547e-001	-8.398498e-001
931172	2.674264e-001	-9.295683e-001
933915	2.703445e-001	-8.864450e-001
936658	2.009961e-001	-9.757220e-001
939401	2.380809e-001	-9.336030e-001
942145	1.999063e-001	-9.930071e-001
944888	2.344732e-001	-9.560674e-001
947631	1.844089e-001	-9.270295e-001
950374	1.534368e-001	-9.882572e-001
953117	1.062462e-001	-9.655237e-001
955860	1.370826e-001	-9.410467e-001
958603	1.430250e-001	-9.643803e-001
961347	1.267338e-001	-9.788596e-001
964090	9.575110e-002	-9.549382e-001
966833	1.064524e-001	-9.786068e-001
969576	9.136142e-002	-9.700889e-001
972319	6.197725e-002	-9.837437e-001
975062	7.855239e-002	-9.843713e-001
977805	7.469854e-002	-9.795168e-001
980549	6.905487e-002	-9.797847e-001
983292	5.987142e-002	-9.743896e-001
986035	5.557490e-002	-9.822479e-001
988778	4.435992e-002	-9.804555e-001
991521	4.385273e-002	-9.835670e-001
994264	3.379226e-002	-9.869198e-001
997007	3.205869e-002	-9.871067e-001
999751	2.706276e-002	-9.858857e-001
1002494	1.491705e-002	-9.860248e-001
1005237	1.092074e-002	-9.875564e-001
1007980	5.109262e-003	-9.791314e-001
1010723	2.149795e-003	-9.854447e-001
1013466	3.961348e-003	-9.809530e-001
1016209	-2.513935e-003	-9.868462e-001
1018953	-1.316964e-002	-9.920201e-001
1021696	-1.376498e-002	-9.887564e-001
1024439	-2.058607e-002	-9.881850e-001
1027182	-2.827299e-002	-9.908574e-001
1029925	-3.347322e-002	-9.930113e-001
1032668	-3.620828e-002	-9.877949e-001
1035411	-4.224470e-002	-9.880424e-001
1038155	-4.620102e-002	-9.844795e-001
1040898	-5.159769e-002	-9.795816e-001
1043641	-5.254643e-002	-9.816405e-001
1046384	-4.689045e-002	-9.844295e-001
1049127	-5.444580e-002	-9.848682e-001
1051870	-6.617122e-002	-9.879455e-001
1054613	-6.689222e-002	-9.858962e-001
1057357	-7.661862e-002	-9.851056e-001
1060100	-7.945305e-002	-9.868802e-001
1062843	-8.281575e-002	-9.827918e-001
1065586	-8.579805e-002	-9.815006e-001
1068329	-8.707921e-002	-9.819461e-001
1071072	-8.861728e-002	-9.823454e-001
1073815	-9.563219e-002	-9.860494e-001
1076559	-1.026221e-001	-9.820976e-001
1079302	-1.049035e-001	-9.825340e-001
1082045	-1.079471e-001	-9.817829e-001
1084788	-1.089792e-001	-9.804452e-001
1087531	-1.139788e-001	-9.833949e-001
1090274	-1.196971e-001	-9.846246e-001
1093017	-1.253969e-001	-9.790481e-001
1095761	-1.264111e-001	-9.778158e-001
1098504	-1.294477e-001	-9.775159e-001
1101247	-1.300450e-001	-9.771578e-001
1103990	-1.322594e-001	-9.793263e-001
1106733	-1.406802e-001	-9.810834e-001
1109476	-1.441111e-001	-9.811324e-001
1112219	-1.499594e-001	-9.777729e-001
1114963	-1.524157e-001	-9.746490e-001
1117706	-1.557144e-001	-9.748990e-001
1120449	-1.565474e-001	-9.712136e-001
1123192	-1.591165e-001	-9.707649e-001
1125935	-1.614179e-001	-9.719604e-001
1128678	-1.650477e-001	-9.773238e-001
1131421	-1.721940e-001	-9.721883e-001
1134165	-1.738206e-001	-9.723561e-001
1136908	-1.780854e-001	-9.723341e-001
1139651	-1.791870e-001	-9.722750e-001
1142394	-1.874223e-001	-9.710465e-001
1145137	-1.860133e-001	-9.698094e-001
1147880	-1.932939e-001	-9.676080e-001
1150623	-1.970303e-001	-9.667388e-001
1153367	-1.948323e-001	-9.627998e-001
1156110	-1.988091e-001	-9.652747e-001
1158853	-2.011000e-001	-9.664847e-001
1161596	-2.064777e-001	-9.688089e-001
1164339	-2.108481e-001	-9.648684e-001
1167082	-2.143319e-001	-9.637184e-001
1169825	-2.171737e-001	-9.642122e-001
1172569	-2.210464e-001	-9.643219e-001
1175312	-2.253501e-001	-9.590835e-001
1178055	-2.255412e-001	-9.576803e-001
1180798	-2.316441e-001	-9.583262e-001
1183541	-2.342487e-001	-9.596696e-001
1186284	-2.367137e-001	-9.554431e-001
1189027	-2.423589e-001	-9.570705e-001
1191771	-2.420484e-001	-9.527386e-001
1194514	-2.451481e-001	-9.521562e-001
1197257	-2.475027e-001	-9.478272e-001
1200000	-2.452685e-001	-9.501436e-001
