!Agilent Technologies,E5071C,MY46100305,A.07.02
!Date: Fri Jan 01 02:45:22 1988
!Data & Calibration Information:
!Freq	S11:SOLT1(ON)
# Hz S MA R 50
9000	5.421086e-001	-1.636520e+002
10478	7.530493e-001	-1.193816e+001
11955	1.020300e+000	-2.162481e+000
13433	2.744732e+000	-2.252481e+001
14910	1.589352e+000	1.879563e+000
16388	1.120073e+000	1.213361e+000
17865	9.595501e-001	-7.764022e-001
19343	7.656024e-001	-8.727201e+000
20820	6.577947e-001	-2.716886e+001
22298	7.807846e-001	-1.453311e+001
23775	8.314617e-001	-2.587093e+001
25253	1.043247e+000	-9.714144e+000
26730	1.208343e+000	-6.454335e+000
28208	1.588207e+000	-3.737659e+000
29685	5.171947e-001	2.146629e+001
31163	9.470719e-001	4.371840e+000
32640	6.325407e-001	-4.304714e+001
34118	1.201292e+000	-4.396295e+001
35595	1.123853e+000	7.950977e+000
37073	6.967691e-001	1.961717e+000
38550	1.108138e+000	4.401158e+000
40028	1.687634e+000	2.016998e+001
41505	1.338753e+000	2.239578e+001
42983	1.090880e+000	2.193598e+001
44460	1.147153e+000	2.234488e+001
45938	1.266936e+000	1.887799e+001
47415	1.156988e+000	-5.591996e+000
48893	9.951785e-001	-8.669494e+000
50370	8.885147e-001	-5.852525e+000
51848	1.456382e+000	-9.693384e+000
53325	9.755964e-001	-6.354899e+000
54803	1.010137e+000	6.676946e+000
56280	8.721395e-001	-2.018769e+001
57758	1.160037e+000	-1.786877e+001
59235	8.762375e-001	-8.478999e+000
60713	1.017174e+000	-1.764529e+001
62190	1.046415e+000	-1.495630e+001
63668	1.115970e+000	-1.693869e+001
65145	1.133862e+000	-1.616130e+001
66623	1.030185e+000	-6.802434e+000
68100	9.700926e-001	-5.219031e+000
69578	9.646483e-001	-6.817492e+000
71055	1.013682e+000	-8.319980e+000
72533	1.015576e+000	-1.075884e+001
74010	1.004660e+000	-1.107610e+001
75488	9.940746e-001	-1.209881e+001
76965	9.899519e-001	-1.263357e+001
78443	9.898425e-001	-1.354079e+001
79920	9.942740e-001	-1.412799e+001
81398	9.887325e-001	-1.485588e+001
82875	9.734028e-001	-1.586579e+001
84353	9.536877e-001	-1.685064e+001
85830	9.178261e-001	-1.762679e+001
87308	8.622090e-001	-1.706067e+001
88785	8.123163e-001	-1.320770e+001
90263	8.193453e-001	-5.731448e+000
91740	9.499391e-001	-9.414107e-001
93218	1.008144e+000	-1.054082e+001
94695	9.990610e-001	-1.183372e+001
96173	9.927949e-001	-1.215001e+001
97650	1.002461e+000	-1.307676e+001
99128	9.943591e-001	-1.379627e+001
100605	1.001714e+000	-1.337338e+001
102083	9.858283e-001	-1.419127e+001
103560	1.004034e+000	-1.504447e+001
105038	1.007956e+000	-1.425047e+001
106515	9.884010e-001	-1.449077e+001
107993	9.807309e-001	-1.555615e+001
109470	9.815034e-001	-1.631725e+001
110948	9.830238e-001	-1.657700e+001
112425	9.846409e-001	-1.670494e+001
113903	9.897168e-001	-1.680872e+001
115380	1.005354e+000	-1.721593e+001
116858	1.001468e+000	-1.879558e+001
118335	9.840709e-001	-1.876647e+001
119813	9.987363e-001	-1.856037e+001
121290	9.893681e-001	-2.023009e+001
122768	9.977532e-001	-1.960802e+001
124245	9.803136e-001	-2.144363e+001
125723	9.886281e-001	-2.148145e+001
127200	9.708531e-001	-2.194947e+001
128678	9.533003e-001	-2.313076e+001
130155	9.399224e-001	-2.414183e+001
131633	9.230499e-001	-2.418206e+001
133110	9.081884e-001	-2.169786e+001
134588	8.809453e-001	-2.205555e+001
136065	8.627075e-001	-1.907782e+001
137543	8.997035e-001	-1.576859e+001
139020	9.550326e-001	-1.711482e+001
140498	9.339273e-001	-1.910013e+001
141975	9.425695e-001	-1.509814e+001
143453	1.055381e+000	-1.835359e+001
144930	9.903043e-001	-2.296015e+001
146408	9.875268e-001	-2.109737e+001
147885	9.804964e-001	-2.254517e+001
149363	9.875197e-001	-2.305755e+001
150840	9.886191e-001	-2.369344e+001
152318	9.831666e-001	-2.367584e+001
153795	9.712609e-001	-2.571597e+001
155273	9.773925e-001	-2.669065e+001
156750	9.680355e-001	-2.663947e+001
158228	9.485392e-001	-2.760045e+001
159705	9.119095e-001	-2.797405e+001
161183	8.863889e-001	-2.711700e+001
162660	8.901431e-001	-2.526319e+001
164138	9.152055e-001	-2.588276e+001
165615	8.926637e-001	-2.806020e+001
167093	8.296520e-001	-2.603613e+001
168570	8.361756e-001	-2.080658e+001
170048	8.990645e-001	-1.783711e+001
171525	1.007370e+000	-1.969817e+001
173003	9.901614e-001	-2.583510e+001
174480	9.597520e-001	-2.495184e+001
175958	9.949154e-001	-2.533973e+001
177435	9.499459e-001	-2.716480e+001
178913	9.929656e-001	-2.640204e+001
180390	9.575324e-001	-2.934322e+001
181868	9.824503e-001	-2.905932e+001
183345	9.540856e-001	-2.882111e+001
184823	9.753178e-001	-3.071072e+001
186300	9.692239e-001	-3.261046e+001
187778	9.090475e-001	-3.216725e+001
189255	9.078846e-001	-3.454168e+001
190733	8.619407e-001	-3.424256e+001
192210	8.362666e-001	-3.191133e+001
193688	8.161614e-001	-2.889731e+001
195165	8.509778e-001	-2.499780e+001
196643	9.122023e-001	-2.352081e+001
198120	9.788414e-001	-2.521164e+001
199598	1.015196e+000	-3.027029e+001
201075	9.195342e-001	-3.337218e+001
202553	9.660599e-001	-2.758785e+001
204030	9.539130e-001	-3.421779e+001
205508	9.926513e-001	-2.900415e+001
206985	9.763831e-001	-3.535795e+001
208463	9.702142e-001	-3.705573e+001
209940	9.438295e-001	-3.395803e+001
211418	9.510378e-001	-3.703226e+001
212895	9.211598e-001	-3.630759e+001
214373	9.383655e-001	-3.676517e+001
215850	9.575197e-001	-3.554650e+001
217328	9.733866e-001	-3.967279e+001
218805	9.245995e-001	-4.351647e+001
220283	8.792307e-001	-4.046367e+001
221760	8.929124e-001	-4.199682e+001
223238	8.129155e-001	-4.127328e+001
224715	8.160644e-001	-3.801989e+001
226193	8.612794e-001	-3.244207e+001
227670	9.812949e-001	-3.665653e+001
229148	9.775863e-001	-4.439553e+001
230625	8.844059e-001	-4.403770e+001
232103	9.257746e-001	-4.474965e+001
233580	8.482983e-001	-4.908354e+001
235058	8.366499e-001	-4.582736e+001
236535	8.391721e-001	-4.467908e+001
238013	9.280894e-001	-4.999791e+001
239490	8.012544e-001	-5.873761e+001
240968	6.086916e-001	-4.840631e+001
242445	7.928120e-001	-3.813807e+001
243923	8.880498e-001	-4.853355e+001
245400	8.521510e-001	-6.063580e+001
246878	5.099374e-001	-5.920766e+001
248355	7.683257e-001	-4.136990e+001
249833	6.322009e-001	-6.044150e+001
251310	4.820425e-001	-3.071970e+001
252788	7.335852e-001	-2.585474e+001
254265	1.002465e+000	-4.079518e+001
255743	9.188725e-001	-4.504725e+001
257220	8.208396e-001	-5.945955e+001
258698	9.972503e-001	-5.379467e+001
260175	9.552082e-001	-7.261517e+001
261653	7.145379e-001	-8.724806e+001
263130	6.594224e-001	-8.280111e+001
264608	4.575258e-001	-9.861006e+001
266085	3.978177e-001	-1.086205e+002
267563	4.451942e-001	-8.884346e+001
269040	8.773384e-001	-6.060194e+001
270518	8.231411e-001	-1.028326e+002
271995	6.454236e-001	-1.714172e+002
273473	3.379116e-001	1.091284e+002
274950	4.756199e-001	7.546230e+001
276428	9.344364e-001	2.169317e+001
277905	8.218750e-001	-3.515766e+001
279383	5.825988e-001	-9.308977e+001
280860	5.795994e-001	1.424276e+002
282338	8.997126e-001	7.952574e+001
283815	1.246345e+000	3.875669e+001
285293	1.371605e+000	-5.804497e-001
286770	7.721327e-001	-3.604249e+001
288248	3.973784e-001	1.105527e+001
289725	6.465794e-001	1.601578e+001
291203	7.274472e-001	2.293516e+001
292680	1.175438e+000	6.057446e+000
294158	1.008089e+000	-2.355488e+001
295635	4.152313e-001	-2.243040e+001
297113	9.228378e-001	1.737570e+001
298590	8.498148e-001	-1.499958e+001
300068	7.450614e-001	1.454525e+000
301545	6.999392e-001	-3.135317e+000
303023	1.126046e+000	9.322973e-001
304500	8.395437e-001	-8.621722e+000
305978	9.432013e-001	-1.988720e+001
307455	9.234519e-001	-9.883682e+000
308933	8.677684e-001	-1.651380e+001
310410	8.521290e-001	-2.034962e+000
311888	8.938006e-001	-4.074102e+000
313365	1.036204e+000	-2.990799e+000
314843	1.055915e+000	-1.786514e+001
316320	9.030116e-001	-2.332148e+001
317798	9.350625e-001	-1.373710e+001
319275	9.943662e-001	-2.389423e+001
320753	8.403801e-001	-1.570991e+001
322230	9.811319e-001	-1.846636e+001
323708	9.807286e-001	-1.520444e+001
325185	9.689484e-001	-2.479967e+001
326663	9.234957e-001	-2.432586e+001
328140	9.572458e-001	-1.751750e+001
329618	9.045842e-001	-2.352252e+001
331095	9.071273e-001	-1.918518e+001
332573	9.242555e-001	-2.370251e+001
334050	9.559585e-001	-2.053587e+001
335528	9.348628e-001	-2.260409e+001
337005	9.650894e-001	-2.428790e+001
338483	9.420003e-001	-2.319953e+001
339960	9.922561e-001	-2.271306e+001
341438	9.553378e-001	-2.461874e+001
342915	9.596765e-001	-2.498477e+001
344393	9.709101e-001	-2.233218e+001
345870	1.012086e+000	-2.628562e+001
347348	9.943784e-001	-2.890534e+001
348825	9.781027e-001	-2.645215e+001
350303	1.007313e+000	-2.828021e+001
351780	9.566352e-001	-2.859129e+001
353258	9.693084e-001	-2.758665e+001
354735	9.731360e-001	-2.725242e+001
356213	1.008855e+000	-2.955726e+001
357690	9.946058e-001	-3.081472e+001
359168	9.549412e-001	-2.968873e+001
360645	9.684042e-001	-3.032050e+001
362123	9.406557e-001	-3.034137e+001
363600	9.681605e-001	-2.883983e+001
365078	9.698906e-001	-3.069510e+001
366555	9.875111e-001	-3.009407e+001
368033	9.951385e-001	-3.097369e+001
369510	9.923768e-001	-3.178304e+001
370988	9.879187e-001	-3.176921e+001
372465	9.824203e-001	-3.274640e+001
373943	9.718372e-001	-3.203613e+001
375420	9.849696e-001	-3.202978e+001
376898	9.988286e-001	-3.229962e+001
378375	1.003333e+000	-3.376850e+001
379853	9.862750e-001	-3.438855e+001
381330	9.904525e-001	-3.429220e+001
382808	9.854269e-001	-3.476768e+001
384285	9.797203e-001	-3.438737e+001
385763	9.805559e-001	-3.451588e+001
387240	9.947707e-001	-3.450864e+001
388718	1.001005e+000	-3.548517e+001
390195	9.914198e-001	-3.652684e+001
391673	9.827240e-001	-3.630121e+001
393150	9.776902e-001	-3.665442e+001
394628	9.690763e-001	-3.623591e+001
396105	9.748426e-001	-3.587441e+001
397583	9.898914e-001	-3.554919e+001
399060	1.003966e+000	-3.667497e+001
400538	9.922308e-001	-3.771708e+001
402015	9.853997e-001	-3.745386e+001
403493	9.918924e-001	-3.782157e+001
404970	9.839098e-001	-3.811066e+001
406448	9.857418e-001	-3.808191e+001
407925	9.901918e-001	-3.809656e+001
409403	9.963504e-001	-3.850018e+001
410880	9.944233e-001	-3.915524e+001
412358	9.887794e-001	-3.940946e+001
413835	9.897331e-001	-3.969636e+001
415313	9.847325e-001	-3.990785e+001
416790	9.819506e-001	-3.990957e+001
418268	9.830849e-001	-3.992844e+001
419745	9.873923e-001	-4.002001e+001
421223	9.892591e-001	-4.045544e+001
422700	9.864919e-001	-4.053335e+001
424178	9.918759e-001	-4.069958e+001
425655	9.905375e-001	-4.125529e+001
427133	9.858905e-001	-4.126592e+001
428610	9.882694e-001	-4.134006e+001
430088	9.934226e-001	-4.157795e+001
431565	9.915343e-001	-4.221591e+001
433043	9.841179e-001	-4.238219e+001
434520	9.877199e-001	-4.227016e+001
435998	9.864546e-001	-4.262865e+001
437475	9.859927e-001	-4.267859e+001
438953	9.859723e-001	-4.277775e+001
440430	9.914100e-001	-4.294315e+001
441908	9.929121e-001	-4.338192e+001
443385	9.885169e-001	-4.376806e+001
444863	9.884801e-001	-4.386204e+001
446340	9.893589e-001	-4.399135e+001
447818	9.865726e-001	-4.411756e+001
449295	9.881819e-001	-4.399415e+001
450773	9.933745e-001	-4.412454e+001
452250	1.000135e+000	-4.462108e+001
453728	9.951077e-001	-4.508750e+001
455205	9.917796e-001	-4.512789e+001
456683	9.956811e-001	-4.551206e+001
458160	9.897489e-001	-4.582939e+001
459638	9.918628e-001	-4.589410e+001
461115	9.891312e-001	-4.603726e+001
462593	9.916971e-001	-4.639066e+001
464070	9.876366e-001	-4.669374e+001
465548	9.836305e-001	-4.668296e+001
467025	9.837966e-001	-4.680444e+001
468503	9.816482e-001	-4.684490e+001
469980	9.818560e-001	-4.684434e+001
471458	9.831140e-001	-4.674979e+001
472935	9.906290e-001	-4.680576e+001
474413	9.957330e-001	-4.724147e+001
475890	9.935254e-001	-4.748182e+001
477368	9.955266e-001	-4.781134e+001
478845	9.931937e-001	-4.814624e+001
480323	9.922357e-001	-4.820713e+001
481800	9.942325e-001	-4.831781e+001
483278	9.956660e-001	-4.855607e+001
484755	9.973350e-001	-4.908459e+001
486233	9.936110e-001	-4.934281e+001
487710	9.933113e-001	-4.947770e+001
489188	9.928194e-001	-4.975439e+001
490665	9.911685e-001	-4.994993e+001
492143	9.907474e-001	-5.012488e+001
493620	9.888835e-001	-5.027252e+001
495098	9.859853e-001	-5.054173e+001
496575	9.808786e-001	-5.049287e+001
498053	9.812927e-001	-5.043296e+001
499530	9.816795e-001	-5.059568e+001
501008	9.837211e-001	-5.047510e+001
502485	9.867491e-001	-5.053584e+001
503963	9.913550e-001	-5.072445e+001
505440	9.962051e-001	-5.123521e+001
506918	9.906734e-001	-5.153745e+001
508395	9.917129e-001	-5.140368e+001
509873	9.951862e-001	-5.190448e+001
511350	9.896553e-001	-5.190992e+001
512828	9.961422e-001	-5.217903e+001
514305	9.947779e-001	-5.226451e+001
515783	9.957751e-001	-5.278391e+001
517260	9.936597e-001	-5.298576e+001
518738	9.933197e-001	-5.300950e+001
520215	9.934485e-001	-5.329419e+001
521693	9.926823e-001	-5.354779e+001
523170	9.933256e-001	-5.384516e+001
524648	9.896555e-001	-5.402279e+001
526125	9.868902e-001	-5.416956e+001
527603	9.842891e-001	-5.436480e+001
529080	9.807358e-001	-5.428483e+001
530558	9.844780e-001	-5.429447e+001
532035	9.836877e-001	-5.413335e+001
533513	9.881729e-001	-5.415146e+001
534990	9.920046e-001	-5.445640e+001
536468	9.947593e-001	-5.491311e+001
537945	9.920058e-001	-5.509361e+001
539423	9.900324e-001	-5.517976e+001
540900	9.915985e-001	-5.528734e+001
542378	9.929299e-001	-5.554077e+001
543855	9.922962e-001	-5.559975e+001
545333	9.962043e-001	-5.590247e+001
546810	9.955229e-001	-5.615715e+001
548288	9.947442e-001	-5.648308e+001
549765	9.942483e-001	-5.662569e+001
551243	9.944592e-001	-5.687427e+001
552720	9.929258e-001	-5.704607e+001
554198	9.933100e-001	-5.727896e+001
555675	9.915694e-001	-5.754081e+001
557153	9.909845e-001	-5.775077e+001
558630	9.877726e-001	-5.791387e+001
560108	9.832484e-001	-5.803742e+001
561585	9.800098e-001	-5.789478e+001
563063	9.816922e-001	-5.780812e+001
564540	9.872730e-001	-5.782205e+001
566018	9.901158e-001	-5.825904e+001
567495	9.844021e-001	-5.841402e+001
568973	9.857756e-001	-5.809071e+001
570450	9.954192e-001	-5.841751e+001
571928	9.950851e-001	-5.881894e+001
573405	9.944390e-001	-5.910319e+001
574883	9.942451e-001	-5.915714e+001
576360	9.951672e-001	-5.948865e+001
577838	9.963892e-001	-5.971838e+001
579315	9.930015e-001	-5.989210e+001
580793	9.940598e-001	-6.017703e+001
582270	9.928220e-001	-6.039653e+001
583748	9.923041e-001	-6.062559e+001
585225	9.924724e-001	-6.076169e+001
586703	9.921415e-001	-6.101898e+001
588180	9.912387e-001	-6.148938e+001
589658	9.853430e-001	-6.180577e+001
591135	9.802007e-001	-6.183796e+001
592613	9.729290e-001	-6.196584e+001
594090	9.657418e-001	-6.167063e+001
595568	9.688125e-001	-6.123585e+001
597045	9.740363e-001	-6.117464e+001
598523	9.731335e-001	-6.121302e+001
600000	9.791936e-001	-6.060302e+001
