!Agilent Technologies,E5071C,MY46100305,A.07.02
!Date: Fri Jan 01 01:42:37 1988
!Data & Calibration Information:
!Freq	S11:SOLT1(ON)
# Hz S RI R 50
9000	9.783386e-001	-9.106667e-003
11978	1.076447e+000	-9.877442e-003
14955	9.794670e-001	-9.656615e-003
17933	9.751148e-001	-8.258963e-003
20910	9.825800e-001	-2.499306e-002
23888	9.677539e-001	-4.590231e-002
26865	1.053051e+000	-2.122952e-001
29843	1.030357e+000	-1.779838e-001
32820	8.723136e-001	-2.308273e-001
35798	8.381773e-001	-4.643656e-002
38775	8.145706e-001	8.232779e-002
41753	1.075969e+000	1.183104e-001
44730	1.089958e+000	-1.926177e-001
47708	9.968976e-001	-1.244407e-001
50685	1.051496e+000	-8.179296e-002
53663	1.024875e+000	-4.834100e-002
56640	1.050860e+000	-9.320715e-002
59618	9.862866e-001	-9.393501e-002
62595	9.499646e-001	-1.468760e-001
65573	9.745787e-001	-1.397590e-001
68550	9.589505e-001	-1.547941e-001
71528	9.903917e-001	-1.974187e-001
74505	9.782750e-001	-2.110430e-001
77483	9.728533e-001	-2.197085e-001
80460	9.568619e-001	-2.523548e-001
83438	9.278435e-001	-2.762273e-001
86415	8.688922e-001	-2.754607e-001
89393	7.982718e-001	-1.968027e-001
92370	8.870843e-001	-1.871418e-002
95348	1.027734e+000	-7.685839e-002
98325	9.677771e-001	-3.427128e-001
101303	1.035995e+000	-1.714194e-001
104280	8.991116e-001	-2.057015e-001
107258	8.863433e-001	-2.749207e-001
110235	9.006938e-001	-2.855726e-001
113213	9.183395e-001	-2.607187e-001
116190	9.865435e-001	-2.858463e-001
119168	9.278724e-001	-3.591109e-001
122145	9.512090e-001	-3.267371e-001
125123	8.951344e-001	-3.584983e-001
128100	8.730878e-001	-3.992448e-001
131078	8.292758e-001	-4.016976e-001
134055	7.989741e-001	-3.454831e-001
137033	7.835485e-001	-2.646362e-001
140010	9.012168e-001	-2.433170e-001
142988	9.362948e-001	-2.812648e-001
145965	1.009560e+000	-4.316426e-001
148943	8.688147e-001	-3.182333e-001
151920	8.642174e-001	-4.390880e-001
154898	8.777097e-001	-4.290221e-001
157875	8.414777e-001	-4.116081e-001
160853	8.304457e-001	-4.082456e-001
163830	7.895528e-001	-4.341483e-001
166808	7.095575e-001	-3.472269e-001
169785	8.267961e-001	-1.925917e-001
172763	1.094181e+000	-3.990235e-001
175740	7.682148e-001	-4.999332e-001
178718	9.789864e-001	-4.593403e-001
181695	8.252078e-001	-4.153421e-001
184673	7.622899e-001	-5.054345e-001
187650	7.599610e-001	-4.669036e-001
190628	7.041807e-001	-4.880030e-001
193605	6.705509e-001	-3.912117e-001
196583	8.299723e-001	-2.651105e-001
199560	1.010715e+000	-5.174357e-001
202538	7.389067e-001	-5.447154e-001
205515	8.664662e-001	-5.702542e-001
208493	7.791501e-001	-5.228491e-001
211470	7.372777e-001	-5.564396e-001
214448	7.379019e-001	-5.795570e-001
217425	7.101386e-001	-6.123971e-001
220403	6.634254e-001	-5.957343e-001
223380	6.475612e-001	-5.727818e-001
226358	6.841244e-001	-5.398975e-001
229335	7.257508e-001	-6.182919e-001
232313	6.349157e-001	-7.004224e-001
235290	5.429631e-001	-6.975832e-001
238268	4.364998e-001	-6.464689e-001
241245	4.448455e-001	-5.176096e-001
244223	5.969882e-001	-5.679003e-001
247200	2.953134e-001	-7.484166e-001
250178	4.008773e-001	-1.959786e-001
253155	6.064590e-001	-4.650082e-001
256133	6.930061e-001	-9.653410e-001
259110	2.439543e-001	-8.238332e-001
262088	1.506416e-001	-7.291235e-001
265065	-3.718101e-002	-5.282848e-001
268043	-6.697656e-002	-4.841670e-001
271020	-2.456612e-001	-3.141612e-001
273998	-2.074329e-001	3.993315e-001
276975	4.876073e-001	3.883765e-001
279953	4.829136e-001	2.082356e-001
282930	4.178212e-001	4.285132e-001
285908	1.036277e+000	2.146486e-001
288885	7.232286e-001	-6.356609e-002
291863	8.608152e-001	-1.014695e-001
294840	7.436342e-001	-5.463141e-002
297818	7.149023e-001	4.448382e-002
300795	9.619449e-001	5.618014e-002
303773	9.353298e-001	-2.416399e-001
306750	8.587156e-001	-7.957902e-002
309728	9.230417e-001	-2.284663e-001
312705	1.001566e+000	-2.301618e-001
315683	9.395897e-001	-2.832872e-001
318660	9.290276e-001	-3.018534e-001
321638	9.027155e-001	-3.365388e-001
324615	8.756141e-001	-3.566014e-001
327593	8.547941e-001	-3.364257e-001
330570	8.906825e-001	-3.236345e-001
333548	9.003977e-001	-3.877311e-001
336525	8.621482e-001	-3.598442e-001
339503	9.159053e-001	-3.902269e-001
342480	9.096319e-001	-4.234134e-001
345458	8.813664e-001	-4.307329e-001
348435	8.735783e-001	-4.566687e-001
351413	8.696110e-001	-4.649992e-001
354390	8.631757e-001	-4.778222e-001
357368	8.469160e-001	-4.902790e-001
360345	8.339460e-001	-4.850642e-001
363323	8.410597e-001	-4.791029e-001
366300	8.490801e-001	-4.983880e-001
369278	8.484705e-001	-5.197955e-001
372255	8.379877e-001	-5.224875e-001
375233	8.330796e-001	-5.386204e-001
378210	8.332202e-001	-5.490721e-001
381188	8.204275e-001	-5.570725e-001
384165	8.157871e-001	-5.667901e-001
387143	8.090983e-001	-5.723476e-001
390120	7.995692e-001	-5.799113e-001
393098	7.907207e-001	-5.848140e-001
396075	7.889108e-001	-5.789793e-001
399053	8.020711e-001	-5.922693e-001
402030	7.877371e-001	-6.096084e-001
405008	7.819177e-001	-6.069990e-001
407985	7.771772e-001	-6.194115e-001
410963	7.743635e-001	-6.294039e-001
413940	7.661946e-001	-6.340172e-001
416918	7.570485e-001	-6.391692e-001
419895	7.521871e-001	-6.400644e-001
422873	7.509246e-001	-6.396196e-001
425850	7.547750e-001	-6.520421e-001
428828	7.410346e-001	-6.631075e-001
431805	7.377137e-001	-6.621629e-001
434783	7.307606e-001	-6.660407e-001
437760	7.330473e-001	-6.736833e-001
440738	7.239689e-001	-6.807404e-001
443715	7.199813e-001	-6.856212e-001
446693	7.159563e-001	-6.876587e-001
449670	7.123387e-001	-6.919979e-001
452648	7.112403e-001	-7.009831e-001
455625	7.018250e-001	-7.095423e-001
458603	6.934822e-001	-7.134341e-001
461580	6.851166e-001	-7.163392e-001
464558	6.803145e-001	-7.182708e-001
467535	6.769281e-001	-7.183561e-001
470513	6.774318e-001	-7.208389e-001
473490	6.761998e-001	-7.256138e-001
476468	6.762403e-001	-7.389541e-001
479445	6.663446e-001	-7.434274e-001
482423	6.613500e-001	-7.499326e-001
485400	6.545443e-001	-7.562401e-001
488378	6.481948e-001	-7.588042e-001
491355	6.390443e-001	-7.618759e-001
494333	6.311938e-001	-7.644195e-001
497310	6.281937e-001	-7.582763e-001
500288	6.315398e-001	-7.597542e-001
503265	6.325335e-001	-7.678364e-001
506243	6.264535e-001	-7.777877e-001
509220	6.174114e-001	-7.849592e-001
512198	6.157165e-001	-7.877301e-001
515175	6.093813e-001	-7.892369e-001
518153	5.973386e-001	-7.975049e-001
521130	5.938453e-001	-8.025809e-001
524108	5.859587e-001	-8.048411e-001
527085	5.795977e-001	-8.051854e-001
530063	5.801772e-001	-8.003359e-001
533040	5.811715e-001	-8.024498e-001
536018	5.818022e-001	-8.159971e-001
538995	5.710208e-001	-8.182614e-001
541973	5.653082e-001	-8.212725e-001
544950	5.609328e-001	-8.273168e-001
547928	5.550651e-001	-8.326169e-001
550905	5.457664e-001	-8.361811e-001
553883	5.412803e-001	-8.376630e-001
556860	5.332203e-001	-8.395740e-001
559838	5.258823e-001	-8.399111e-001
562815	5.259950e-001	-8.353867e-001
565793	5.300913e-001	-8.391934e-001
568770	5.229215e-001	-8.510807e-001
571748	5.229852e-001	-8.498117e-001
574725	5.131782e-001	-8.569977e-001
577703	5.053064e-001	-8.651019e-001
580680	4.980395e-001	-8.662135e-001
583658	4.914465e-001	-8.710259e-001
586635	4.827432e-001	-8.713033e-001
589613	4.708058e-001	-8.704040e-001
592590	4.635368e-001	-8.628791e-001
595568	4.653008e-001	-8.511832e-001
598545	4.838072e-001	-8.542299e-001
601523	4.864228e-001	-8.828455e-001
604500	4.580043e-001	-8.845039e-001
607478	4.638136e-001	-8.852131e-001
610455	4.526591e-001	-8.823511e-001
613433	4.520760e-001	-8.901249e-001
616410	4.425882e-001	-8.978317e-001
619388	4.388834e-001	-8.953323e-001
622365	4.301767e-001	-8.998136e-001
625343	4.211691e-001	-8.962840e-001
628320	4.148457e-001	-8.956375e-001
631298	4.136922e-001	-8.940761e-001
634275	4.217058e-001	-8.928909e-001
637253	4.209182e-001	-9.059909e-001
640230	4.063145e-001	-9.126313e-001
643208	4.048971e-001	-9.152705e-001
646185	3.939018e-001	-9.177586e-001
649163	3.925239e-001	-9.182611e-001
652140	3.879278e-001	-9.196069e-001
655118	3.803799e-001	-9.259090e-001
658095	3.720627e-001	-9.249428e-001
661073	3.696618e-001	-9.254886e-001
664050	3.619470e-001	-9.262730e-001
667028	3.599111e-001	-9.256579e-001
670005	3.552420e-001	-9.341650e-001
672983	3.474907e-001	-9.310338e-001
675960	3.446963e-001	-9.334757e-001
678938	3.397422e-001	-9.298809e-001
681915	3.413632e-001	-9.359521e-001
684893	3.355716e-001	-9.457503e-001
687870	3.212094e-001	-9.448234e-001
690848	3.169920e-001	-9.428468e-001
693825	3.101815e-001	-9.427483e-001
696803	3.108536e-001	-9.406956e-001
699780	3.093355e-001	-9.465241e-001
702758	3.048014e-001	-9.524883e-001
705735	2.937857e-001	-9.546939e-001
708713	2.868602e-001	-9.495646e-001
711690	2.883911e-001	-9.498096e-001
714668	2.859897e-001	-9.601686e-001
717645	2.707282e-001	-9.642874e-001
720623	2.648137e-001	-9.605477e-001
723600	2.562409e-001	-9.625894e-001
726578	2.503302e-001	-9.579532e-001
729555	2.484823e-001	-9.541862e-001
732533	2.510978e-001	-9.568277e-001
735510	2.453279e-001	-9.666895e-001
738488	2.314453e-001	-9.616444e-001
741465	2.392762e-001	-9.612066e-001
744443	2.354337e-001	-9.719252e-001
747420	2.173525e-001	-9.744089e-001
750398	2.125362e-001	-9.735048e-001
753375	2.068039e-001	-9.747812e-001
756353	2.001838e-001	-9.680866e-001
759330	1.923633e-001	-9.690533e-001
762308	1.943443e-001	-9.673764e-001
765285	1.961691e-001	-9.758080e-001
768263	1.797607e-001	-9.819106e-001
771240	1.733475e-001	-9.702030e-001
774218	1.784082e-001	-9.820653e-001
777195	1.632816e-001	-9.862864e-001
780173	1.477581e-001	-9.799817e-001
783150	1.455957e-001	-9.794016e-001
786128	1.388082e-001	-9.812552e-001
789105	1.346954e-001	-9.815793e-001
792083	1.247147e-001	-9.748494e-001
795060	1.298707e-001	-9.764761e-001
798038	1.197542e-001	-9.870545e-001
801015	1.022923e-001	-9.774790e-001
803993	1.130067e-001	-9.767931e-001
806970	1.029710e-001	-9.854260e-001
809948	8.592131e-002	-9.869703e-001
812925	8.470771e-002	-9.893348e-001
815903	6.059202e-002	-9.881044e-001
818880	6.066262e-002	-9.771624e-001
821858	6.142567e-002	-9.753858e-001
824835	5.678182e-002	-9.827892e-001
827813	4.178972e-002	-9.845318e-001
830790	2.644333e-002	-9.848275e-001
833768	1.443590e-002	-9.813049e-001
836745	4.215859e-003	-9.760406e-001
839723	-1.104530e-003	-9.718830e-001
842700	-1.334539e-002	-9.843315e-001
845678	-4.645269e-002	-9.784292e-001
848655	-5.324587e-002	-9.530648e-001
851633	-6.043803e-002	-9.423445e-001
854610	-5.376331e-002	-9.453352e-001
857588	-7.234837e-002	-9.640738e-001
860565	-1.221661e-001	-9.610178e-001
863543	-1.421798e-001	-9.346315e-001
866520	-1.823409e-001	-9.183450e-001
869498	-2.026160e-001	-9.005303e-001
872475	-2.384279e-001	-8.789727e-001
875453	-3.110562e-001	-8.344396e-001
878430	-3.511588e-001	-7.258929e-001
881408	-3.618753e-001	-6.259646e-001
884385	-3.377276e-001	-4.888926e-001
887363	-2.753989e-001	-3.393586e-001
890340	-1.040528e-001	-2.077888e-001
893318	1.308084e-001	-1.955321e-001
896295	2.845733e-001	-3.109941e-001
899273	4.044910e-001	-3.858040e-001
902250	4.775143e-001	-5.821475e-001
905228	3.938759e-001	-6.573834e-001
908205	4.153218e-001	-7.013066e-001
911183	4.063150e-001	-7.981194e-001
914160	3.678835e-001	-8.288563e-001
917138	3.181881e-001	-8.584561e-001
920115	3.032984e-001	-8.800604e-001
923093	2.863813e-001	-9.075879e-001
926070	2.492663e-001	-9.213114e-001
929048	2.318563e-001	-9.151067e-001
932025	2.321164e-001	-9.166927e-001
935003	2.271809e-001	-9.427608e-001
937980	2.021008e-001	-9.530922e-001
940958	1.900028e-001	-9.550699e-001
943935	1.792490e-001	-9.559251e-001
946913	1.739755e-001	-9.713286e-001
949890	1.567880e-001	-9.757373e-001
952868	1.434078e-001	-9.772191e-001
955845	1.349413e-001	-9.792776e-001
958823	1.203759e-001	-9.826368e-001
961800	1.157436e-001	-9.822324e-001
964778	1.080928e-001	-9.833440e-001
967755	1.005173e-001	-9.864641e-001
970733	9.102440e-002	-9.883411e-001
973710	8.362072e-002	-9.890750e-001
976688	7.370121e-002	-9.900930e-001
979665	6.698727e-002	-9.870901e-001
982643	6.600470e-002	-9.858641e-001
985620	6.198780e-002	-9.968313e-001
988598	4.786741e-002	-9.945104e-001
991575	5.056865e-002	-9.946914e-001
994553	3.840068e-002	-9.969470e-001
997530	3.419616e-002	-9.986305e-001
1000508	2.743974e-002	-9.976936e-001
1003485	2.214785e-002	-9.987189e-001
1006463	1.306924e-002	-9.958753e-001
1009440	7.901384e-003	-9.960716e-001
1012418	8.436782e-003	-9.954951e-001
1015395	5.682732e-003	-9.993568e-001
1018373	-4.792894e-003	-1.002613e+000
1021350	-1.398927e-002	-1.001996e+000
1024328	-1.560182e-002	-1.000744e+000
1027305	-2.261022e-002	-1.001116e+000
1030283	-2.783482e-002	-1.001370e+000
1033260	-3.534565e-002	-9.987208e-001
1036238	-4.118269e-002	-9.994090e-001
1039215	-4.353892e-002	-9.954602e-001
1042193	-4.558324e-002	-9.935840e-001
1045170	-4.410912e-002	-9.955093e-001
1048148	-5.093419e-002	-9.995035e-001
1051125	-5.930043e-002	-1.003159e+000
1054103	-6.275117e-002	-1.000124e+000
1057080	-7.007555e-002	-9.999764e-001
1060058	-7.263726e-002	-9.986005e-001
1063035	-7.975353e-002	-9.981295e-001
1066013	-8.188758e-002	-9.955261e-001
1068990	-8.387343e-002	-9.940889e-001
1071968	-8.694039e-002	-9.980952e-001
1074945	-9.466002e-002	-9.983259e-001
1077923	-9.879544e-002	-9.974725e-001
1080900	-1.033888e-001	-9.945824e-001
1083878	-1.058200e-001	-9.945866e-001
1086855	-1.071582e-001	-9.964307e-001
1089833	-1.162152e-001	-9.987614e-001
1092810	-1.203937e-001	-9.932034e-001
1095788	-1.242639e-001	-9.906397e-001
1098765	-1.256810e-001	-9.912163e-001
1101743	-1.264621e-001	-9.927750e-001
1104720	-1.321087e-001	-9.974901e-001
1107698	-1.391548e-001	-9.945087e-001
1110675	-1.428121e-001	-9.919176e-001
1113653	-1.463430e-001	-9.903795e-001
1116630	-1.498393e-001	-9.881322e-001
1119608	-1.545250e-001	-9.866780e-001
1122585	-1.538454e-001	-9.865552e-001
1125563	-1.563465e-001	-9.889693e-001
1128540	-1.608644e-001	-9.922976e-001
1131518	-1.690562e-001	-9.885367e-001
1134495	-1.706438e-001	-9.898931e-001
1137473	-1.741176e-001	-9.866262e-001
1140450	-1.801812e-001	-9.876709e-001
1143428	-1.829971e-001	-9.855873e-001
1146405	-1.878044e-001	-9.841496e-001
1149383	-1.896543e-001	-9.819914e-001
1152360	-1.920073e-001	-9.811336e-001
1155338	-1.944209e-001	-9.809600e-001
1158315	-1.989587e-001	-9.846919e-001
1161293	-2.045928e-001	-9.833174e-001
1164270	-2.068193e-001	-9.787710e-001
1167248	-2.112993e-001	-9.806740e-001
1170225	-2.144262e-001	-9.784204e-001
1173203	-2.194054e-001	-9.770648e-001
1176180	-2.224271e-001	-9.752264e-001
1179158	-2.242561e-001	-9.770426e-001
1182135	-2.290708e-001	-9.735350e-001
1185113	-2.312832e-001	-9.729852e-001
1188090	-2.365545e-001	-9.726094e-001
1191068	-2.400295e-001	-9.701683e-001
1194045	-2.403829e-001	-9.691503e-001
1197023	-2.443358e-001	-9.661946e-001
1200000	-2.460125e-001	-9.679150e-001
