!Agilent Technologies,E5071C,MY46100305,A.07.02
!Date: Fri Jan 01 01:34:06 1988
!Data & Calibration Information:
!Freq	S11:SOLT1(ON)
# Hz S dB R 50
9000	2.272958e-001	-2.808251e-002
11978	6.666981e-001	-5.551638e-001
14955	-1.704588e-001	-4.322795e-001
17933	-2.353449e-001	-4.509943e-001
20910	-1.396496e-001	-1.036079e+000
23888	-3.757649e-001	-3.160517e+000
26865	6.392951e-001	-1.089446e+001
29843	4.520088e-001	-9.347978e+000
32820	-9.976507e-001	-1.493939e+001
35798	-1.477081e+000	-2.854800e+000
38775	-1.614907e+000	5.025635e+000
41753	6.043051e-001	5.576402e+000
44730	8.688733e-001	-9.099315e+000
47708	1.672235e-001	-8.695603e+000
50685	6.870424e-001	-3.697443e+000
53663	1.774760e-001	-1.435277e+000
56640	2.181471e-001	-3.018692e+000
59618	-2.130810e-003	-4.318559e+000
62595	-2.568852e-001	-8.256704e+000
65573	-2.561109e-001	-8.371810e+000
68550	-2.087420e-001	-9.599899e+000
71528	1.327913e-001	-9.876363e+000
74505	-1.069778e-001	-1.233077e+001
77483	-7.382498e-002	-1.295069e+001
80460	-8.225502e-002	-1.507412e+001
83438	-3.032126e-001	-1.682666e+001
86415	-8.093987e-001	-1.746743e+001
89393	-1.680111e+000	-1.349148e+001
92370	-1.075320e+000	-1.429656e+000
95348	5.059752e-003	-3.944370e+000
98325	4.091774e-001	-1.930190e+001
101303	2.977485e-001	-8.834498e+000
104280	-7.430505e-001	-1.408105e+001
107258	-5.917016e-001	-1.815625e+001
110235	-4.562624e-001	-1.831802e+001
113213	-4.468909e-001	-1.654624e+001
116190	1.425536e-001	-1.559581e+001
119168	5.084645e-002	-2.116846e+001
122145	-3.845261e-002	-1.860390e+001
125123	-3.254385e-001	-2.232021e+001
128100	-2.919900e-001	-2.468654e+001
131078	-6.475161e-001	-2.585750e+001
134055	-1.079641e+000	-2.304232e+001
137033	-1.569667e+000	-1.908799e+001
140010	-6.908352e-001	-1.497117e+001
142988	-1.516116e-001	-1.635860e+001
145965	7.820893e-001	-2.331964e+001
148943	-6.664966e-001	-1.983545e+001
151920	-2.666476e-001	-2.731949e+001
154898	-1.355895e-001	-2.583136e+001
157875	-5.181583e-001	-2.559337e+001
160853	-6.620012e-001	-2.586936e+001
163830	-8.678569e-001	-2.862920e+001
166808	-2.073288e+000	-2.559046e+001
169785	-1.180146e+000	-1.289532e+001
172763	1.180701e+000	-2.157112e+001
175740	-8.418986e-001	-3.055372e+001
178718	5.983319e-001	-2.673586e+001
181695	-4.324841e-001	-2.633281e+001
184673	-7.614454e-001	-3.194699e+001
187650	-1.085352e+000	-3.164210e+001
190628	-1.428021e+000	-3.425770e+001
193605	-2.164529e+000	-2.953741e+001
196583	-1.072625e+000	-1.828638e+001
199560	9.206817e-001	-2.774676e+001
202538	-7.246128e-001	-3.518071e+001
205515	2.078145e-001	-3.386437e+001
208493	-5.108181e-001	-3.343228e+001
211470	-6.853786e-001	-3.654847e+001
214448	-5.921180e-001	-3.749732e+001
217425	-6.343432e-001	-4.023393e+001
220403	-9.670477e-001	-4.117198e+001
223380	-1.215374e+000	-4.146736e+001
226358	-1.273387e+000	-3.835802e+001
229335	-5.194753e-001	-4.079081e+001
232313	-5.564499e-001	-4.706426e+001
235290	-1.009586e+000	-5.111511e+001
238268	-2.237831e+000	-5.571256e+001
241245	-3.252582e+000	-4.836864e+001
244223	-1.836493e+000	-4.259815e+001
247200	-1.909208e+000	-6.770810e+001
250178	-7.010267e+000	-2.827131e+001
253155	-2.389720e+000	-3.429341e+001
256133	1.317924e+000	-5.439833e+001
259110	-1.523149e+000	-7.236853e+001
262088	-2.387982e+000	-7.832273e+001
265065	-6.108147e+000	-9.437642e+001
268043	-7.108398e+000	-9.017806e+001
271020	-9.174735e+000	-1.151413e+002
273998	-9.912641e+000	1.268632e+002
276975	-4.115148e+000	4.883132e+001
279953	-4.277113e+000	1.136648e+001
282930	-5.032846e+000	4.794738e+001
285908	-5.169785e-002	1.202259e+001
288885	-3.114813e+000	2.530278e+000
291863	-9.489993e-001	-1.220496e+001
294840	-2.531416e+000	1.676880e+000
297818	-3.760167e+000	1.194410e+000
300795	-1.751647e-001	5.443163e+000
303773	2.702361e-001	-1.420563e+001
306750	-1.527303e+000	-4.861723e+000
309728	-3.842659e-001	-1.724053e+001
312705	3.851804e-001	-9.432977e+000
315683	1.892473e-001	-1.655991e+001
318660	-2.269072e-001	-1.545493e+001
321638	-3.574727e-001	-2.019759e+001
324615	-3.634186e-001	-2.214546e+001
327593	-7.744244e-001	-2.084308e+001
330570	-3.887995e-001	-1.982619e+001
333548	-2.430475e-001	-2.211096e+001
336525	-6.293678e-001	-2.339597e+001
339503	-2.829494e-002	-2.274346e+001
342480	-1.023623e-002	-2.532639e+001
345458	-2.801312e-001	-2.641114e+001
348435	-1.928148e-001	-2.799144e+001
351413	-9.386283e-002	-2.791079e+001
354390	-1.133595e-001	-2.889157e+001
357368	-2.184586e-001	-2.982168e+001
360345	-3.126719e-001	-3.013225e+001
363323	-3.288375e-001	-2.926355e+001
366300	-1.653700e-001	-3.035184e+001
369278	-4.887481e-002	-3.140964e+001
372255	-1.485384e-001	-3.190504e+001
375233	-9.788796e-002	-3.266371e+001
378210	-3.838928e-002	-3.312260e+001
381188	-7.755016e-002	-3.409941e+001
384165	-1.184409e-001	-3.463376e+001
387143	-9.923329e-002	-3.520829e+001
390120	-1.187824e-001	-3.559381e+001
393098	-1.465304e-001	-3.626760e+001
396075	-2.025216e-001	-3.610829e+001
399053	-5.889013e-002	-3.623263e+001
402030	-6.869056e-002	-3.758208e+001
405008	-9.618322e-002	-3.760649e+001
407985	-6.756650e-002	-3.842167e+001
410963	-6.917658e-002	-3.886717e+001
413940	-9.568507e-002	-3.954373e+001
416918	-8.752577e-002	-3.987043e+001
419895	-1.197936e-001	-4.028491e+001
422873	-1.422926e-001	-4.024763e+001
425850	-5.435194e-002	-4.070591e+001
428828	-9.338976e-002	-4.159029e+001
431805	-1.049583e-001	-4.166946e+001
434783	-1.222584e-001	-4.229747e+001
437760	-8.648376e-002	-4.239372e+001
440738	-8.889834e-002	-4.305374e+001
443715	-8.339460e-002	-4.344254e+001
446693	-1.030555e-001	-4.371802e+001
449670	-9.321097e-002	-4.408142e+001
452648	-4.417303e-002	-4.435100e+001
455625	-3.736041e-002	-4.518792e+001
458603	-7.672006e-002	-4.565528e+001
461580	-1.210944e-001	-4.601786e+001
464558	-1.374524e-001	-4.636338e+001
467535	-1.385668e-001	-4.643982e+001
470513	-1.225040e-001	-4.662103e+001
473490	-1.001987e-001	-4.678926e+001
476468	-3.685183e-002	-4.720842e+001
479445	-5.553319e-002	-4.789413e+001
482423	-3.979882e-002	-4.843502e+001
485400	-3.546175e-002	-4.889390e+001
488378	-4.293502e-002	-4.942172e+001
491355	-8.552493e-002	-4.979466e+001
494333	-1.229938e-001	-5.028059e+001
497310	-1.756453e-001	-5.021454e+001
500288	-1.435135e-001	-5.011905e+001
503265	-8.558848e-002	-5.043395e+001
506243	-5.138305e-002	-5.095050e+001
509220	-5.983144e-002	-5.169633e+001
512198	-4.193140e-002	-5.176534e+001
515175	-5.572935e-002	-5.226066e+001
518153	-6.224019e-002	-5.287923e+001
521130	-5.930456e-002	-5.331430e+001
524108	-6.591790e-002	-5.363542e+001
527085	-1.347528e-001	-5.415578e+001
530063	-1.427016e-001	-5.385646e+001
533040	-1.122094e-001	-5.393753e+001
536018	-3.536227e-002	-5.433087e+001
538995	-5.692934e-002	-5.506962e+001
541973	-5.186615e-002	-5.525878e+001
544950	-4.820455e-002	-5.563774e+001
547928	-3.238207e-002	-5.617438e+001
550905	-7.203143e-002	-5.663193e+001
553883	-6.424584e-002	-5.705036e+001
556860	-1.008098e-001	-5.745335e+001
559838	-1.375798e-001	-5.770633e+001
562815	-1.668684e-001	-5.758893e+001
565793	-1.073388e-001	-5.760885e+001
568770	-8.951193e-002	-5.821631e+001
571748	-5.445890e-002	-5.821303e+001
574725	-7.968928e-002	-5.891885e+001
577703	-3.201550e-002	-5.944173e+001
580680	-6.160815e-002	-5.985073e+001
583658	-5.845374e-002	-6.036062e+001
586635	-9.042366e-002	-6.084757e+001
589613	-1.438968e-001	-6.131112e+001
592590	-2.261875e-001	-6.167621e+001
595568	-3.198475e-001	-6.110804e+001
598545	-2.167291e-001	-6.012967e+001
601523	1.469191e-002	-6.102789e+001
604500	-1.001380e-001	-6.227466e+001
607478	-5.478402e-002	-6.220176e+001
610455	-1.224951e-001	-6.258406e+001
613433	-7.906841e-002	-6.288953e+001
616410	-6.915450e-002	-6.347337e+001
619388	-7.642542e-002	-6.371709e+001
622365	-8.918705e-002	-6.425853e+001
625343	-1.520584e-001	-6.472466e+001
628320	-1.825397e-001	-6.494887e+001
631298	-2.078725e-001	-6.487658e+001
634275	-1.831982e-001	-6.453985e+001
637253	-5.491861e-002	-6.491528e+001
640230	-6.031372e-002	-6.578182e+001
643208	-6.180008e-002	-6.591604e+001
646185	-8.072164e-002	-6.664143e+001
649163	-8.059343e-002	-6.667664e+001
652140	-7.290295e-002	-6.698256e+001
655118	-7.996858e-002	-6.742636e+001
658095	-9.128179e-002	-6.772547e+001
661073	-1.138198e-001	-6.803350e+001
664050	-1.128052e-001	-6.844633e+001
667028	-1.206639e-001	-6.849308e+001
670005	-8.563549e-002	-6.895176e+001
672983	-1.101446e-001	-6.932394e+001
675960	-1.146915e-001	-6.947778e+001
678938	-1.614433e-001	-6.985527e+001
681915	-1.193144e-001	-6.970598e+001
684893	-4.284662e-002	-7.043684e+001
687870	-1.089783e-001	-7.096828e+001
690848	-1.086241e-001	-7.123519e+001
693825	-1.443510e-001	-7.159934e+001
696803	-1.637705e-001	-7.155444e+001
699780	-1.165267e-001	-7.164162e+001
702758	-8.955752e-002	-7.220492e+001
705735	-8.553241e-002	-7.281464e+001
708713	-1.548904e-001	-7.300979e+001
711690	-1.439734e-001	-7.298577e+001
714668	-5.926338e-002	-7.313410e+001
717645	-6.618701e-002	-7.410247e+001
720623	-9.808280e-002	-7.445095e+001
723600	-1.116911e-001	-7.504832e+001
726578	-1.576390e-001	-7.515035e+001
729555	-2.010079e-001	-7.518533e+001
732533	-1.717561e-001	-7.508821e+001
735510	-1.080779e-001	-7.562802e+001
738488	-1.631734e-001	-7.626460e+001
741465	-1.662950e-001	-7.576334e+001
744443	-7.538589e-002	-7.643669e+001
747420	-8.797794e-002	-7.732932e+001
750398	-1.045953e-001	-7.760898e+001
753375	-1.293274e-001	-7.778272e+001
756353	-1.803267e-001	-7.823050e+001
759330	-1.975510e-001	-7.859819e+001
762308	-2.220428e-001	-7.857741e+001
765285	-1.317642e-001	-7.845318e+001
768263	-1.032553e-001	-7.952184e+001
771240	-2.249722e-001	-7.976140e+001
774218	-9.578939e-002	-7.942829e+001
777195	-1.015849e-001	-8.044528e+001
780173	-1.709684e-001	-8.117408e+001
783150	-1.829636e-001	-8.142054e+001
786128	-1.711001e-001	-8.174572e+001
789105	-1.669879e-001	-8.213766e+001
792083	-2.541292e-001	-8.253137e+001
795060	-2.321025e-001	-8.239651e+001
798038	-1.311578e-001	-8.284782e+001
801015	-2.489902e-001	-8.395523e+001
803993	-2.528901e-001	-8.328203e+001
806970	-1.806382e-001	-8.387879e+001
809948	-1.767545e-001	-8.484433e+001
812925	-1.556115e-001	-8.493806e+001
815903	-1.994442e-001	-8.644327e+001
818880	-2.922166e-001	-8.626139e+001
821858	-3.027025e-001	-8.631606e+001
824835	-2.297198e-001	-8.658823e+001
827813	-2.206958e-001	-8.750743e+001
830790	-2.569099e-001	-8.828652e+001
833768	-2.718421e-001	-8.900469e+001
836745	-3.112597e-001	-8.947965e+001
839723	-3.344083e-001	-8.985255e+001
842700	-2.640916e-001	-9.089454e+001
845678	-2.976797e-001	-9.254166e+001
848655	-5.401285e-001	-9.275404e+001
851633	-5.603091e-001	-9.351444e+001
854610	-5.948529e-001	-9.356009e+001
857588	-4.331408e-001	-9.395168e+001
860565	-4.051488e-001	-9.728248e+001
863543	-5.631033e-001	-9.821250e+001
866520	-5.967624e-001	-1.012217e+002
869498	-8.857562e-001	-1.028310e+002
872475	-9.657186e-001	-1.049492e+002
875453	-1.160319e+000	-1.092464e+002
878430	-1.771584e+000	-1.153882e+002
881408	-3.054424e+000	-1.226876e+002
884385	-5.108312e+000	-1.233715e+002
887363	-7.523611e+000	-1.242848e+002
890340	-1.086457e+001	-1.207947e+002
893318	-1.683731e+001	-5.420036e+001
896295	-6.676255e+000	-3.948904e+001
899273	-4.108225e+000	-4.655858e+001
902250	-3.931759e+000	-5.915548e+001
905228	-2.065461e+000	-4.900434e+001
908205	-1.367553e+000	-6.019306e+001
911183	-1.587058e+000	-7.266645e+001
914160	-1.020186e+000	-6.417780e+001
917138	-9.633468e-001	-6.812072e+001
920115	-7.217726e-001	-7.098350e+001
923093	-3.954243e-001	-7.239079e+001
926070	-5.025264e-001	-7.548363e+001
929048	-6.948935e-001	-7.474584e+001
932025	-5.112598e-001	-7.637587e+001
935003	-2.561165e-001	-7.691031e+001
937980	-3.942718e-001	-7.749027e+001
940958	-3.699025e-001	-7.840298e+001
943935	-3.277200e-001	-7.893289e+001
946913	-1.777913e-001	-7.987087e+001
949890	-1.831286e-001	-8.072251e+001
952868	-1.955247e-001	-8.165958e+001
955845	-2.187452e-001	-8.185179e+001
958823	-2.012441e-001	-8.267057e+001
961800	-2.056740e-001	-8.334655e+001
964778	-2.036518e-001	-8.344346e+001
967755	-1.903753e-001	-8.399670e+001
970733	-1.370993e-001	-8.469035e+001
973710	-1.597103e-001	-8.535685e+001
976688	-1.803417e-001	-8.559372e+001
979665	-2.142436e-001	-8.599473e+001
982643	-1.953215e-001	-8.601401e+001
985620	-1.056385e-001	-8.633042e+001
988598	-1.509373e-001	-8.714019e+001
991575	-1.491476e-001	-8.696625e+001
994553	-1.316912e-001	-8.776887e+001
997530	-1.082720e-001	-8.808521e+001
1000508	-1.122600e-001	-8.841876e+001
1003485	-1.149083e-001	-8.869394e+001
1006463	-1.400532e-001	-8.921247e+001
1009440	-1.350319e-001	-8.939655e+001
1012418	-1.515760e-001	-8.966343e+001
1015395	-1.263834e-001	-8.965945e+001
1018373	-9.188119e-002	-9.026169e+001
1021350	-1.116289e-001	-9.064050e+001
1024328	-1.057819e-001	-9.075466e+001
1027305	-1.007009e-001	-9.121762e+001
1030283	-1.006929e-001	-9.145138e+001
1033260	-1.243361e-001	-9.182473e+001
1036238	-1.131815e-001	-9.224290e+001
1039215	-1.492256e-001	-9.237852e+001
1042193	-1.721239e-001	-9.258420e+001
1045170	-1.484438e-001	-9.240659e+001
1048148	-1.153406e-001	-9.276480e+001
1051125	-8.457007e-002	-9.333251e+001
1054103	-1.077450e-001	-9.349842e+001
1057080	-9.095482e-002	-9.392959e+001
1060058	-1.081724e-001	-9.404898e+001
1063035	-1.109750e-001	-9.443785e+001
1066013	-1.278341e-001	-9.470315e+001
1068990	-1.464082e-001	-9.472564e+001
1071968	-9.153098e-002	-9.481898e+001
1074945	-9.833203e-002	-9.535985e+001
1077923	-1.103451e-001	-9.554080e+001
1080900	-1.321509e-001	-9.578318e+001
1083878	-1.202088e-001	-9.595682e+001
1086855	-1.093649e-001	-9.604115e+001
1089833	-9.720806e-002	-9.658887e+001
1092810	-1.146119e-001	-9.686954e+001
1095788	-1.328414e-001	-9.707442e+001
1098765	-1.285169e-001	-9.716933e+001
1101743	-1.399265e-001	-9.724889e+001
1104720	-7.771049e-002	-9.746082e+001
1107698	-1.010156e-001	-9.788540e+001
1110675	-1.124821e-001	-9.816853e+001
1113653	-1.150480e-001	-9.839443e+001
1116630	-1.296245e-001	-9.863076e+001
1119608	-1.484845e-001	-9.881486e+001
1122585	-1.461746e-001	-9.886304e+001
1125563	-1.285176e-001	-9.887361e+001
1128540	-8.778923e-002	-9.932762e+001
1131518	-1.163433e-001	-9.959972e+001
1134495	-1.050593e-001	-9.973394e+001
1137473	-1.139951e-001	-9.995990e+001
1140450	-1.013468e-001	-1.002202e+002
1143428	-1.074246e-001	-1.005143e+002
1146405	-1.060609e-001	-1.008270e+002
1149383	-1.323719e-001	-1.010032e+002
1152360	-1.328688e-001	-1.011172e+002
1155338	-1.400618e-001	-1.012311e+002
1158315	-1.188526e-001	-1.013773e+002
1161293	-1.069756e-001	-1.017519e+002
1164270	-1.272282e-001	-1.019514e+002
1167248	-1.254764e-001	-1.021720e+002
1170225	-1.189184e-001	-1.024286e+002
1173203	-1.165925e-001	-1.026512e+002
1176180	-1.341320e-001	-1.027313e+002
1179158	-1.281977e-001	-1.029117e+002
1182135	-1.156320e-001	-1.031984e+002
1185113	-1.359358e-001	-1.034004e+002
1188090	-1.270181e-001	-1.036917e+002
1191068	-1.570391e-001	-1.038978e+002
1194045	-1.504202e-001	-1.040219e+002
1197023	-1.672519e-001	-1.041929e+002
1200000	-1.572531e-001	-1.042400e+002
