!Agilent Technologies,E5071C,MY46100305,A.07.02
!Date: Fri Jan 01 02:32:38 1988
!Data & Calibration Information:
!Freq	S11:SOLT1(ON)
# Hz S RI R 50
9000	1.019524e+000	-2.624896e-003
11978	1.078160e+000	-9.390699e-003
14955	9.818169e-001	-7.812687e-003
17933	9.726849e-001	-8.956009e-003
20910	9.819796e-001	-1.999184e-002
23888	9.681728e-001	-5.335125e-002
26865	1.055060e+000	-2.186114e-001
29843	1.045452e+000	-1.882628e-001
32820	8.651733e-001	-2.280652e-001
35798	8.333401e-001	-5.240676e-002
38775	8.199405e-001	8.001688e-002
41753	1.080013e+000	1.108071e-001
44730	1.094881e+000	-1.943228e-001
47708	9.899687e-001	-1.256482e-001
50685	1.055445e+000	-8.222141e-002
53663	1.028225e+000	-4.625958e-002
56640	1.050337e+000	-8.574758e-002
59618	9.939681e-001	-8.826257e-002
62595	9.518846e-001	-1.505800e-001
65573	9.674586e-001	-1.394483e-001
68550	9.515004e-001	-1.634217e-001
71528	9.987136e-001	-1.971424e-001
74505	9.708117e-001	-2.077545e-001
77483	9.639556e-001	-2.177618e-001
80460	9.517786e-001	-2.508666e-001
83438	9.276353e-001	-2.751716e-001
86415	8.716853e-001	-2.739146e-001
89393	7.983506e-001	-2.027365e-001
92370	8.800873e-001	-1.976550e-002
95348	1.026088e+000	-6.345645e-002
98325	9.686039e-001	-3.562746e-001
101303	1.038171e+000	-1.576464e-001
104280	8.847775e-001	-2.086829e-001
107258	8.741268e-001	-2.850864e-001
110235	8.923295e-001	-2.951694e-001
113213	9.046513e-001	-2.646681e-001
116190	9.864915e-001	-2.732018e-001
119168	9.351580e-001	-3.698173e-001
122145	9.463407e-001	-3.138012e-001
125123	8.894652e-001	-3.652305e-001
128100	8.774643e-001	-4.100320e-001
131078	8.339761e-001	-4.111326e-001
134055	8.040641e-001	-3.558542e-001
137033	7.744958e-001	-2.733916e-001
140010	8.976613e-001	-2.309626e-001
142988	9.464205e-001	-2.866156e-001
145965	1.009935e+000	-4.236475e-001
148943	8.643447e-001	-3.138763e-001
151920	8.544727e-001	-4.469507e-001
154898	8.720942e-001	-4.409638e-001
157875	8.395413e-001	-4.152942e-001
160853	8.309277e-001	-4.037281e-001
163830	7.966896e-001	-4.409760e-001
166808	6.936538e-001	-3.538268e-001
169785	8.213719e-001	-1.836495e-001
172763	1.112508e+000	-3.781341e-001
175740	7.586137e-001	-5.141736e-001
178718	9.932466e-001	-4.424315e-001
181695	8.156819e-001	-4.076538e-001
184673	7.543891e-001	-5.168951e-001
187650	7.519839e-001	-4.554258e-001
190628	6.977963e-001	-4.840023e-001
193605	6.577344e-001	-3.972287e-001
196583	8.232335e-001	-2.512744e-001
199560	1.034387e+000	-5.068163e-001
202538	7.326201e-001	-5.598671e-001
205515	8.677035e-001	-5.710827e-001
208493	7.853196e-001	-5.293507e-001
211470	7.495229e-001	-5.580641e-001
214448	7.443231e-001	-5.799173e-001
217425	7.217684e-001	-6.072938e-001
220403	6.652583e-001	-5.995537e-001
223380	6.457307e-001	-5.825451e-001
226358	6.732773e-001	-5.299117e-001
229335	7.346600e-001	-6.144861e-001
232313	6.579362e-001	-7.215795e-001
235290	5.269566e-001	-7.157591e-001
238268	4.316199e-001	-6.391262e-001
241245	4.472341e-001	-5.026417e-001
244223	5.927140e-001	-6.033263e-001
247200	2.746852e-001	-7.382253e-001
250178	3.805396e-001	-1.869645e-001
253155	6.720293e-001	-4.998121e-001
256133	6.496666e-001	-9.424123e-001
259110	2.937947e-001	-8.050067e-001
262088	1.380394e-001	-6.585649e-001
265065	-2.712697e-002	-4.787530e-001
268043	1.444367e-003	-4.188450e-001
271020	-1.070266e-001	-3.586039e-001
273998	-3.354773e-001	2.730179e-001
276975	2.348559e-001	6.114979e-001
279953	8.935538e-001	3.190492e-001
282930	6.558288e-002	3.918710e-001
285908	1.062375e+000	2.726206e-001
288885	1.096097e+000	-2.059943e-001
291863	4.809516e-001	-5.098932e-002
294840	8.495358e-001	-2.448079e-001
297818	8.755474e-001	6.962542e-002
300795	1.026314e+000	2.417429e-001
303773	9.053895e-001	-3.420705e-001
306750	9.806335e-001	1.494472e-001
309728	8.579429e-001	-2.611868e-001
312705	9.388911e-001	-3.478439e-001
315683	1.034968e+000	-3.060376e-001
318660	1.034737e+000	-3.730359e-001
321638	9.150298e-001	-4.198953e-001
324615	8.136472e-001	-3.441057e-001
327593	8.810241e-001	-2.614388e-001
330570	8.793852e-001	-3.623772e-001
333548	9.138525e-001	-3.911944e-001
336525	8.348963e-001	-3.267862e-001
339503	9.023151e-001	-3.903682e-001
342480	8.899951e-001	-4.417756e-001
345458	8.792934e-001	-4.214694e-001
348435	8.888594e-001	-4.466976e-001
351413	8.762916e-001	-4.950869e-001
354390	8.468270e-001	-4.699195e-001
357368	8.476875e-001	-4.921652e-001
360345	8.481461e-001	-4.895691e-001
363323	8.316372e-001	-4.762924e-001
366300	8.558954e-001	-4.969588e-001
369278	8.506850e-001	-5.216503e-001
372255	8.430848e-001	-5.261405e-001
375233	8.221509e-001	-5.381120e-001
378210	8.305106e-001	-5.470902e-001
381188	8.257355e-001	-5.595507e-001
384165	8.110431e-001	-5.711544e-001
387143	8.051335e-001	-5.680589e-001
390120	7.967334e-001	-5.752886e-001
393098	7.924264e-001	-5.894110e-001
396075	7.841106e-001	-5.774184e-001
399053	8.032864e-001	-5.893953e-001
402030	7.885202e-001	-6.097890e-001
405008	7.798688e-001	-6.061940e-001
407985	7.751973e-001	-6.160407e-001
410963	7.729118e-001	-6.246094e-001
413940	7.643665e-001	-6.402373e-001
416918	7.539371e-001	-6.388295e-001
419895	7.496026e-001	-6.393399e-001
422873	7.504253e-001	-6.391242e-001
425850	7.508557e-001	-6.527791e-001
428828	7.362926e-001	-6.593190e-001
431805	7.354404e-001	-6.583196e-001
434783	7.292835e-001	-6.660143e-001
437760	7.287612e-001	-6.725784e-001
440738	7.219916e-001	-6.795407e-001
443715	7.180425e-001	-6.830369e-001
446693	7.125988e-001	-6.864531e-001
449670	7.099344e-001	-6.897341e-001
452648	7.097415e-001	-6.982448e-001
455625	6.993253e-001	-7.109300e-001
458603	6.907543e-001	-7.110122e-001
461580	6.819229e-001	-7.150573e-001
464558	6.771404e-001	-7.139185e-001
467535	6.751201e-001	-7.155347e-001
470513	6.738986e-001	-7.186300e-001
473490	6.726209e-001	-7.224308e-001
476468	6.746733e-001	-7.352137e-001
479445	6.622197e-001	-7.413724e-001
482423	6.575583e-001	-7.456655e-001
485400	6.538979e-001	-7.538375e-001
488378	6.441020e-001	-7.591065e-001
491355	6.355824e-001	-7.604347e-001
494333	6.269917e-001	-7.610472e-001
497310	6.249428e-001	-7.554274e-001
500288	6.282827e-001	-7.588656e-001
503265	6.277181e-001	-7.641983e-001
506243	6.279505e-001	-7.753930e-001
509220	6.145123e-001	-7.831357e-001
512198	6.122663e-001	-7.834857e-001
515175	6.040851e-001	-7.867223e-001
518153	5.963255e-001	-7.943142e-001
521130	5.901674e-001	-7.999435e-001
524108	5.825684e-001	-8.021349e-001
527085	5.739597e-001	-7.993393e-001
530063	5.765191e-001	-7.964216e-001
533040	5.809997e-001	-7.995008e-001
536018	5.788643e-001	-8.115658e-001
538995	5.668609e-001	-8.172613e-001
541973	5.610823e-001	-8.174847e-001
544950	5.578193e-001	-8.227276e-001
547928	5.529826e-001	-8.308900e-001
550905	5.426177e-001	-8.327938e-001
553883	5.377019e-001	-8.325233e-001
556860	5.297068e-001	-8.378527e-001
559838	5.213911e-001	-8.343053e-001
562815	5.199195e-001	-8.304086e-001
565793	5.268976e-001	-8.351296e-001
568770	5.186348e-001	-8.461674e-001
571748	5.201626e-001	-8.457642e-001
574725	5.095548e-001	-8.519987e-001
577703	5.021281e-001	-8.602451e-001
580680	4.943860e-001	-8.610582e-001
583658	4.868442e-001	-8.640663e-001
586635	4.781313e-001	-8.665926e-001
589613	4.683367e-001	-8.668742e-001
592590	4.581439e-001	-8.570678e-001
595568	4.634323e-001	-8.438418e-001
598545	4.834132e-001	-8.508875e-001
601523	4.768610e-001	-8.733109e-001
604500	4.662032e-001	-8.814426e-001
607478	4.539977e-001	-8.757418e-001
610455	4.487245e-001	-8.810632e-001
613433	4.481080e-001	-8.856887e-001
616410	4.389698e-001	-8.941628e-001
619388	4.327954e-001	-8.882756e-001
622365	4.285151e-001	-8.975195e-001
625343	4.159535e-001	-8.890549e-001
628320	4.112578e-001	-8.902191e-001
631298	4.098756e-001	-8.871057e-001
634275	4.183003e-001	-8.883128e-001
637253	4.154399e-001	-9.033289e-001
640230	4.029791e-001	-9.074880e-001
643208	4.022656e-001	-9.091960e-001
646185	3.912024e-001	-9.145059e-001
649163	3.859325e-001	-9.105666e-001
652140	3.834645e-001	-9.149898e-001
655118	3.758740e-001	-9.204656e-001
658095	3.699339e-001	-9.160842e-001
661073	3.641403e-001	-9.181746e-001
664050	3.605056e-001	-9.202033e-001
667028	3.550971e-001	-9.192908e-001
670005	3.528116e-001	-9.257953e-001
672983	3.445482e-001	-9.248902e-001
675960	3.396140e-001	-9.276372e-001
678938	3.347018e-001	-9.241197e-001
681915	3.385752e-001	-9.283448e-001
684893	3.312067e-001	-9.390729e-001
687870	3.185149e-001	-9.377581e-001
690848	3.132350e-001	-9.351766e-001
693825	3.068966e-001	-9.359144e-001
696803	3.062609e-001	-9.318312e-001
699780	3.050119e-001	-9.396129e-001
702758	2.963921e-001	-9.451934e-001
705735	2.888857e-001	-9.470878e-001
708713	2.825136e-001	-9.420685e-001
711690	2.821145e-001	-9.424663e-001
714668	2.816407e-001	-9.527749e-001
717645	2.680382e-001	-9.578743e-001
720623	2.606146e-001	-9.525987e-001
723600	2.513446e-001	-9.544552e-001
726578	2.463495e-001	-9.501200e-001
729555	2.450664e-001	-9.458032e-001
732533	2.467103e-001	-9.490061e-001
735510	2.430460e-001	-9.563046e-001
738488	2.289375e-001	-9.537248e-001
741465	2.361265e-001	-9.531886e-001
744443	2.270458e-001	-9.675790e-001
747420	2.139188e-001	-9.660062e-001
750398	2.087147e-001	-9.658702e-001
753375	2.026586e-001	-9.656870e-001
756353	1.968277e-001	-9.601001e-001
759330	1.918940e-001	-9.584314e-001
762308	1.925934e-001	-9.580089e-001
765285	1.902552e-001	-9.658801e-001
768263	1.777862e-001	-9.712015e-001
771240	1.693725e-001	-9.608277e-001
774218	1.735408e-001	-9.724682e-001
777195	1.594866e-001	-9.750388e-001
780173	1.458094e-001	-9.720896e-001
783150	1.434975e-001	-9.728787e-001
786128	1.371284e-001	-9.712964e-001
789105	1.311988e-001	-9.697039e-001
792083	1.234777e-001	-9.678679e-001
795060	1.248747e-001	-9.664556e-001
798038	1.155091e-001	-9.747099e-001
801015	1.006397e-001	-9.676164e-001
803993	1.092769e-001	-9.692393e-001
806970	9.601120e-002	-9.762276e-001
809948	8.347672e-002	-9.751760e-001
812925	8.336028e-002	-9.787205e-001
815903	5.626579e-002	-9.798604e-001
818880	5.603013e-002	-9.621272e-001
821858	5.923197e-002	-9.625917e-001
824835	5.593329e-002	-9.748626e-001
827813	3.457678e-002	-9.730489e-001
830790	2.770895e-002	-9.678289e-001
833768	1.756118e-002	-9.716521e-001
836745	-3.904928e-003	-9.700905e-001
839723	-7.541626e-003	-9.522918e-001
842700	-9.944056e-003	-9.694074e-001
845678	-4.604524e-002	-9.768113e-001
848655	-6.564360e-002	-9.379977e-001
851633	-5.730616e-002	-9.220718e-001
854610	-4.755341e-002	-9.361646e-001
857588	-8.419463e-002	-9.619576e-001
860565	-1.370436e-001	-9.328366e-001
863543	-1.217408e-001	-9.232310e-001
866520	-1.878652e-001	-9.255060e-001
869498	-2.253217e-001	-8.738307e-001
872475	-2.196790e-001	-8.427113e-001
875453	-2.887621e-001	-8.516097e-001
878430	-3.961288e-001	-7.184023e-001
881408	-3.435567e-001	-5.522480e-001
884385	-2.825714e-001	-5.149256e-001
887363	-3.392927e-001	-3.664149e-001
890340	-8.140962e-002	-9.804599e-002
893318	2.472443e-001	-2.918200e-001
896295	1.016125e-001	-2.756465e-001
899273	5.263184e-001	-3.576868e-001
902250	4.858320e-001	-6.143909e-001
905228	3.064722e-001	-5.962074e-001
908205	3.621932e-001	-6.288381e-001
911183	2.593895e-001	-9.270871e-001
914160	3.024000e-001	-7.905145e-001
917138	2.850164e-001	-8.109027e-001
920115	3.038533e-001	-8.608844e-001
923093	2.517253e-001	-8.960038e-001
926070	2.193354e-001	-9.170780e-001
929048	2.409953e-001	-8.908975e-001
932025	2.236616e-001	-9.213501e-001
935003	2.199333e-001	-9.144690e-001
937980	1.943513e-001	-9.348419e-001
940958	1.759733e-001	-9.474168e-001
943935	1.703637e-001	-9.571527e-001
946913	1.596354e-001	-9.459872e-001
949890	1.578712e-001	-9.705769e-001
952868	1.430785e-001	-9.686606e-001
955845	1.257959e-001	-9.709513e-001
958823	1.254082e-001	-9.719594e-001
961800	1.103733e-001	-9.732134e-001
964778	1.005970e-001	-9.739736e-001
967755	9.396066e-002	-9.757214e-001
970733	9.004853e-002	-9.789989e-001
973710	8.074088e-002	-9.801340e-001
976688	6.747982e-002	-9.796085e-001
979665	6.471155e-002	-9.694767e-001
982643	6.219814e-002	-9.757799e-001
985620	5.868427e-002	-9.857936e-001
988598	4.490444e-002	-9.817144e-001
991575	4.594866e-002	-9.803783e-001
994553	3.384330e-002	-9.871573e-001
997530	2.960798e-002	-9.878572e-001
1000508	2.408618e-002	-9.848894e-001
1003485	1.658905e-002	-9.863008e-001
1006463	9.482391e-003	-9.865242e-001
1009440	6.975214e-003	-9.836802e-001
1012418	3.071918e-003	-9.831412e-001
1015395	2.359428e-003	-9.863210e-001
1018373	-7.782921e-003	-9.916966e-001
1021350	-1.584927e-002	-9.881311e-001
1024328	-1.770943e-002	-9.875746e-001
1027305	-2.564561e-002	-9.910992e-001
1030283	-3.056711e-002	-9.898066e-001
1033260	-3.776834e-002	-9.867340e-001
1036238	-4.127918e-002	-9.852777e-001
1039215	-4.764666e-002	-9.816010e-001
1042193	-4.906655e-002	-9.783891e-001
1045170	-4.642743e-002	-9.824845e-001
1048148	-5.398693e-002	-9.853099e-001
1051125	-6.187597e-002	-9.895963e-001
1054103	-6.385006e-002	-9.863639e-001
1057080	-7.187193e-002	-9.859756e-001
1060058	-7.526761e-002	-9.857932e-001
1063035	-8.112137e-002	-9.832563e-001
1066013	-8.465040e-002	-9.816622e-001
1068990	-8.513041e-002	-9.813737e-001
1071968	-8.904654e-002	-9.852761e-001
1074945	-9.580432e-002	-9.857584e-001
1077923	-1.020822e-001	-9.827993e-001
1080900	-1.038727e-001	-9.816835e-001
1083878	-1.065293e-001	-9.820411e-001
1086855	-1.104372e-001	-9.819820e-001
1089833	-1.166665e-001	-9.834571e-001
1092810	-1.227978e-001	-9.810025e-001
1095788	-1.255259e-001	-9.785035e-001
1098765	-1.282927e-001	-9.766770e-001
1101743	-1.286132e-001	-9.787667e-001
1104720	-1.340450e-001	-9.811252e-001
1107698	-1.394174e-001	-9.804551e-001
1110675	-1.458183e-001	-9.783633e-001
1113653	-1.484328e-001	-9.772904e-001
1116630	-1.531472e-001	-9.737926e-001
1119608	-1.553924e-001	-9.711526e-001
1122585	-1.570134e-001	-9.702489e-001
1125563	-1.594158e-001	-9.726643e-001
1128540	-1.625978e-001	-9.757405e-001
1131518	-1.705166e-001	-9.749649e-001
1134495	-1.712643e-001	-9.744500e-001
1137473	-1.765571e-001	-9.726366e-001
1140450	-1.803951e-001	-9.720826e-001
1143428	-1.857465e-001	-9.702990e-001
1146405	-1.891795e-001	-9.692162e-001
1149383	-1.929588e-001	-9.686358e-001
1152360	-1.950039e-001	-9.661165e-001
1155338	-1.976471e-001	-9.661142e-001
1158315	-1.999886e-001	-9.670484e-001
1161293	-2.051360e-001	-9.666557e-001
1164270	-2.102859e-001	-9.643449e-001
1167248	-2.131792e-001	-9.648476e-001
1170225	-2.165262e-001	-9.624578e-001
1173203	-2.191502e-001	-9.608747e-001
1176180	-2.235391e-001	-9.586479e-001
1179158	-2.264214e-001	-9.598302e-001
1182135	-2.296715e-001	-9.595177e-001
1185113	-2.315000e-001	-9.585049e-001
1188090	-2.375473e-001	-9.578873e-001
1191068	-2.410745e-001	-9.544884e-001
1194045	-2.422205e-001	-9.521804e-001
1197023	-2.436543e-001	-9.502556e-001
1200000	-2.456224e-001	-9.524473e-001
