!Agilent Technologies,E5071C,MY46100265,A.07.02
!Date: Fri Jan 31 11:50:29 2020
!Data & Calibration Information:
!Freq	S11:SOLT1(ON)
# Hz S dB R 50
9000	-1.699742e-002	-1.517755e+000
11955	-1.284641e-002	-2.168850e+000
14910	-8.242319e-003	-2.841798e+000
17865	-7.065747e-003	-3.600100e+000
20820	-9.069118e-003	-4.423440e+000
23775	-2.609415e-002	-5.480520e+000
26730	-3.497730e-002	-6.342844e+000
29685	-3.552256e-002	-8.397695e+000
32640	-1.170188e-001	-1.356185e+001
35595	-1.712109e+001	7.172130e+001
38550	-8.213689e-002	3.171395e+000
41505	-3.102983e-002	-1.390847e+000
44460	-2.303544e-002	-3.425920e+000
47415	-2.764850e-002	-4.677552e+000
50370	-1.251222e-002	-5.349227e+000
53325	-9.634806e-003	-6.270053e+000
56280	-3.972750e-003	-7.006363e+000
59235	-4.100779e-003	-7.732716e+000
62190	-6.146609e-003	-8.435065e+000
65145	-7.046389e-003	-9.106778e+000
68100	-1.684120e-002	-9.964876e+000
71055	-2.234559e-002	-1.053987e+001
74010	-2.399557e-002	-1.147627e+001
76965	-3.691852e-002	-1.269740e+001
79920	-1.827299e-001	-1.441647e+001
82875	-5.652539e-001	-1.592081e+001
85830	-1.046009e+000	-7.572003e+000
88785	-2.067141e-001	-9.743290e+000
91740	-2.552926e-001	-1.142296e+001
94695	-1.793524e-001	-1.236803e+001
97650	-1.882234e-001	-1.229173e+001
100605	-1.339098e-001	-1.359941e+001
103560	-6.896734e-002	-1.431527e+001
106515	-1.021247e-001	-1.525767e+001
109470	-8.090820e-002	-1.625137e+001
112425	-1.092399e-001	-1.771213e+001
115380	-2.315882e-001	-1.965732e+001
118335	-3.777957e-001	-1.696013e+001
121290	-2.417685e-001	-1.912972e+001
124245	-1.239385e+000	-1.928317e+001
127200	-7.205841e-001	-1.508087e+001
130155	-4.129260e-001	-1.715366e+001
133110	-3.007900e-001	-1.875797e+001
136065	-3.063129e-001	-1.868567e+001
139020	-2.701413e-001	-2.009437e+001
141975	-4.522382e-001	-2.462466e+001
144930	-7.455219e-001	-2.134600e+001
147885	-7.664586e-001	-1.901466e+001
150840	-4.466107e-001	-2.174840e+001
153795	-4.511993e-001	-2.098423e+001
156750	-8.761132e-001	-2.335147e+001
159705	-3.540935e-001	-2.167344e+001
162660	-3.939495e-001	-2.336529e+001
165615	-4.929312e-001	-2.613684e+001
168570	-4.522484e-001	-1.975546e+001
171525	-2.786640e-001	-2.428414e+001
174480	-3.502319e-001	-2.660725e+001
177435	-5.799783e-001	-3.033974e+001
180390	-4.539269e-001	-2.292051e+001
183345	-3.372545e-001	-2.800308e+001
186300	-3.963585e-001	-3.014798e+001
189255	-2.292036e+000	-3.917614e+001
192210	-2.355477e-001	-2.736175e+001
195165	-2.823548e-001	-3.311154e+001
198120	-4.838951e-001	-4.128977e+001
201075	-1.636981e+000	-1.746094e+001
204030	-2.655072e-001	-3.263127e+001
206985	-5.214689e-001	-4.389683e+001
209940	-1.222176e+001	1.545804e+001
212895	-6.976457e-001	-2.443431e+001
215850	-5.009969e-001	-4.080982e+001
218805	-6.331629e+000	-1.218253e+002
221760	-1.146647e+000	-1.291338e+001
224715	-1.138917e+000	-3.046360e+001
227670	-1.846551e+000	-5.418605e+001
230625	-1.848922e+000	2.589403e-001
233580	-8.558770e-001	-2.181893e+001
236535	-6.590282e-001	-3.432221e+001
239490	-1.748664e+001	7.858299e+001
242445	-5.319156e-001	-1.555021e+001
245400	-7.032102e-001	-2.828397e+001
248355	-2.015184e+000	-4.339383e+001
251310	-7.357546e-001	-7.896636e-001
254265	-4.120729e-001	-2.281804e+001
257220	-3.612519e-001	-3.188455e+001
260175	-4.767856e+000	-6.350363e+001
263130	-4.019322e-001	-1.835064e+001
266085	-5.671815e-001	-2.939088e+001
269040	-1.133828e+000	-4.005424e+001
271995	-3.346825e+000	1.594049e+001
274950	-3.925275e-001	-2.471256e+001
277905	-5.847229e-001	-3.260157e+001
280860	-1.075831e+000	-4.748035e+001
283815	-7.010315e-001	-1.389967e+001
286770	-2.803205e-001	-3.121257e+001
289725	-3.192942e-001	-4.275891e+001
292680	-1.716894e+001	-1.259323e+002
295635	-7.503747e-001	-2.096915e+001
298590	-1.048025e+000	-3.798128e+001
301545	-1.879681e+000	-5.861783e+001
304500	-1.601143e+000	-2.374224e+000
307455	-2.817255e-001	-2.953698e+001
310410	-7.430124e-001	-5.338531e+001
313365	-4.723549e+000	2.496587e+001
316320	-1.539179e+000	-1.641865e+001
319275	-5.212769e-001	-4.014374e+001
322230	-1.028323e+001	-2.605247e+001
325185	-1.473745e+000	-1.018843e+001
328140	-5.230353e-001	-2.135827e+001
331095	-2.292234e+000	-4.786941e+001
334050	-8.350926e-001	-7.346541e+000
337005	-6.535192e-001	-1.893208e+001
339960	-5.534082e-001	-2.695939e+001
342915	-2.223598e+000	-9.717164e+000
345870	-7.647809e-001	-2.021506e+001
348825	-4.579117e-001	-2.094338e+001
351780	-5.548794e-001	-3.174028e+001
354735	-6.772533e-001	-1.819373e+001
357690	-2.271369e-001	-2.374988e+001
360645	-2.338501e-001	-2.684132e+001
363600	-2.007173e+000	-2.406907e+001
366555	-2.974357e-001	-2.617163e+001
369510	-2.580197e-001	-2.772545e+001
372465	-2.167157e-001	-2.964609e+001
375420	-4.175208e-001	-2.685328e+001
378375	-2.649849e-001	-2.967290e+001
381330	-1.974233e-001	-3.029689e+001
384285	-1.836586e-001	-3.268228e+001
387240	-2.483321e-001	-3.035167e+001
390195	-8.473503e-002	-3.191634e+001
393150	-1.280384e-001	-3.274839e+001
396105	-1.102725e-001	-3.436003e+001
399060	-1.280437e-001	-3.310145e+001
402015	-8.366630e-002	-3.464435e+001
404970	-8.054516e-002	-3.509808e+001
407925	-1.793523e-001	-3.720287e+001
410880	-1.199904e-001	-3.558244e+001
413835	-1.194039e-001	-3.674128e+001
416790	-1.660924e-001	-3.698769e+001
419745	-2.771440e-001	-3.678326e+001
422700	-1.164984e-001	-3.735132e+001
425655	-4.652633e-002	-3.796698e+001
428610	-3.882215e-002	-3.884350e+001
431565	-1.243966e-001	-3.867546e+001
434520	-3.752606e-002	-3.954323e+001
437475	-3.888049e-002	-4.025914e+001
440430	-6.133819e-002	-4.113731e+001
443385	-1.358426e-001	-4.095264e+001
446340	-1.460418e-001	-4.114455e+001
449295	-1.228797e-001	-4.148603e+001
452250	-1.445634e-001	-4.201829e+001
455205	-9.027000e-002	-4.188718e+001
458160	-4.913805e-002	-4.253346e+001
461115	-5.089705e-002	-4.307170e+001
464070	-8.675171e-002	-4.374542e+001
467025	-5.563341e-002	-4.400016e+001
469980	-1.049191e-001	-4.441718e+001
472935	-8.794399e-002	-4.463820e+001
475890	-1.307570e-001	-4.484606e+001
478845	-1.126763e-001	-4.526454e+001
481800	-9.576672e-002	-4.537016e+001
484755	-5.990579e-002	-4.592647e+001
487710	-9.161369e-002	-4.621684e+001
490665	-5.769679e-002	-4.656989e+001
493620	-5.029960e-002	-4.705899e+001
496575	-5.729270e-002	-4.768052e+001
499530	-1.158643e-001	-4.784145e+001
502485	-8.637610e-002	-4.806011e+001
505440	-8.923904e-002	-4.845868e+001
508395	-1.271063e-001	-4.876421e+001
511350	-7.183908e-002	-4.876852e+001
514305	-5.688587e-002	-4.919392e+001
517260	-4.598623e-002	-4.962634e+001
520215	-6.683684e-002	-5.013003e+001
523170	-6.581086e-002	-5.040427e+001
526125	-6.700363e-002	-5.070352e+001
529080	-7.723235e-002	-5.103568e+001
532035	-7.893414e-002	-5.143180e+001
534990	-8.659446e-002	-5.183453e+001
537945	-1.191629e-001	-5.200661e+001
540900	-8.847071e-002	-5.192051e+001
543855	-4.714912e-002	-5.241830e+001
546810	-4.283737e-002	-5.288397e+001
549765	-5.000160e-002	-5.334944e+001
552720	-9.083819e-002	-5.369992e+001
555675	-7.846300e-002	-5.379156e+001
558630	-5.984859e-002	-5.420827e+001
561585	-7.736161e-002	-5.457599e+001
564540	-7.426736e-002	-5.487958e+001
567495	-8.788904e-002	-5.521746e+001
570450	-8.785769e-002	-5.537713e+001
573405	-6.926304e-002	-5.572701e+001
576360	-5.941096e-002	-5.605692e+001
579315	-7.362344e-002	-5.661075e+001
582270	-9.200246e-002	-5.688073e+001
585225	-1.102531e-001	-5.669667e+001
588180	-1.031184e-001	-5.740885e+001
591135	-1.412566e-001	-5.724843e+001
594090	-9.002239e-002	-5.760968e+001
597045	-9.206748e-002	-5.807606e+001
600000	-2.440791e-001	-5.816039e+001
