!Agilent Technologies,E5071C,MY46100265,A.07.02
!Date: Fri Jan 31 11:55:25 2020
!Data & Calibration Information:
!Freq	S11:SOLT1(ON)
# Hz S dB R 50
9000	-1.375828e-002	-1.544536e+000
11955	-8.104710e-003	-2.189983e+000
14910	-7.949303e-003	-2.858938e+000
17865	-4.624516e-003	-3.596510e+000
20820	-5.767063e-003	-4.444957e+000
23775	-3.350251e-002	-5.579653e+000
26730	-2.486804e-002	-6.301373e+000
29685	-2.389611e-002	-8.445522e+000
32640	-8.658837e-002	-1.377871e+001
35595	-1.019839e+001	1.001186e+002
38550	-9.548701e-002	2.971107e+000
41505	-5.087136e-002	-1.502436e+000
44460	-1.421162e-002	-3.438974e+000
47415	-4.501375e-002	-4.791699e+000
50370	-9.424169e-003	-5.349182e+000
53325	-3.824564e-003	-6.262902e+000
56280	-6.958277e-003	-7.014890e+000
59235	-2.764025e-003	-7.724974e+000
62190	-4.432557e-003	-8.443666e+000
65145	-1.115269e-002	-9.145241e+000
68100	-9.412007e-003	-9.928462e+000
71055	-1.885347e-002	-1.049067e+001
74010	-2.045087e-002	-1.145825e+001
76965	-4.142214e-002	-1.266333e+001
79920	-1.466957e-001	-1.453089e+001
82875	-6.340711e-001	-1.799426e+001
85830	-1.040210e+000	-9.669461e+000
88785	-2.766190e-001	-9.440908e+000
91740	-2.022289e-001	-1.181197e+001
94695	-1.827389e-001	-1.174400e+001
97650	-1.501829e-001	-1.291956e+001
100605	-1.273401e-001	-1.339582e+001
103560	-1.106692e-001	-1.440490e+001
106515	-8.894206e-002	-1.515256e+001
109470	-7.649666e-002	-1.632596e+001
112425	-1.052822e-001	-1.755732e+001
115380	-3.952825e-001	-1.953800e+001
118335	-3.984674e-001	-1.722920e+001
121290	-4.234537e-001	-1.909222e+001
124245	-7.734132e-001	-2.013311e+001
127200	-7.810405e-001	-1.552785e+001
130155	-3.511281e-001	-1.666688e+001
133110	-2.750404e-001	-1.852213e+001
136065	-3.302066e-001	-1.959991e+001
139020	-3.163008e-001	-2.078259e+001
141975	-5.506947e-001	-2.177059e+001
144930	-6.887757e-001	-2.212664e+001
147885	-8.553736e-001	-1.892579e+001
150840	-5.304173e-001	-2.108885e+001
153795	-5.858051e-001	-2.163348e+001
156750	-4.716842e-001	-2.181040e+001
159705	-5.511943e-001	-2.150656e+001
162660	-3.749134e-001	-2.338402e+001
165615	-7.241723e-001	-2.565716e+001
168570	-4.557373e-001	-2.242205e+001
171525	-3.373666e-001	-2.509394e+001
174480	-6.705195e-001	-2.607094e+001
177435	-4.654973e-001	-2.625237e+001
180390	-5.809523e-001	-2.859206e+001
183345	-6.265189e-001	-2.587278e+001
186300	-4.581750e-001	-2.938319e+001
189255	-1.079900e+000	-3.048477e+001
192210	-5.754888e-001	-2.985491e+001
195165	-7.780718e-001	-3.486926e+001
198120	-1.264380e+000	-3.072339e+001
201075	-8.274391e-001	-3.471764e+001
204030	-2.279751e+000	-3.635381e+001
206985	-1.550132e+000	-3.265770e+001
209940	-2.157051e+000	-4.174343e+001
212895	-2.751912e+000	-3.069643e+001
215850	-2.107144e+000	-3.523584e+001
218805	-3.680606e+000	-2.781978e+001
221760	-2.721535e+000	-2.717324e+001
224715	-3.723523e+000	-2.615956e+001
227670	-2.802724e+000	-2.105264e+001
230625	-2.057917e+000	-2.449130e+001
233580	-3.125623e+000	-2.302029e+001
236535	-1.927827e+000	-2.251636e+001
239490	-2.585407e+000	-2.710432e+001
242445	-1.949141e+000	-2.116577e+001
245400	-2.092814e+000	-2.509621e+001
248355	-2.215242e+000	-2.297645e+001
251310	-2.165676e+000	-2.141351e+001
254265	-1.676042e+000	-2.453012e+001
257220	-1.566339e+000	-2.492012e+001
260175	-1.476638e+000	-2.698562e+001
263130	-1.745657e+000	-2.821018e+001
266085	-1.796495e+000	-2.887870e+001
269040	-1.819183e+000	-3.007925e+001
271995	-1.834654e+000	-2.969532e+001
274950	-1.775338e+000	-2.850708e+001
277905	-1.818953e+000	-2.784331e+001
280860	-1.692482e+000	-2.999335e+001
283815	-1.570647e+000	-3.129504e+001
286770	-1.644079e+000	-3.274837e+001
289725	-1.796485e+000	-3.453508e+001
292680	-2.231581e+000	-3.783883e+001
295635	-2.403330e+000	-3.726782e+001
298590	-3.225593e+000	-3.410455e+001
301545	-2.527465e+000	-2.839838e+001
304500	-2.733253e+000	-3.474763e+001
307455	-3.162443e+000	-2.995106e+001
310410	-2.802144e+000	-3.351307e+001
313365	-4.132584e+000	-3.010140e+001
316320	-3.405494e+000	-2.755009e+001
319275	-3.807926e+000	-2.807625e+001
322230	-2.720683e+000	-1.839564e+001
325185	-2.591518e+000	-1.935550e+001
328140	-3.042148e+000	-1.509113e+001
331095	-2.009611e+000	-1.810720e+001
334050	-2.011625e+000	-1.986296e+001
337005	-1.408150e+000	-1.785833e+001
339960	-1.110093e+000	-2.013027e+001
342915	-1.472490e+000	-2.148694e+001
345870	-9.553794e-001	-2.171517e+001
348825	-1.265996e+000	-2.292769e+001
351780	-7.858751e-001	-2.141553e+001
354735	-7.442188e-001	-2.356361e+001
357690	-5.323888e-001	-2.426237e+001
360645	-4.336759e-001	-2.495570e+001
363600	-3.454562e-001	-2.664564e+001
366555	-5.238373e-001	-2.729664e+001
369510	-3.345971e-001	-2.766905e+001
372465	-3.171723e-001	-2.853030e+001
375420	-3.665691e-001	-2.907090e+001
378375	-2.747929e-001	-2.999531e+001
381330	-3.270720e-001	-3.069438e+001
384285	-2.239522e-001	-3.077920e+001
387240	-2.501204e-001	-3.127332e+001
390195	-1.395830e-001	-3.211274e+001
393150	-1.798186e-001	-3.259659e+001
396105	-1.551857e-001	-3.328102e+001
399060	-1.207729e-001	-3.385829e+001
402015	-1.200037e-001	-3.476433e+001
404970	-1.436731e-001	-3.514634e+001
407925	-1.578952e-001	-3.559809e+001
410880	-1.180420e-001	-3.624815e+001
413835	-1.956098e-001	-3.678456e+001
416790	-1.744043e-001	-3.668452e+001
419745	-1.404776e-001	-3.712281e+001
422700	-1.226990e-001	-3.755009e+001
425655	-7.672014e-002	-3.799728e+001
428610	-6.509180e-002	-3.856445e+001
431565	-6.140389e-002	-3.910771e+001
434520	-5.846104e-002	-3.965038e+001
437475	-6.360977e-002	-4.023096e+001
440430	-7.816947e-002	-4.075948e+001
443385	-1.286894e-001	-4.128455e+001
446340	-1.873715e-001	-4.111553e+001
449295	-1.291484e-001	-4.142298e+001
452250	-1.099527e-001	-4.168282e+001
455205	-9.859872e-002	-4.199954e+001
458160	-5.922288e-002	-4.250224e+001
461115	-5.915367e-002	-4.302354e+001
464070	-5.066798e-002	-4.350183e+001
467025	-6.470916e-002	-4.408141e+001
469980	-1.202006e-001	-4.438989e+001
472935	-9.163508e-002	-4.455036e+001
475890	-9.953706e-002	-4.500356e+001
478845	-1.250314e-001	-4.527241e+001
481800	-9.871827e-002	-4.533506e+001
484755	-6.455459e-002	-4.582799e+001
487710	-8.325426e-002	-4.625347e+001
490665	-6.058269e-002	-4.656443e+001
493620	-5.218699e-002	-4.702730e+001
496575	-5.887360e-002	-4.753759e+001
499530	-1.153310e-001	-4.791686e+001
502485	-9.123175e-002	-4.804013e+001
505440	-9.202626e-002	-4.842854e+001
508395	-1.260181e-001	-4.866973e+001
511350	-8.351515e-002	-4.872163e+001
514305	-5.814148e-002	-4.917370e+001
517260	-5.063707e-002	-4.958755e+001
520215	-5.937752e-002	-5.008448e+001
523170	-7.263976e-002	-5.037084e+001
526125	-6.872317e-002	-5.069176e+001
529080	-7.774568e-002	-5.100284e+001
532035	-6.567649e-002	-5.141360e+001
534990	-9.097394e-002	-5.181084e+001
537945	-1.260408e-001	-5.194548e+001
540900	-8.880170e-002	-5.191798e+001
543855	-4.950488e-002	-5.238607e+001
546810	-4.321782e-002	-5.284952e+001
549765	-4.764763e-002	-5.332840e+001
552720	-9.023316e-002	-5.364971e+001
555675	-7.664719e-002	-5.377595e+001
558630	-6.151597e-002	-5.418060e+001
561585	-6.943810e-002	-5.454147e+001
564540	-7.458421e-002	-5.487850e+001
567495	-8.904504e-002	-5.518275e+001
570450	-8.944103e-002	-5.535657e+001
573405	-7.061892e-002	-5.565251e+001
576360	-6.159126e-002	-5.609151e+001
579315	-8.401714e-002	-5.652994e+001
582270	-9.667340e-002	-5.675220e+001
585225	-1.261444e-001	-5.711286e+001
588180	-1.196770e-001	-5.716421e+001
591135	-1.227138e-001	-5.727921e+001
594090	-9.784012e-002	-5.767661e+001
597045	-1.125260e-001	-5.803181e+001
600000	-1.124588e-001	-5.813138e+001
