!Agilent Technologies,E5071C,MY46100265,A.07.02
!Date: Mon Jan 27 12:20:15 2020
!Data & Calibration Information:
!Freq	S11:SOLT1(OFF)
# Hz S dB R 50
9000	-1.921826e-001	1.786494e+002
11955	-1.744857e-001	1.782159e+002
14910	-1.929241e-001	1.777586e+002
17865	-1.734348e-001	1.773110e+002
20820	-1.704162e-001	1.768539e+002
23775	-1.854432e-001	1.764103e+002
26730	-1.920201e-001	1.759744e+002
29685	-1.861784e-001	1.755232e+002
32640	-1.836681e-001	1.750636e+002
35595	-1.864807e-001	1.746600e+002
38550	-1.817217e-001	1.742028e+002
41505	-1.850497e-001	1.737483e+002
44460	-1.904527e-001	1.733046e+002
47415	-1.977299e-001	1.728658e+002
50370	-2.054912e-001	1.724312e+002
53325	-2.054236e-001	1.719889e+002
56280	-2.055127e-001	1.715463e+002
59235	-2.058249e-001	1.711030e+002
62190	-2.063653e-001	1.706592e+002
65145	-2.070419e-001	1.702146e+002
68100	-2.081644e-001	1.697690e+002
71055	-2.093149e-001	1.693229e+002
74010	-2.105759e-001	1.688750e+002
76965	-2.121749e-001	1.684239e+002
79920	-2.142692e-001	1.679682e+002
82875	-2.172154e-001	1.675004e+002
85830	-2.270341e-001	1.669720e+002
88785	-2.238772e-001	1.667941e+002
91740	-2.221044e-001	1.662557e+002
94695	-2.245683e-001	1.657843e+002
97650	-2.276160e-001	1.653232e+002
100605	-2.304826e-001	1.648641e+002
103560	-2.325582e-001	1.644168e+002
106515	-2.336673e-001	1.639622e+002
109470	-2.353155e-001	1.635069e+002
112425	-2.371517e-001	1.630507e+002
115380	-2.388399e-001	1.625921e+002
118335	-2.409444e-001	1.621302e+002
121290	-2.430986e-001	1.616616e+002
124245	-2.456882e-001	1.611841e+002
127200	-2.516154e-001	1.606865e+002
130155	-2.644770e-001	1.601479e+002
133110	-2.734242e-001	1.599173e+002
136065	-2.991391e-001	1.594578e+002
139020	-2.597532e-001	1.591346e+002
141975	-2.561934e-001	1.585835e+002
144930	-2.570678e-001	1.580777e+002
147885	-2.593570e-001	1.575810e+002
150840	-2.619927e-001	1.570769e+002
153795	-2.681819e-001	1.565615e+002
156750	-2.827218e-001	1.560735e+002
159705	-2.896383e-001	1.555707e+002
162660	-3.177194e-001	1.549685e+002
165615	-3.448167e-001	1.551261e+002
168570	-2.871854e-001	1.545875e+002
171525	-2.792600e-001	1.540037e+002
174480	-2.797676e-001	1.534453e+002
177435	-2.807229e-001	1.529130e+002
180390	-2.859679e-001	1.523724e+002
183345	-2.914042e-001	1.518171e+002
186300	-3.066375e-001	1.512309e+002
189255	-3.493182e-001	1.505461e+002
192210	-3.975371e-001	1.508888e+002
195165	-3.123540e-001	1.503292e+002
198120	-2.995769e-001	1.496876e+002
201075	-3.025227e-001	1.490450e+002
204030	-3.060985e-001	1.484719e+002
206985	-3.197967e-001	1.478939e+002
209940	-3.237361e-001	1.473618e+002
212895	-3.285474e-001	1.467661e+002
215850	-3.414196e-001	1.460981e+002
218805	-3.760692e-001	1.454822e+002
221760	-4.307836e-001	1.450919e+002
224715	-4.127426e-001	1.449623e+002
227670	-3.627364e-001	1.442406e+002
230625	-3.789283e-001	1.432870e+002
233580	-4.071561e-001	1.422561e+002
236535	-6.168771e-001	1.409281e+002
239490	-4.401886e-001	1.423511e+002
242445	-4.780212e-001	1.402949e+002
245400	-7.986586e-001	1.386669e+002
248355	-9.808503e-001	1.432164e+002
251310	-4.351992e-001	1.410593e+002
254265	-4.378777e-001	1.388726e+002
257220	-5.623335e-001	1.364098e+002
260175	-8.387905e-001	1.345383e+002
263130	-1.660199e+000	1.365056e+002
266085	-1.202727e+000	1.335701e+002
269040	-2.760845e+000	1.393165e+002
271995	-1.776138e+000	1.493911e+002
274950	-9.446543e-001	1.420906e+002
277905	-1.225656e+000	1.471370e+002
280860	-8.000387e-001	1.435459e+002
283815	-4.799367e-001	1.418099e+002
286770	-5.237319e-001	1.406038e+002
289725	-4.916225e-001	1.388854e+002
292680	-5.889512e-001	1.381492e+002
295635	-5.278158e-001	1.390990e+002
298590	-4.040339e-001	1.376060e+002
301545	-4.372536e-001	1.367995e+002
304500	-4.406465e-001	1.361803e+002
307455	-3.902988e-001	1.358330e+002
310410	-3.714886e-001	1.350078e+002
313365	-3.557418e-001	1.342045e+002
316320	-3.545705e-001	1.335538e+002
319275	-3.624888e-001	1.328064e+002
322230	-3.739785e-001	1.320647e+002
325185	-4.314294e-001	1.318050e+002
328140	-3.747243e-001	1.312814e+002
331095	-3.864239e-001	1.305822e+002
334050	-3.908850e-001	1.302856e+002
337005	-3.641958e-001	1.297413e+002
339960	-3.515652e-001	1.290503e+002
342915	-3.459271e-001	1.284382e+002
345870	-3.478460e-001	1.278098e+002
348825	-3.468615e-001	1.272067e+002
351780	-3.538697e-001	1.265910e+002
354735	-3.561645e-001	1.259676e+002
357690	-3.953446e-001	1.254018e+002
360645	-3.807084e-001	1.250956e+002
363600	-3.732879e-001	1.245236e+002
366555	-3.602653e-001	1.239421e+002
369510	-3.672003e-001	1.233688e+002
372465	-3.557168e-001	1.227776e+002
375420	-3.546732e-001	1.221827e+002
378375	-3.574452e-001	1.215728e+002
381330	-3.609696e-001	1.209957e+002
384285	-3.661780e-001	1.204380e+002
387240	-3.587805e-001	1.198166e+002
390195	-3.809828e-001	1.191323e+002
393150	-3.924082e-001	1.188268e+002
396105	-3.697875e-001	1.182439e+002
399060	-3.689838e-001	1.176318e+002
402015	-3.718065e-001	1.170407e+002
404970	-3.704982e-001	1.164563e+002
407925	-3.665196e-001	1.158706e+002
410880	-3.697670e-001	1.152399e+002
413835	-3.765143e-001	1.146265e+002
416790	-3.911525e-001	1.140234e+002
419745	-3.903659e-001	1.136106e+002
422700	-3.771846e-001	1.129714e+002
425655	-3.775381e-001	1.123602e+002
428610	-3.882232e-001	1.117176e+002
431565	-3.920458e-001	1.111819e+002
434520	-3.889359e-001	1.106015e+002
437475	-3.889202e-001	1.099987e+002
440430	-3.887315e-001	1.093893e+002
443385	-3.935808e-001	1.087488e+002
446340	-4.009459e-001	1.082884e+002
449295	-3.834246e-001	1.076616e+002
452250	-3.786214e-001	1.069970e+002
455205	-3.826842e-001	1.063107e+002
458160	-3.895695e-001	1.056503e+002
461115	-4.053871e-001	1.050015e+002
464070	-4.163824e-001	1.044643e+002
467025	-4.314780e-001	1.039142e+002
469980	-4.195562e-001	1.034710e+002
472935	-3.988864e-001	1.028314e+002
475890	-3.911491e-001	1.021385e+002
478845	-3.955519e-001	1.014664e+002
481800	-3.876045e-001	1.008141e+002
484755	-3.886071e-001	1.001131e+002
487710	-3.932847e-001	9.939463e+001
490665	-4.115859e-001	9.867800e+001
493620	-4.436285e-001	9.803384e+001
496575	-4.494240e-001	9.754796e+001
499530	-4.252380e-001	9.716397e+001
502485	-4.133436e-001	9.648952e+001
505440	-4.031859e-001	9.574202e+001
508395	-4.088768e-001	9.510846e+001
511350	-3.995932e-001	9.436308e+001
514305	-4.061418e-001	9.363023e+001
517260	-4.072108e-001	9.296667e+001
520215	-4.047347e-001	9.221902e+001
523170	-4.217770e-001	9.142548e+001
526125	-4.704081e-001	9.076444e+001
529080	-4.807063e-001	9.052217e+001
532035	-4.325311e-001	8.987471e+001
534990	-4.242351e-001	8.909701e+001
537945	-4.312890e-001	8.839161e+001
540900	-4.188187e-001	8.775650e+001
543855	-4.114225e-001	8.697892e+001
546810	-4.125203e-001	8.620959e+001
549765	-4.156932e-001	8.545461e+001
552720	-4.196982e-001	8.467320e+001
555675	-4.338094e-001	8.380712e+001
558630	-5.245010e-001	8.332845e+001
561585	-4.627203e-001	8.270705e+001
564540	-4.982363e-001	8.224623e+001
567495	-4.428817e-001	8.154788e+001
570450	-4.314443e-001	8.074089e+001
573405	-4.250291e-001	7.990883e+001
576360	-4.256241e-001	7.909807e+001
579315	-4.295394e-001	7.828221e+001
582270	-4.316048e-001	7.746692e+001
585225	-4.425305e-001	7.657472e+001
588180	-4.732998e-001	7.563063e+001
591135	-5.705111e-001	7.460472e+001
594090	-6.511651e-001	7.536255e+001
597045	-5.030496e-001	7.475412e+001
600000	-4.635296e-001	7.372180e+001
