!Agilent Technologies,E5071C,MY46100265,A.07.02
!Date: Mon Jan 27 12:30:51 2020
!Data & Calibration Information:
!Freq	S11:SOLT1(OFF)
# Hz S dB R 50
700000	-5.676910e+000	-1.232677e+002
702000	-5.627194e+000	-1.234032e+002
704000	-5.585427e+000	-1.236719e+002
706000	-5.576672e+000	-1.240488e+002
708000	-5.621410e+000	-1.240962e+002
710000	-5.592313e+000	-1.238069e+002
712000	-5.542343e+000	-1.238123e+002
714000	-5.497037e+000	-1.238976e+002
716000	-5.458129e+000	-1.240417e+002
718000	-5.423368e+000	-1.241902e+002
720000	-5.389689e+000	-1.243733e+002
722000	-5.358110e+000	-1.245763e+002
724000	-5.330520e+000	-1.248504e+002
726000	-5.331118e+000	-1.252498e+002
728000	-5.394293e+000	-1.253435e+002
730000	-5.356040e+000	-1.248916e+002
732000	-5.300117e+000	-1.249558e+002
734000	-5.246813e+000	-1.252613e+002
736000	-5.279514e+000	-1.256650e+002
738000	-5.304366e+000	-1.253942e+002
740000	-5.239516e+000	-1.251777e+002
742000	-5.187607e+000	-1.253793e+002
744000	-5.165501e+000	-1.254022e+002
746000	-5.122462e+000	-1.255305e+002
748000	-5.084752e+000	-1.256950e+002
750000	-5.060309e+000	-1.259081e+002
752000	-5.036603e+000	-1.260462e+002
754000	-5.002958e+000	-1.262481e+002
756000	-4.993480e+000	-1.265768e+002
758000	-4.962653e+000	-1.268828e+002
760000	-5.078243e+000	-1.265606e+002
762000	-4.975584e+000	-1.262962e+002
764000	-4.910861e+000	-1.265300e+002
766000	-4.878057e+000	-1.269561e+002
768000	-4.920791e+000	-1.271364e+002
770000	-4.911384e+000	-1.269212e+002
772000	-4.852699e+000	-1.268335e+002
774000	-4.800868e+000	-1.269734e+002
776000	-4.757057e+000	-1.271694e+002
778000	-4.721940e+000	-1.274667e+002
780000	-4.717541e+000	-1.277366e+002
782000	-4.712704e+000	-1.277668e+002
784000	-4.678986e+000	-1.278236e+002
786000	-4.632293e+000	-1.280003e+002
788000	-4.591469e+000	-1.284868e+002
790000	-4.683784e+000	-1.287709e+002
792000	-4.658112e+000	-1.282447e+002
794000	-4.580013e+000	-1.282610e+002
796000	-4.521697e+000	-1.285934e+002
798000	-4.510310e+000	-1.290708e+002
800000	-4.581952e+000	-1.291271e+002
802000	-4.506998e+000	-1.287903e+002
804000	-4.454719e+000	-1.290787e+002
806000	-4.471773e+000	-1.292438e+002
808000	-4.409960e+000	-1.290820e+002
810000	-4.347568e+000	-1.292984e+002
812000	-4.298542e+000	-1.296014e+002
814000	-4.263448e+000	-1.300591e+002
816000	-4.272046e+000	-1.303243e+002
818000	-4.268494e+000	-1.305710e+002
820000	-4.272760e+000	-1.305787e+002
822000	-4.244409e+000	-1.306172e+002
824000	-4.205200e+000	-1.305433e+002
826000	-4.153936e+000	-1.309521e+002
828000	-4.117263e+000	-1.309139e+002
830000	-4.059400e+000	-1.312152e+002
832000	-4.018247e+000	-1.316007e+002
834000	-3.997023e+000	-1.321187e+002
836000	-4.084341e+000	-1.322050e+002
838000	-3.982856e+000	-1.318262e+002
840000	-3.891462e+000	-1.321127e+002
842000	-3.813982e+000	-1.325450e+002
844000	-3.754126e+000	-1.331998e+002
846000	-3.739561e+000	-1.338509e+002
848000	-3.706742e+000	-1.344332e+002
850000	-3.834176e+000	-1.355247e+002
852000	-3.846205e+000	-1.342280e+002
854000	-3.724020e+000	-1.343651e+002
856000	-3.623177e+000	-1.347190e+002
858000	-3.509423e+000	-1.353219e+002
860000	-3.442917e+000	-1.360708e+002
862000	-3.382485e+000	-1.368778e+002
864000	-3.322299e+000	-1.377171e+002
866000	-3.384809e+000	-1.388708e+002
868000	-3.307789e+000	-1.383908e+002
870000	-3.110683e+000	-1.395358e+002
872000	-2.985944e+000	-1.408689e+002
874000	-2.836370e+000	-1.428061e+002
876000	-2.812604e+000	-1.453629e+002
878000	-2.849723e+000	-1.474094e+002
880000	-2.870143e+000	-1.508294e+002
882000	-3.005077e+000	-1.529880e+002
884000	-3.085908e+000	-1.575111e+002
886000	-3.536180e+000	-1.618561e+002
888000	-4.391885e+000	-1.672576e+002
890000	-5.598077e+000	-1.669595e+002
892000	-6.486688e+000	-1.682494e+002
894000	-7.802967e+000	-1.661647e+002
896000	-9.184276e+000	-1.605643e+002
898000	-9.773954e+000	-1.484047e+002
900000	-9.213698e+000	-1.408001e+002
902000	-8.882743e+000	-1.382343e+002
904000	-8.770504e+000	-1.339854e+002
906000	-8.292590e+000	-1.296040e+002
908000	-7.827622e+000	-1.275704e+002
910000	-7.363039e+000	-1.259148e+002
912000	-6.948733e+000	-1.256153e+002
914000	-6.625469e+000	-1.258458e+002
916000	-6.467213e+000	-1.259737e+002
918000	-6.240494e+000	-1.253604e+002
920000	-5.995237e+000	-1.253913e+002
922000	-5.772025e+000	-1.256467e+002
924000	-5.589843e+000	-1.263278e+002
926000	-5.513319e+000	-1.272435e+002
928000	-5.540053e+000	-1.273815e+002
930000	-5.451199e+000	-1.270921e+002
932000	-5.391196e+000	-1.270760e+002
934000	-5.272160e+000	-1.268484e+002
936000	-5.170877e+000	-1.270574e+002
938000	-5.093368e+000	-1.274447e+002
940000	-5.059469e+000	-1.274828e+002
942000	-5.010264e+000	-1.275740e+002
944000	-4.941415e+000	-1.274199e+002
946000	-4.844775e+000	-1.275208e+002
948000	-4.792435e+000	-1.277583e+002
950000	-4.723059e+000	-1.279206e+002
952000	-4.669921e+000	-1.281090e+002
954000	-4.620712e+000	-1.283108e+002
956000	-4.577175e+000	-1.285168e+002
958000	-4.540972e+000	-1.287110e+002
960000	-4.509451e+000	-1.288856e+002
962000	-4.479217e+000	-1.289724e+002
964000	-4.435115e+000	-1.290780e+002
966000	-4.408348e+000	-1.292626e+002
968000	-4.378861e+000	-1.293010e+002
970000	-4.339178e+000	-1.294429e+002
972000	-4.295597e+000	-1.295243e+002
974000	-4.254262e+000	-1.297945e+002
976000	-4.227895e+000	-1.300843e+002
978000	-4.272680e+000	-1.304221e+002
980000	-4.234708e+000	-1.299504e+002
982000	-4.175544e+000	-1.301128e+002
984000	-4.158433e+000	-1.303645e+002
986000	-4.143265e+000	-1.303875e+002
988000	-4.113247e+000	-1.304408e+002
990000	-4.087343e+000	-1.305469e+002
992000	-4.055978e+000	-1.306148e+002
994000	-4.028389e+000	-1.307620e+002
996000	-4.010971e+000	-1.308613e+002
998000	-3.979786e+000	-1.309056e+002
1000000	-3.947225e+000	-1.310723e+002
1002000	-3.931506e+000	-1.312057e+002
1004000	-3.902293e+000	-1.313376e+002
1006000	-3.885111e+000	-1.315471e+002
1008000	-3.881210e+000	-1.317266e+002
1010000	-3.894901e+000	-1.317483e+002
1012000	-3.873838e+000	-1.316218e+002
1014000	-3.829378e+000	-1.316614e+002
1016000	-3.804390e+000	-1.318338e+002
1018000	-3.787749e+000	-1.319196e+002
1020000	-3.766532e+000	-1.320256e+002
1022000	-3.753343e+000	-1.320874e+002
1024000	-3.724412e+000	-1.321542e+002
1026000	-3.700856e+000	-1.322722e+002
1028000	-3.679127e+000	-1.323963e+002
1030000	-3.659943e+000	-1.325297e+002
1032000	-3.644184e+000	-1.326571e+002
1034000	-3.624516e+000	-1.327845e+002
1036000	-3.609990e+000	-1.329414e+002
1038000	-3.603836e+000	-1.331805e+002
1040000	-3.633682e+000	-1.332515e+002
1042000	-3.622147e+000	-1.330430e+002
1044000	-3.586052e+000	-1.330636e+002
1046000	-3.564555e+000	-1.331536e+002
1048000	-3.544806e+000	-1.332079e+002
1050000	-3.520019e+000	-1.332868e+002
1052000	-3.497976e+000	-1.334047e+002
1054000	-3.481513e+000	-1.335304e+002
1056000	-3.469900e+000	-1.336379e+002
1058000	-3.450154e+000	-1.337056e+002
1060000	-3.430954e+000	-1.338477e+002
1062000	-3.421306e+000	-1.340208e+002
1064000	-3.428491e+000	-1.341245e+002
1066000	-3.421901e+000	-1.340931e+002
1068000	-3.403455e+000	-1.341118e+002
1070000	-3.382005e+000	-1.341505e+002
1072000	-3.359613e+000	-1.342472e+002
1074000	-3.343134e+000	-1.343658e+002
1076000	-3.329074e+000	-1.344758e+002
1078000	-3.317821e+000	-1.346109e+002
1080000	-3.324642e+000	-1.347081e+002
1082000	-3.312833e+000	-1.346269e+002
1084000	-3.283749e+000	-1.346722e+002
1086000	-3.261801e+000	-1.347837e+002
1088000	-3.246059e+000	-1.349096e+002
1090000	-3.234234e+000	-1.350148e+002
1092000	-3.219913e+000	-1.351244e+002
1094000	-3.214099e+000	-1.352832e+002
1096000	-3.215928e+000	-1.353391e+002
1098000	-3.213656e+000	-1.353604e+002
1100000	-3.194114e+000	-1.353022e+002
