!Agilent Technologies,E5071C,MY46100265,A.07.02
!Date: Mon Jan 27 12:21:24 2020
!Data & Calibration Information:
!Freq	S11:SOLT1(OFF)
# Hz S dB R 50
9000	2.352654e-002	-1.625632e+000
11955	-7.247137e-002	-1.725715e+000
14910	5.776244e-003	-3.101444e+000
17865	-4.272802e-002	-3.497189e+000
20820	-4.653887e-002	-4.349486e+000
23775	-2.992931e-002	-5.676851e+000
26730	-3.801215e-002	-7.047865e+000
29685	-9.488420e-002	-9.247579e+000
32640	-4.739735e-001	-1.609575e+001
35595	-3.336367e+000	4.833458e+000
38550	-1.755881e-001	4.068618e+000
41505	-9.772330e-002	-1.426296e+000
44460	-7.840364e-002	-3.245085e+000
47415	-3.413429e-002	-4.631771e+000
50370	-1.161407e-002	-5.807853e+000
53325	-1.084755e-002	-6.603412e+000
56280	-1.247786e-002	-7.319908e+000
59235	-1.003738e-002	-8.008393e+000
62190	-1.205475e-002	-8.711942e+000
65145	-1.575580e-002	-9.422272e+000
68100	-2.779234e-002	-1.016874e+001
71055	-3.650039e-002	-1.076742e+001
74010	-2.136131e-002	-1.160545e+001
76965	-2.429505e-002	-1.267120e+001
79920	-4.257392e-002	-1.404264e+001
82875	-1.081519e-001	-1.635608e+001
85830	-6.035218e-001	-2.440345e+001
88785	-5.768307e-001	-7.115324e-001
91740	-7.785396e-002	-9.112067e+000
94695	-2.968977e-002	-1.153478e+001
97650	-1.957617e-002	-1.298298e+001
100605	-2.075818e-002	-1.416075e+001
103560	-5.603435e-002	-1.467066e+001
106515	-2.253455e-002	-1.555950e+001
109470	-2.357581e-002	-1.639792e+001
112425	-2.616899e-002	-1.718482e+001
115380	-2.047787e-002	-1.800977e+001
118335	-2.374408e-002	-1.894331e+001
121290	-2.627049e-002	-2.004448e+001
124245	-3.964556e-002	-2.148729e+001
127200	-1.691431e-001	-2.362548e+001
130155	-6.218590e-001	-2.736390e+001
133110	-9.189022e-001	-1.952947e+001
136065	-1.722451e+000	-2.172614e+001
139020	-3.741322e-001	-1.570299e+001
141975	-1.088353e-001	-1.917623e+001
144930	-7.298434e-002	-2.104375e+001
147885	-6.026783e-002	-2.270125e+001
150840	-9.687937e-002	-2.429393e+001
153795	-1.534995e-001	-2.622332e+001
156750	-4.597170e-001	-2.713914e+001
159705	-6.178926e-001	-2.839280e+001
162660	-1.069907e+000	-3.229952e+001
165615	-2.163474e+000	-1.652805e+001
168570	-4.592435e-001	-2.035514e+001
171525	-2.088349e-001	-2.334415e+001
174480	-1.695915e-001	-2.544411e+001
177435	-1.623839e-001	-2.726859e+001
180390	-1.847509e-001	-2.898181e+001
183345	-2.628557e-001	-3.083560e+001
186300	-4.047240e-001	-3.325800e+001
189255	-1.103541e+000	-3.709530e+001
192210	-2.140637e+000	-2.503394e+001
195165	-5.297211e-001	-2.511623e+001
198120	-2.930601e-001	-2.874068e+001
201075	-2.232192e-001	-3.126915e+001
204030	-2.696838e-001	-3.305440e+001
206985	-3.567521e-001	-3.490624e+001
209940	-4.133982e-001	-3.565794e+001
212895	-4.005988e-001	-3.771351e+001
215850	-5.068246e-001	-3.977111e+001
218805	-8.797812e-001	-4.222030e+001
221760	-1.415993e+000	-4.128625e+001
224715	-1.217968e+000	-3.760544e+001
227670	-6.837123e-001	-4.010177e+001
230625	-5.514486e-001	-4.417584e+001
233580	-8.515882e-001	-4.970541e+001
236535	-1.858806e+000	-6.097623e+001
239490	-1.293794e+000	-3.963861e+001
242445	-1.185894e+000	-5.402212e+001
245400	-3.285943e+000	-6.676506e+001
248355	-7.598103e+000	-3.269178e+001
251310	-1.261309e+000	-3.357712e+001
254265	-7.906136e-001	-5.000002e+001
257220	-1.386659e+000	-6.069407e+001
260175	-2.339008e+000	-7.602374e+001
263130	-6.097476e+000	-7.543069e+001
266085	-4.826426e+000	-8.110330e+001
269040	-6.939067e+000	-1.171769e+002
271995	-1.414182e+001	1.156822e+002
274950	-9.195071e+000	2.087972e+000
277905	-1.297251e+001	4.675333e+001
280860	-4.779250e+000	3.979456e+001
283815	-3.054647e+000	1.982241e+001
286770	-1.855800e+000	8.527372e+000
289725	-1.969805e+000	-1.801870e+000
292680	-2.827950e+000	-8.959667e+000
295635	-2.158633e+000	6.895259e+000
298590	-1.048152e+000	-4.293065e+000
301545	-1.145563e+000	-7.222690e+000
304500	-1.299160e+000	-9.669419e+000
307455	-7.738107e-001	-9.441110e+000
310410	-5.312200e-001	-1.205282e+001
313365	-3.928124e-001	-1.509596e+001
316320	-3.340118e-001	-1.711661e+001
319275	-3.554289e-001	-1.954421e+001
322230	-4.481035e-001	-2.180621e+001
325185	-7.868779e-001	-2.071781e+001
328140	-4.207943e-001	-2.125046e+001
331095	-4.741215e-001	-2.335317e+001
334050	-5.284240e-001	-2.232352e+001
337005	-2.852934e-001	-2.326027e+001
339960	-1.819598e-001	-2.461390e+001
342915	-1.578269e-001	-2.588364e+001
345870	-1.308311e-001	-2.701721e+001
348825	-1.366119e-001	-2.799172e+001
351780	-1.403000e-001	-2.903310e+001
354735	-1.616972e-001	-2.997101e+001
357690	-3.273218e-001	-3.091850e+001
360645	-2.617032e-001	-2.998733e+001
363600	-2.273985e-001	-3.080292e+001
366555	-1.316898e-001	-3.149253e+001
369510	-1.646430e-001	-3.211389e+001
372465	-9.362854e-002	-3.286389e+001
375420	-8.356495e-002	-3.355108e+001
378375	-8.482032e-002	-3.433073e+001
381330	-9.320625e-002	-3.492665e+001
384285	-1.082005e-001	-3.545268e+001
387240	-6.950267e-002	-3.616718e+001
390195	-1.476565e-001	-3.715323e+001
393150	-1.962884e-001	-3.662702e+001
396105	-9.893396e-002	-3.712020e+001
399060	-9.390685e-002	-3.777981e+001
402015	-9.303729e-002	-3.831572e+001
404970	-8.561706e-002	-3.877127e+001
407925	-6.872888e-002	-3.928100e+001
410880	-7.271528e-002	-3.993899e+001
413835	-8.713475e-002	-4.050152e+001
416790	-1.327675e-001	-4.101801e+001
419745	-1.334227e-001	-4.090074e+001
422700	-7.911412e-002	-4.149206e+001
425655	-7.583222e-002	-4.199964e+001
428610	-1.049444e-001	-4.260816e+001
431565	-1.129792e-001	-4.286987e+001
434520	-9.735881e-002	-4.322813e+001
437475	-9.289258e-002	-4.365637e+001
440430	-8.974146e-002	-4.408888e+001
443385	-9.980226e-002	-4.466706e+001
446340	-1.195818e-001	-4.468079e+001
449295	-6.963417e-002	-4.508682e+001
452250	-5.113856e-002	-4.567290e+001
455205	-5.605737e-002	-4.625404e+001
458160	-7.095832e-002	-4.679247e+001
461115	-1.063914e-001	-4.726307e+001
464070	-1.354583e-001	-4.745561e+001
467025	-1.664839e-001	-4.771404e+001
469980	-1.354823e-001	-4.763038e+001
472935	-8.171332e-002	-4.801796e+001
475890	-5.994188e-002	-4.857573e+001
478845	-6.334447e-002	-4.906765e+001
481800	-4.472689e-002	-4.947479e+001
484755	-3.951120e-002	-4.999878e+001
487710	-4.665046e-002	-5.053828e+001
490665	-8.426806e-002	-5.109340e+001
493620	-1.460056e-001	-5.146921e+001
496575	-1.561850e-001	-5.148938e+001
499530	-1.078384e-001	-5.127822e+001
502485	-8.404661e-002	-5.170594e+001
505440	-5.745210e-002	-5.226266e+001
508395	-6.770268e-002	-5.257522e+001
511350	-4.582736e-002	-5.310594e+001
514305	-5.477897e-002	-5.359783e+001
517260	-5.557437e-002	-5.395102e+001
520215	-4.774317e-002	-5.445064e+001
523170	-7.556258e-002	-5.504658e+001
526125	-1.609942e-001	-5.539177e+001
529080	-1.819735e-001	-5.498857e+001
532035	-9.302829e-002	-5.525828e+001
534990	-7.592787e-002	-5.576787e+001
537945	-8.623602e-002	-5.616198e+001
540900	-6.332151e-002	-5.641867e+001
543855	-4.835380e-002	-5.690385e+001
546810	-4.853664e-002	-5.736939e+001
549765	-5.074212e-002	-5.780319e+001
552720	-5.479763e-002	-5.826840e+001
555675	-7.349672e-002	-5.885632e+001
558630	-2.118551e-001	-5.889834e+001
561585	-1.155701e-001	-5.906062e+001
564540	-1.698294e-001	-5.903586e+001
567495	-8.425560e-002	-5.934523e+001
570450	-6.519742e-002	-5.979910e+001
573405	-5.424664e-002	-6.027914e+001
576360	-5.293766e-002	-6.072983e+001
579315	-5.669523e-002	-6.118284e+001
582270	-5.730004e-002	-6.162564e+001
585225	-6.969736e-002	-6.216917e+001
588180	-1.044338e-001	-6.277709e+001
591135	-2.196242e-001	-6.346877e+001
594090	-3.383050e-001	-6.191159e+001
597045	-1.509184e-001	-6.204000e+001
600000	-9.393379e-002	-6.269946e+001
