!Agilent Technologies,E5071C,MY46100265,A.07.02
!Date: Mon Jan 27 12:32:34 2020
!Data & Calibration Information:
!Freq	S11:SOLT1(OFF)
# Hz S dB R 50
700000	-9.759923e+000	1.160858e+002
702000	-9.908566e+000	1.157963e+002
704000	-1.007584e+001	1.157336e+002
706000	-1.022393e+001	1.161209e+002
708000	-1.022129e+001	1.164662e+002
710000	-1.028022e+001	1.157333e+002
712000	-1.041501e+001	1.152159e+002
714000	-1.057051e+001	1.149035e+002
716000	-1.072280e+001	1.146918e+002
718000	-1.088277e+001	1.145525e+002
720000	-1.104191e+001	1.144806e+002
722000	-1.121586e+001	1.144610e+002
724000	-1.139319e+001	1.146513e+002
726000	-1.155074e+001	1.153347e+002
728000	-1.151586e+001	1.161027e+002
730000	-1.156577e+001	1.147869e+002
732000	-1.176588e+001	1.142984e+002
734000	-1.202511e+001	1.143221e+002
736000	-1.210964e+001	1.154198e+002
738000	-1.207045e+001	1.151548e+002
740000	-1.225523e+001	1.139142e+002
742000	-1.248904e+001	1.138053e+002
744000	-1.263530e+001	1.135240e+002
746000	-1.284555e+001	1.133795e+002
748000	-1.307392e+001	1.132763e+002
750000	-1.328309e+001	1.135674e+002
752000	-1.347032e+001	1.135901e+002
754000	-1.371420e+001	1.138088e+002
756000	-1.392414e+001	1.146413e+002
758000	-1.420178e+001	1.152237e+002
760000	-1.383960e+001	1.155646e+002
762000	-1.417798e+001	1.135655e+002
764000	-1.456206e+001	1.134904e+002
766000	-1.490845e+001	1.145426e+002
768000	-1.489287e+001	1.158920e+002
770000	-1.497119e+001	1.149631e+002
772000	-1.526556e+001	1.138930e+002
774000	-1.563525e+001	1.137606e+002
776000	-1.598918e+001	1.140055e+002
778000	-1.637177e+001	1.148707e+002
780000	-1.660485e+001	1.162494e+002
782000	-1.674236e+001	1.163720e+002
784000	-1.707129e+001	1.164375e+002
786000	-1.750869e+001	1.167638e+002
788000	-1.805399e+001	1.192727e+002
790000	-1.767767e+001	1.223538e+002
792000	-1.782953e+001	1.192057e+002
794000	-1.847276e+001	1.184484e+002
796000	-1.911651e+001	1.201364e+002
798000	-1.951993e+001	1.240862e+002
800000	-1.909462e+001	1.253399e+002
802000	-1.974301e+001	1.226506e+002
804000	-2.042050e+001	1.248682e+002
806000	-2.050308e+001	1.271022e+002
808000	-2.117858e+001	1.255225e+002
810000	-2.209561e+001	1.281183e+002
812000	-2.286580e+001	1.320092e+002
814000	-2.344318e+001	1.396295e+002
816000	-2.342170e+001	1.440623e+002
818000	-2.346660e+001	1.485208e+002
820000	-2.352921e+001	1.497901e+002
822000	-2.400525e+001	1.528476e+002
824000	-2.481261e+001	1.551200e+002
826000	-2.495953e+001	1.652365e+002
828000	-2.570586e+001	1.701360e+002
830000	-2.575254e+001	-1.794493e+002
832000	-2.521014e+001	-1.692091e+002
834000	-2.399548e+001	-1.620150e+002
836000	-2.339170e+001	-1.685519e+002
838000	-2.456286e+001	-1.588137e+002
840000	-2.389168e+001	-1.473024e+002
842000	-2.266268e+001	-1.384817e+002
844000	-2.097228e+001	-1.348026e+002
846000	-1.987013e+001	-1.349076e+002
848000	-1.874482e+001	-1.336954e+002
850000	-1.783278e+001	-1.435044e+002
852000	-1.911819e+001	-1.411534e+002
854000	-1.861249e+001	-1.335215e+002
856000	-1.770256e+001	-1.291592e+002
858000	-1.647210e+001	-1.259453e+002
860000	-1.548942e+001	-1.260219e+002
862000	-1.448240e+001	-1.265422e+002
864000	-1.360147e+001	-1.278324e+002
866000	-1.295363e+001	-1.329894e+002
868000	-1.296534e+001	-1.290135e+002
870000	-1.169179e+001	-1.282242e+002
872000	-1.049651e+001	-1.289644e+002
874000	-9.189474e+000	-1.330184e+002
876000	-8.244575e+000	-1.381360e+002
878000	-7.510989e+000	-1.448861e+002
880000	-6.756944e+000	-1.509828e+002
882000	-6.271803e+000	-1.562892e+002
884000	-5.711321e+000	-1.652571e+002
886000	-5.250823e+000	-1.724439e+002
888000	-5.485754e+000	1.741587e+002
890000	-5.934378e+000	1.701550e+002
892000	-6.553544e+000	1.619908e+002
894000	-6.666337e+000	1.563537e+002
896000	-7.357976e+000	1.491412e+002
898000	-8.252767e+000	1.431137e+002
900000	-9.436022e+000	1.407563e+002
902000	-9.766238e+000	1.391854e+002
904000	-1.039945e+001	1.362873e+002
906000	-1.112943e+001	1.316485e+002
908000	-1.201141e+001	1.302541e+002
910000	-1.282774e+001	1.276877e+002
912000	-1.389644e+001	1.267547e+002
914000	-1.472267e+001	1.276273e+002
916000	-1.536852e+001	1.279055e+002
918000	-1.609512e+001	1.260204e+002
920000	-1.725367e+001	1.264027e+002
922000	-1.837306e+001	1.273407e+002
924000	-1.962992e+001	1.325329e+002
926000	-1.990784e+001	1.388270e+002
928000	-1.994511e+001	1.403361e+002
930000	-2.055939e+001	1.401648e+002
932000	-2.126441e+001	1.406561e+002
934000	-2.221496e+001	1.428799e+002
936000	-2.349639e+001	1.477301e+002
938000	-2.383281e+001	1.553587e+002
940000	-2.436526e+001	1.595907e+002
942000	-2.486526e+001	1.622826e+002
944000	-2.561115e+001	1.684084e+002
946000	-2.669747e+001	1.780113e+002
948000	-2.638863e+001	-1.718971e+002
950000	-2.647799e+001	-1.624814e+002
952000	-2.595020e+001	-1.540531e+002
954000	-2.535651e+001	-1.476696e+002
956000	-2.468712e+001	-1.421427e+002
958000	-2.402081e+001	-1.381382e+002
960000	-2.346525e+001	-1.354323e+002
962000	-2.303648e+001	-1.324386e+002
964000	-2.249085e+001	-1.293042e+002
966000	-2.192738e+001	-1.274991e+002
968000	-2.155564e+001	-1.252918e+002
970000	-2.107314e+001	-1.230932e+002
972000	-2.056646e+001	-1.208549e+002
974000	-1.992854e+001	-1.197327e+002
976000	-1.935950e+001	-1.198256e+002
978000	-1.907022e+001	-1.232289e+002
980000	-1.930701e+001	-1.189369e+002
982000	-1.874393e+001	-1.170131e+002
984000	-1.829869e+001	-1.174441e+002
986000	-1.811116e+001	-1.167308e+002
988000	-1.781695e+001	-1.157491e+002
990000	-1.751073e+001	-1.152119e+002
992000	-1.721398e+001	-1.142757e+002
994000	-1.688166e+001	-1.141323e+002
996000	-1.664739e+001	-1.138782e+002
998000	-1.638000e+001	-1.131204e+002
1000000	-1.604111e+001	-1.128760e+002
1002000	-1.579683e+001	-1.129440e+002
1004000	-1.552025e+001	-1.128173e+002
1006000	-1.523618e+001	-1.131586e+002
1008000	-1.505579e+001	-1.139309e+002
1010000	-1.502715e+001	-1.142762e+002
1012000	-1.495230e+001	-1.132202e+002
1014000	-1.467100e+001	-1.122516e+002
1016000	-1.440862e+001	-1.123969e+002
1018000	-1.423372e+001	-1.123942e+002
1020000	-1.403130e+001	-1.123581e+002
1022000	-1.389211e+001	-1.123492e+002
1024000	-1.368327e+001	-1.120199e+002
1026000	-1.347692e+001	-1.120267e+002
1028000	-1.328051e+001	-1.120977e+002
1030000	-1.309376e+001	-1.122814e+002
1032000	-1.292515e+001	-1.124903e+002
1034000	-1.275067e+001	-1.126498e+002
1036000	-1.257910e+001	-1.130207e+002
1038000	-1.241350e+001	-1.137655e+002
1040000	-1.246462e+001	-1.146648e+002
1042000	-1.243719e+001	-1.136707e+002
1044000	-1.226305e+001	-1.131229e+002
1046000	-1.210066e+001	-1.131231e+002
1048000	-1.196627e+001	-1.130319e+002
1050000	-1.180338e+001	-1.129434e+002
1052000	-1.164087e+001	-1.130641e+002
1054000	-1.149748e+001	-1.132866e+002
1056000	-1.137833e+001	-1.135255e+002
1058000	-1.125026e+001	-1.135150e+002
1060000	-1.109759e+001	-1.137537e+002
1062000	-1.096893e+001	-1.142599e+002
1064000	-1.092433e+001	-1.147442e+002
1066000	-1.087763e+001	-1.145897e+002
1068000	-1.077645e+001	-1.144201e+002
1070000	-1.065598e+001	-1.143092e+002
1072000	-1.051661e+001	-1.143671e+002
1074000	-1.039312e+001	-1.145910e+002
1076000	-1.028160e+001	-1.148083e+002
1078000	-1.017376e+001	-1.151423e+002
1080000	-1.013495e+001	-1.155983e+002
1082000	-1.008941e+001	-1.152284e+002
1084000	-9.953747e+000	-1.150577e+002
1086000	-9.821412e+000	-1.151937e+002
1088000	-9.707423e+000	-1.154610e+002
1090000	-9.613752e+000	-1.157010e+002
1092000	-9.511381e+000	-1.159223e+002
1094000	-9.423626e+000	-1.164022e+002
1096000	-9.386929e+000	-1.166331e+002
1098000	-9.349168e+000	-1.167194e+002
1100000	-9.276180e+000	-1.163745e+002
