!Agilent Technologies,E5071C,MY46100265,A.07.02
!Date: Mon Jan 27 12:30:02 2020
!Data & Calibration Information:
!Freq	S11:SOLT1(OFF)
# Hz S dB R 50
700000	-6.119157e+000	-1.215640e+002
702000	-6.073394e+000	-1.217164e+002
704000	-6.040326e+000	-1.219869e+002
706000	-6.046254e+000	-1.222085e+002
708000	-6.038061e+000	-1.220945e+002
710000	-5.994617e+000	-1.220820e+002
712000	-5.948749e+000	-1.221964e+002
714000	-5.911983e+000	-1.223753e+002
716000	-5.881027e+000	-1.225798e+002
718000	-5.856013e+000	-1.228107e+002
720000	-5.841384e+000	-1.231015e+002
722000	-5.862750e+000	-1.233217e+002
724000	-5.877739e+000	-1.231740e+002
726000	-5.843273e+000	-1.230307e+002
728000	-5.800027e+000	-1.230469e+002
730000	-5.757151e+000	-1.231305e+002
732000	-5.711640e+000	-1.232767e+002
734000	-5.678007e+000	-1.235938e+002
736000	-5.684388e+000	-1.237652e+002
738000	-5.661044e+000	-1.237822e+002
740000	-5.637308e+000	-1.238884e+002
742000	-5.597218e+000	-1.240035e+002
744000	-5.581645e+000	-1.242393e+002
746000	-5.557399e+000	-1.243124e+002
748000	-5.519947e+000	-1.245019e+002
750000	-5.493553e+000	-1.248350e+002
752000	-5.508107e+000	-1.252019e+002
754000	-5.543146e+000	-1.252248e+002
756000	-5.528855e+000	-1.250178e+002
758000	-5.476512e+000	-1.251279e+002
760000	-5.480147e+000	-1.253790e+002
762000	-5.452142e+000	-1.252194e+002
764000	-5.405180e+000	-1.254348e+002
766000	-5.394137e+000	-1.257281e+002
768000	-5.388887e+000	-1.257398e+002
770000	-5.345822e+000	-1.259480e+002
772000	-5.337279e+000	-1.262269e+002
774000	-5.335772e+000	-1.264764e+002
776000	-5.344216e+000	-1.266185e+002
778000	-5.368119e+000	-1.266156e+002
780000	-5.314339e+000	-1.266846e+002
782000	-5.323916e+000	-1.269702e+002
784000	-5.335290e+000	-1.270534e+002
786000	-5.346213e+000	-1.270292e+002
788000	-5.325932e+000	-1.269491e+002
790000	-5.297134e+000	-1.270653e+002
792000	-5.283507e+000	-1.272393e+002
794000	-5.297441e+000	-1.273816e+002
796000	-5.294922e+000	-1.273510e+002
798000	-5.308236e+000	-1.273689e+002
800000	-5.275885e+000	-1.271420e+002
802000	-5.241585e+000	-1.272631e+002
804000	-5.226668e+000	-1.274239e+002
806000	-5.243536e+000	-1.273565e+002
808000	-5.206137e+000	-1.272867e+002
810000	-5.170678e+000	-1.272808e+002
812000	-5.137577e+000	-1.274442e+002
814000	-5.130187e+000	-1.275151e+002
816000	-5.111588e+000	-1.275799e+002
818000	-5.087144e+000	-1.275356e+002
820000	-5.046281e+000	-1.276472e+002
822000	-5.032326e+000	-1.277776e+002
824000	-5.014142e+000	-1.277695e+002
826000	-4.965574e+000	-1.277911e+002
828000	-4.929913e+000	-1.280442e+002
830000	-4.912736e+000	-1.282072e+002
832000	-4.893693e+000	-1.283435e+002
834000	-4.874900e+000	-1.284741e+002
836000	-4.855856e+000	-1.285791e+002
838000	-4.836847e+000	-1.286520e+002
840000	-4.805753e+000	-1.287153e+002
842000	-4.764490e+000	-1.289109e+002
844000	-4.754640e+000	-1.292152e+002
846000	-4.757353e+000	-1.292595e+002
848000	-4.727106e+000	-1.291836e+002
850000	-4.665077e+000	-1.293467e+002
852000	-4.654473e+000	-1.296430e+002
854000	-4.628492e+000	-1.296763e+002
856000	-4.582011e+000	-1.298312e+002
858000	-4.539989e+000	-1.301613e+002
860000	-4.530782e+000	-1.304016e+002
862000	-4.487495e+000	-1.305256e+002
864000	-4.445408e+000	-1.309367e+002
866000	-4.465663e+000	-1.312917e+002
868000	-4.445323e+000	-1.311917e+002
870000	-4.375199e+000	-1.313531e+002
872000	-4.303990e+000	-1.318118e+002
874000	-4.297692e+000	-1.323968e+002
876000	-4.289704e+000	-1.325405e+002
878000	-4.219473e+000	-1.328411e+002
880000	-4.166742e+000	-1.336431e+002
882000	-4.197700e+000	-1.342418e+002
884000	-4.187003e+000	-1.344098e+002
886000	-4.114121e+000	-1.347608e+002
888000	-4.082490e+000	-1.357790e+002
890000	-4.105718e+000	-1.361013e+002
892000	-4.014345e+000	-1.366923e+002
894000	-3.909217e+000	-1.379801e+002
896000	-3.969465e+000	-1.397828e+002
898000	-4.082771e+000	-1.406574e+002
900000	-4.031184e+000	-1.413756e+002
902000	-4.014339e+000	-1.437068e+002
904000	-4.290009e+000	-1.460981e+002
906000	-4.552458e+000	-1.472927e+002
908000	-4.777279e+000	-1.495200e+002
910000	-5.370888e+000	-1.520921e+002
912000	-6.149833e+000	-1.503195e+002
914000	-6.360502e+000	-1.485996e+002
916000	-6.928690e+000	-1.487742e+002
918000	-7.618370e+000	-1.443730e+002
920000	-7.466432e+000	-1.393890e+002
922000	-7.408475e+000	-1.382851e+002
924000	-7.562277e+000	-1.353145e+002
926000	-7.308159e+000	-1.322321e+002
928000	-7.006961e+000	-1.314882e+002
930000	-7.014917e+000	-1.307648e+002
932000	-6.852658e+000	-1.290972e+002
934000	-6.659989e+000	-1.282147e+002
936000	-6.523323e+000	-1.279315e+002
938000	-6.438801e+000	-1.272840e+002
940000	-6.317869e+000	-1.264810e+002
942000	-6.134645e+000	-1.259893e+002
944000	-5.995617e+000	-1.258691e+002
946000	-5.867699e+000	-1.256365e+002
948000	-5.731856e+000	-1.256071e+002
950000	-5.620873e+000	-1.257516e+002
952000	-5.536078e+000	-1.258766e+002
954000	-5.459057e+000	-1.259242e+002
956000	-5.378204e+000	-1.259660e+002
958000	-5.300414e+000	-1.260790e+002
960000	-5.229294e+000	-1.262282e+002
962000	-5.172506e+000	-1.263697e+002
964000	-5.113108e+000	-1.265066e+002
966000	-5.060358e+000	-1.266717e+002
968000	-5.019724e+000	-1.268738e+002
970000	-4.987569e+000	-1.269747e+002
972000	-4.950911e+000	-1.270436e+002
974000	-4.909856e+000	-1.271126e+002
976000	-4.870544e+000	-1.272101e+002
978000	-4.832742e+000	-1.273066e+002
980000	-4.797724e+000	-1.274035e+002
982000	-4.763156e+000	-1.275062e+002
984000	-4.734951e+000	-1.276003e+002
986000	-4.702820e+000	-1.276597e+002
988000	-4.669630e+000	-1.277343e+002
990000	-4.636603e+000	-1.278086e+002
992000	-4.601518e+000	-1.278911e+002
994000	-4.566790e+000	-1.280005e+002
996000	-4.534615e+000	-1.281300e+002
998000	-4.505740e+000	-1.282788e+002
1000000	-4.484013e+000	-1.284227e+002
1002000	-4.464308e+000	-1.285361e+002
1004000	-4.445643e+000	-1.286392e+002
1006000	-4.429011e+000	-1.287123e+002
1008000	-4.407361e+000	-1.287673e+002
1010000	-4.385638e+000	-1.288304e+002
1012000	-4.360975e+000	-1.288957e+002
1014000	-4.337930e+000	-1.289708e+002
1016000	-4.313962e+000	-1.290422e+002
1018000	-4.288446e+000	-1.291234e+002
1020000	-4.263601e+000	-1.292215e+002
1022000	-4.240385e+000	-1.293242e+002
1024000	-4.218016e+000	-1.294375e+002
1026000	-4.198821e+000	-1.295583e+002
1028000	-4.182363e+000	-1.296696e+002
1030000	-4.166583e+000	-1.297781e+002
1032000	-4.154721e+000	-1.298682e+002
1034000	-4.140447e+000	-1.299255e+002
1036000	-4.121371e+000	-1.299821e+002
1038000	-4.100823e+000	-1.300694e+002
1040000	-4.084537e+000	-1.301740e+002
1042000	-4.071781e+000	-1.302584e+002
1044000	-4.057191e+000	-1.303219e+002
1046000	-4.040463e+000	-1.303879e+002
1048000	-4.023545e+000	-1.304618e+002
1050000	-4.007896e+000	-1.305456e+002
1052000	-3.993550e+000	-1.306119e+002
1054000	-3.975491e+000	-1.306759e+002
1056000	-3.957541e+000	-1.307688e+002
1058000	-3.944340e+000	-1.308799e+002
1060000	-3.937189e+000	-1.309448e+002
1062000	-3.923738e+000	-1.309784e+002
1064000	-3.907303e+000	-1.310183e+002
1066000	-3.887238e+000	-1.310751e+002
1068000	-3.868613e+000	-1.311609e+002
1070000	-3.852984e+000	-1.312494e+002
1072000	-3.838149e+000	-1.313290e+002
1074000	-3.823295e+000	-1.314138e+002
1076000	-3.810107e+000	-1.314928e+002
1078000	-3.796640e+000	-1.315690e+002
1080000	-3.783186e+000	-1.316345e+002
1082000	-3.767195e+000	-1.317031e+002
1084000	-3.751403e+000	-1.318032e+002
1086000	-3.741433e+000	-1.318942e+002
1088000	-3.731118e+000	-1.319666e+002
1090000	-3.718373e+000	-1.320381e+002
1092000	-3.708737e+000	-1.321193e+002
1094000	-3.700033e+000	-1.321631e+002
1096000	-3.686776e+000	-1.322067e+002
1098000	-3.672622e+000	-1.322591e+002
1100000	-3.657182e+000	-1.323126e+002
