!Agilent Technologies,E5071C,MY46100265,A.07.02
!Date: Mon Jan 27 12:23:18 2020
!Data & Calibration Information:
!Freq	S11:SOLT1(OFF)
# Hz S dB R 50
9000	-3.441632e+001	-1.094126e+002
11955	-3.237966e+001	-1.243200e+002
14910	-3.045177e+001	-1.140143e+002
17865	-2.932767e+001	-1.188161e+002
20820	-2.795197e+001	-1.164677e+002
23775	-2.683898e+001	-1.158687e+002
26730	-2.532439e+001	-1.097267e+002
29685	-2.347974e+001	-1.138475e+002
32640	-2.022105e+001	-1.102316e+002
35595	-1.042934e+001	-1.761452e+002
38550	-2.812080e+001	1.698182e+002
41505	-3.309095e+001	-1.506797e+002
44460	-2.940340e+001	-1.254270e+002
47415	-2.797521e+001	-1.190737e+002
50370	-2.667718e+001	-1.129058e+002
53325	-2.576863e+001	-1.110671e+002
56280	-2.495737e+001	-1.093501e+002
59235	-2.423124e+001	-1.086100e+002
62190	-2.362305e+001	-1.077994e+002
65145	-2.298704e+001	-1.073353e+002
68100	-2.239279e+001	-1.071941e+002
71055	-2.181551e+001	-1.067299e+002
74010	-2.115587e+001	-1.066550e+002
76965	-2.045222e+001	-1.063502e+002
79920	-1.934721e+001	-1.073719e+002
82875	-1.773304e+001	-1.136108e+002
85830	-2.041540e+001	-1.524710e+002
88785	-2.258003e+001	-1.170433e+002
91740	-2.109570e+001	-1.109261e+002
94695	-2.050369e+001	-1.106540e+002
97650	-2.012178e+001	-1.085828e+002
100605	-1.969712e+001	-1.078277e+002
103560	-1.925449e+001	-1.072384e+002
106515	-1.875094e+001	-1.065909e+002
109470	-1.821754e+001	-1.062441e+002
112425	-1.762973e+001	-1.065726e+002
115380	-1.699838e+001	-1.103952e+002
118335	-1.730325e+001	-1.146496e+002
121290	-1.692376e+001	-1.111002e+002
124245	-1.600258e+001	-1.165610e+002
127200	-1.803518e+001	-1.251818e+002
130155	-1.810828e+001	-1.125378e+002
133110	-1.724115e+001	-1.099403e+002
136065	-1.672277e+001	-1.102010e+002
139020	-1.612262e+001	-1.100486e+002
141975	-1.563671e+001	-1.138579e+002
144930	-1.556653e+001	-1.182897e+002
147885	-1.695184e+001	-1.183724e+002
150840	-1.615571e+001	-1.127623e+002
153795	-1.575381e+001	-1.141954e+002
156750	-1.590252e+001	-1.131429e+002
159705	-1.592282e+001	-1.135028e+002
162660	-1.516012e+001	-1.106010e+002
165615	-1.462302e+001	-1.157139e+002
168570	-1.546780e+001	-1.118355e+002
171525	-1.469003e+001	-1.101794e+002
174480	-1.420258e+001	-1.143343e+002
177435	-1.425709e+001	-1.126090e+002
180390	-1.357720e+001	-1.136014e+002
183345	-1.433520e+001	-1.154684e+002
186300	-1.340469e+001	-1.117798e+002
189255	-1.289545e+001	-1.186306e+002
192210	-1.320176e+001	-1.130968e+002
195165	-1.203857e+001	-1.150772e+002
198120	-1.276989e+001	-1.214153e+002
201075	-1.211125e+001	-1.167030e+002
204030	-1.112298e+001	-1.267974e+002
206985	-1.244938e+001	-1.250035e+002
209940	-1.066220e+001	-1.241985e+002
212895	-1.224811e+001	-1.367353e+002
215850	-1.187167e+001	-1.267520e+002
218805	-1.151474e+001	-1.434766e+002
221760	-1.325002e+001	-1.370489e+002
224715	-1.185479e+001	-1.440395e+002
227670	-1.391601e+001	-1.450332e+002
230625	-1.374198e+001	-1.305519e+002
233580	-1.295330e+001	-1.436560e+002
236535	-1.494954e+001	-1.363319e+002
239490	-1.297479e+001	-1.361473e+002
242445	-1.495802e+001	-1.368741e+002
245400	-1.397222e+001	-1.312006e+002
248355	-1.433283e+001	-1.370969e+002
251310	-1.525891e+001	-1.360157e+002
254265	-1.426388e+001	-1.259991e+002
257220	-1.437146e+001	-1.276370e+002
260175	-1.388222e+001	-1.241856e+002
263130	-1.356796e+001	-1.281872e+002
266085	-1.342768e+001	-1.266798e+002
269040	-1.326004e+001	-1.265756e+002
271995	-1.331030e+001	-1.287773e+002
274950	-1.368731e+001	-1.276016e+002
277905	-1.369535e+001	-1.282732e+002
280860	-1.315911e+001	-1.252231e+002
283815	-1.292891e+001	-1.249816e+002
286770	-1.265467e+001	-1.244517e+002
289725	-1.230246e+001	-1.256913e+002
292680	-1.144498e+001	-1.287274e+002
295635	-1.161908e+001	-1.306552e+002
298590	-1.193526e+001	-1.372731e+002
301545	-1.327780e+001	-1.332446e+002
304500	-1.190468e+001	-1.331523e+002
307455	-1.251239e+001	-1.395046e+002
310410	-1.224259e+001	-1.342022e+002
313365	-1.209292e+001	-1.426860e+002
316320	-1.276709e+001	-1.403376e+002
319275	-1.245834e+001	-1.445910e+002
322230	-1.490037e+001	-1.450253e+002
325185	-1.470717e+001	-1.431641e+002
328140	-1.504066e+001	-1.509193e+002
331095	-1.549287e+001	-1.359939e+002
334050	-1.556086e+001	-1.352297e+002
337005	-1.647446e+001	-1.290768e+002
339960	-1.608334e+001	-1.253667e+002
342915	-1.519738e+001	-1.258809e+002
345870	-1.561499e+001	-1.205248e+002
348825	-1.510146e+001	-1.227169e+002
351780	-1.562044e+001	-1.184359e+002
354735	-1.495330e+001	-1.160791e+002
357690	-1.480735e+001	-1.131927e+002
360645	-1.452597e+001	-1.121848e+002
363600	-1.405458e+001	-1.110529e+002
366555	-1.378496e+001	-1.134397e+002
369510	-1.375413e+001	-1.105158e+002
372465	-1.345449e+001	-1.108909e+002
375420	-1.326846e+001	-1.113926e+002
378375	-1.303074e+001	-1.102744e+002
381330	-1.284506e+001	-1.106762e+002
384285	-1.283104e+001	-1.098508e+002
387240	-1.268975e+001	-1.100586e+002
390195	-1.241966e+001	-1.091923e+002
393150	-1.233196e+001	-1.097219e+002
396105	-1.211720e+001	-1.095080e+002
399060	-1.198123e+001	-1.093870e+002
402015	-1.175941e+001	-1.096112e+002
404970	-1.169363e+001	-1.100027e+002
407925	-1.156020e+001	-1.102597e+002
410880	-1.141105e+001	-1.100751e+002
413835	-1.132478e+001	-1.108415e+002
416790	-1.133773e+001	-1.107844e+002
419745	-1.120110e+001	-1.104291e+002
422700	-1.111066e+001	-1.104743e+002
425655	-1.098829e+001	-1.102073e+002
428610	-1.085807e+001	-1.102861e+002
431565	-1.073614e+001	-1.104538e+002
434520	-1.062158e+001	-1.106025e+002
437475	-1.050043e+001	-1.108140e+002
440430	-1.039276e+001	-1.112053e+002
443385	-1.031381e+001	-1.117981e+002
446340	-1.035761e+001	-1.122569e+002
449295	-1.027714e+001	-1.117351e+002
452250	-1.021564e+001	-1.117276e+002
455205	-1.013706e+001	-1.117548e+002
458160	-1.003191e+001	-1.116168e+002
461115	-9.922449e+000	-1.117851e+002
464070	-9.828417e+000	-1.119294e+002
467025	-9.722036e+000	-1.122473e+002
469980	-9.688711e+000	-1.128264e+002
472935	-9.644026e+000	-1.125957e+002
475890	-9.559308e+000	-1.128365e+002
478845	-9.517993e+000	-1.131089e+002
481800	-9.489795e+000	-1.129025e+002
484755	-9.382997e+000	-1.128500e+002
487710	-9.315871e+000	-1.131540e+002
490665	-9.249976e+000	-1.130926e+002
493620	-9.161766e+000	-1.131982e+002
496575	-9.072332e+000	-1.134865e+002
499530	-9.042491e+000	-1.140366e+002
502485	-9.000528e+000	-1.138767e+002
505440	-8.929822e+000	-1.140235e+002
508395	-8.905936e+000	-1.143489e+002
511350	-8.869817e+000	-1.140394e+002
514305	-8.782644e+000	-1.140501e+002
517260	-8.707213e+000	-1.141446e+002
520215	-8.628443e+000	-1.144288e+002
523170	-8.586118e+000	-1.146379e+002
526125	-8.531633e+000	-1.147418e+002
529080	-8.488670e+000	-1.149056e+002
532035	-8.409718e+000	-1.149917e+002
534990	-8.357411e+000	-1.153302e+002
537945	-8.354116e+000	-1.155984e+002
540900	-8.328998e+000	-1.152915e+002
543855	-8.240372e+000	-1.152555e+002
546810	-8.162538e+000	-1.153947e+002
549765	-8.088318e+000	-1.156323e+002
552720	-8.059156e+000	-1.160384e+002
555675	-8.031610e+000	-1.159761e+002
558630	-7.960275e+000	-1.160530e+002
561585	-7.909590e+000	-1.162509e+002
564540	-7.857664e+000	-1.164208e+002
567495	-7.819019e+000	-1.166306e+002
570450	-7.788484e+000	-1.166881e+002
573405	-7.732008e+000	-1.166733e+002
576360	-7.663312e+000	-1.168117e+002
579315	-7.606861e+000	-1.171429e+002
582270	-7.579788e+000	-1.172893e+002
585225	-7.532100e+000	-1.176386e+002
588180	-7.527599e+000	-1.176285e+002
591135	-7.507290e+000	-1.177120e+002
594090	-7.444651e+000	-1.177020e+002
597045	-7.395734e+000	-1.179289e+002
600000	-7.383877e+000	-1.179608e+002
