!Agilent Technologies,E5071C,MY46100265,A.07.02
!Date: Wed Mar 04 14:22:25 2020
!Data & Calibration Information:
!Freq	S11:SOLT1(ON)
# Hz S RI R 50
100000	9.974260e-001	-2.937133e-002
102743	9.960308e-001	-2.902617e-002
105486	9.963580e-001	-3.391337e-002
108229	9.946902e-001	-3.638738e-002
110973	9.920874e-001	-3.727701e-002
113716	9.936919e-001	-3.814287e-002
116459	9.912349e-001	-4.334141e-002
119202	9.891659e-001	-4.388076e-002
121945	9.879050e-001	-4.539043e-002
124688	9.871519e-001	-4.864063e-002
127431	9.854779e-001	-5.456024e-002
130175	9.791715e-001	-6.019462e-002
132918	9.729892e-001	-6.175165e-002
135661	9.718630e-001	-7.036917e-002
138404	9.648112e-001	-7.621547e-002
141147	9.496455e-001	-7.810092e-002
143890	9.342423e-001	-8.579016e-002
146633	9.133884e-001	-8.286698e-002
149377	8.867429e-001	-6.748858e-002
152120	8.673970e-001	-4.039719e-002
154863	8.653677e-001	-6.361907e-003
157606	8.721882e-001	3.395588e-002
160349	9.017422e-001	4.406387e-002
163092	9.289482e-001	3.413738e-002
165835	9.511223e-001	4.914000e-002
168579	9.357392e-001	4.285439e-002
171322	9.578526e-001	4.206897e-002
174065	9.661182e-001	3.293923e-002
176808	9.614594e-001	4.148121e-002
179551	9.649827e-001	2.736893e-002
182294	9.636799e-001	4.294898e-002
185037	9.763100e-001	2.495053e-002
187781	9.787558e-001	2.936553e-002
190524	9.867939e-001	1.707945e-002
193267	9.851282e-001	2.811692e-002
196010	9.804821e-001	1.987951e-002
198753	9.842026e-001	1.544135e-002
201496	9.925364e-001	1.176932e-002
204239	9.853261e-001	1.321735e-002
206983	9.885767e-001	9.612649e-003
209726	9.860210e-001	8.861002e-003
212469	9.923934e-001	8.267674e-003
215212	9.922942e-001	5.982024e-003
217955	9.908321e-001	5.637141e-003
220698	9.867881e-001	7.931895e-003
223441	9.909852e-001	6.014571e-003
226185	9.901157e-001	2.885886e-003
228928	9.876888e-001	-8.672007e-004
231671	9.901979e-001	-1.441274e-003
234414	9.919086e-001	4.798024e-005
237157	9.922731e-001	-5.257263e-003
239900	9.910169e-001	-7.420416e-003
242643	9.908609e-001	-8.209189e-003
245387	9.904382e-001	-1.063946e-002
248130	9.872979e-001	-1.220011e-002
250873	9.868114e-001	-9.851595e-003
253616	9.835374e-001	-1.383766e-002
256359	9.831924e-001	-1.266945e-002
259102	9.826497e-001	-1.159493e-002
261845	9.797138e-001	-1.109419e-002
264589	9.763860e-001	-1.533400e-002
267332	9.756157e-001	-1.255587e-002
270075	9.754865e-001	-1.022974e-002
272818	9.747214e-001	-6.974514e-003
275561	9.723741e-001	-5.493455e-003
278304	9.750812e-001	-1.616131e-003
281047	9.774463e-001	1.335125e-004
283791	9.796867e-001	-1.924279e-004
286534	9.798671e-001	1.740236e-003
289277	9.820739e-001	3.176049e-003
292020	9.860050e-001	-5.083748e-004
294763	9.858743e-001	1.323538e-003
297506	9.868263e-001	3.183437e-004
300249	9.878247e-001	-4.236995e-004
302993	9.868729e-001	-3.741472e-003
305736	9.874477e-001	-5.673858e-003
308479	9.853377e-001	-5.840909e-003
311222	9.879793e-001	-6.353815e-003
313965	9.886243e-001	-5.576186e-003
316708	9.888132e-001	-7.249065e-003
319451	9.891349e-001	-5.804802e-003
322195	9.872813e-001	-8.686994e-003
324938	9.879015e-001	-1.013156e-002
327681	9.886666e-001	-9.497517e-003
330424	9.884485e-001	-1.008134e-002
333167	9.887583e-001	-1.034975e-002
335910	9.875411e-001	-1.050342e-002
338653	9.879485e-001	-1.108849e-002
341397	9.881920e-001	-9.375943e-003
344140	9.880244e-001	-1.196136e-002
346883	9.871014e-001	-1.107493e-002
349626	9.864688e-001	-1.363386e-002
352369	9.862209e-001	-1.321433e-002
355112	9.856888e-001	-1.372340e-002
357855	9.846196e-001	-1.510665e-002
360599	9.865388e-001	-1.265023e-002
363342	9.834866e-001	-1.349063e-002
366085	9.819221e-001	-1.232107e-002
368828	9.809687e-001	-1.154144e-002
371571	9.816057e-001	-1.302691e-002
374314	9.811074e-001	-1.019832e-002
377057	9.811107e-001	-8.152726e-003
379800	9.796895e-001	-7.926764e-003
382544	9.819285e-001	-7.785607e-003
385287	9.825240e-001	-6.003230e-003
388030	9.838456e-001	-4.940146e-003
390773	9.856993e-001	-5.670469e-003
393516	9.876554e-001	-4.224850e-003
396259	9.860443e-001	-5.609363e-003
399002	9.886892e-001	-6.850087e-003
401746	9.892702e-001	-7.686332e-003
404489	9.908812e-001	-6.155361e-003
407232	9.900460e-001	-6.169477e-003
409975	9.912169e-001	-8.595535e-003
412718	9.927640e-001	-9.301285e-003
415461	9.922920e-001	-9.137698e-003
418204	9.919802e-001	-7.567522e-003
420948	9.926573e-001	-8.243824e-003
423691	9.926323e-001	-9.118587e-003
426434	9.942748e-001	-9.674088e-003
429177	9.959714e-001	-1.001093e-002
431920	9.941848e-001	-1.200637e-002
434663	9.940901e-001	-1.246818e-002
437406	9.961187e-001	-1.317274e-002
440150	9.942323e-001	-1.446131e-002
442893	9.964563e-001	-1.369187e-002
445636	9.946090e-001	-1.393515e-002
448379	9.950523e-001	-1.490167e-002
451122	9.957015e-001	-1.681684e-002
453865	9.953622e-001	-1.555377e-002
456608	9.945112e-001	-1.577362e-002
459352	9.933794e-001	-1.577996e-002
462095	9.947815e-001	-1.557032e-002
464838	9.977489e-001	-1.794634e-002
467581	9.950065e-001	-1.744264e-002
470324	9.971992e-001	-1.858591e-002
473067	9.967788e-001	-1.693036e-002
475810	9.971420e-001	-2.036119e-002
478554	9.970553e-001	-1.894995e-002
481297	9.969203e-001	-1.946614e-002
484040	9.972663e-001	-2.032544e-002
486783	9.974128e-001	-1.891529e-002
489526	9.995321e-001	-2.022615e-002
492269	9.968348e-001	-2.052717e-002
495012	9.974493e-001	-2.146899e-002
497756	9.968300e-001	-2.237568e-002
500499	9.978590e-001	-2.267257e-002
503242	9.967137e-001	-2.481801e-002
505985	9.969742e-001	-2.371434e-002
508728	9.969530e-001	-2.582087e-002
511471	9.975556e-001	-2.652918e-002
514214	9.974996e-001	-2.488632e-002
516958	9.963561e-001	-2.708995e-002
519701	9.968971e-001	-2.924460e-002
522444	9.955354e-001	-2.778390e-002
525187	9.962264e-001	-2.852788e-002
527930	9.957786e-001	-2.845405e-002
530673	9.965726e-001	-3.048967e-002
533416	9.941474e-001	-2.921898e-002
536160	9.934375e-001	-2.961540e-002
538903	9.944442e-001	-3.120304e-002
541646	9.942092e-001	-3.146451e-002
544389	9.940761e-001	-3.181189e-002
547132	9.925711e-001	-3.238646e-002
549875	9.935510e-001	-3.098115e-002
552618	9.924860e-001	-3.167879e-002
555362	9.907294e-001	-3.400405e-002
558105	9.899638e-001	-3.268204e-002
560848	9.922216e-001	-3.190843e-002
563591	9.907855e-001	-3.441112e-002
566334	9.906406e-001	-3.249245e-002
569077	9.909964e-001	-3.354426e-002
571820	9.910299e-001	-3.459949e-002
574564	9.903944e-001	-3.503515e-002
577307	9.905139e-001	-3.531710e-002
580050	9.912094e-001	-3.491529e-002
582793	9.883945e-001	-3.431457e-002
585536	9.885895e-001	-3.508812e-002
588279	9.857407e-001	-3.590163e-002
591022	9.868191e-001	-3.649849e-002
593766	9.846521e-001	-3.539158e-002
596509	9.835927e-001	-3.386968e-002
599252	9.835437e-001	-3.595141e-002
601995	9.836610e-001	-3.622534e-002
604738	9.834015e-001	-3.403852e-002
607481	9.819799e-001	-3.388654e-002
610224	9.829476e-001	-3.503441e-002
612968	9.808647e-001	-3.653193e-002
615711	9.812026e-001	-3.486150e-002
618454	9.807561e-001	-3.320954e-002
621197	9.814563e-001	-3.055686e-002
623940	9.817878e-001	-3.216807e-002
626683	9.816029e-001	-3.250175e-002
629426	9.826964e-001	-3.233214e-002
632170	9.820759e-001	-3.408736e-002
634913	9.796605e-001	-3.185880e-002
637656	9.808595e-001	-3.268389e-002
640399	9.799079e-001	-3.053962e-002
643142	9.787153e-001	-3.097978e-002
645885	9.779291e-001	-2.935754e-002
648628	9.801574e-001	-2.904731e-002
651372	9.802515e-001	-2.787000e-002
654115	9.784599e-001	-2.734258e-002
656858	9.783389e-001	-2.733058e-002
659601	9.790502e-001	-2.558088e-002
662344	9.797244e-001	-2.537768e-002
665087	9.797921e-001	-2.440998e-002
667830	9.807093e-001	-2.436624e-002
670574	9.821011e-001	-2.162302e-002
673317	9.811504e-001	-2.321113e-002
676060	9.815387e-001	-2.347920e-002
678803	9.867088e-001	-2.160949e-002
681546	9.842484e-001	-2.143072e-002
684289	9.860010e-001	-2.269419e-002
687032	9.860875e-001	-2.143757e-002
689776	9.877092e-001	-2.133960e-002
692519	9.907171e-001	-2.308298e-002
695262	9.918635e-001	-2.389827e-002
698005	9.905469e-001	-2.257690e-002
700748	9.909724e-001	-2.366232e-002
703491	9.916346e-001	-2.419483e-002
706234	9.934172e-001	-2.531105e-002
708978	9.925600e-001	-2.542820e-002
711721	9.944655e-001	-2.526083e-002
714464	9.941035e-001	-2.673383e-002
717207	9.933041e-001	-2.668463e-002
719950	9.937422e-001	-2.692180e-002
722693	9.957972e-001	-2.743365e-002
725436	9.951126e-001	-2.706445e-002
728180	9.939788e-001	-2.854515e-002
730923	9.949434e-001	-2.940354e-002
733666	9.965243e-001	-2.886296e-002
736409	9.959974e-001	-2.993375e-002
739152	9.958667e-001	-2.979835e-002
741895	9.971374e-001	-3.238563e-002
744638	9.965030e-001	-3.208169e-002
747382	9.964011e-001	-3.167040e-002
750125	9.975127e-001	-3.177652e-002
752868	9.958606e-001	-3.261096e-002
755611	9.949478e-001	-3.258952e-002
758354	9.965577e-001	-3.267719e-002
761097	9.958970e-001	-3.489210e-002
763840	9.960134e-001	-3.482394e-002
766584	9.957433e-001	-3.630575e-002
769327	9.963608e-001	-3.562985e-002
772070	9.958458e-001	-3.646048e-002
774813	9.960932e-001	-3.674007e-002
777556	9.954729e-001	-3.588600e-002
780299	9.962564e-001	-3.861517e-002
783042	9.975620e-001	-3.645346e-002
785786	9.964680e-001	-3.747398e-002
788529	9.964128e-001	-3.815471e-002
791272	9.963638e-001	-3.845440e-002
794015	9.950121e-001	-3.904507e-002
796758	9.964251e-001	-3.887193e-002
799501	9.958437e-001	-3.914235e-002
802244	9.965328e-001	-3.921310e-002
804988	9.955390e-001	-4.027931e-002
807731	9.956540e-001	-3.922866e-002
810474	9.962932e-001	-4.080428e-002
813217	9.952945e-001	-4.202724e-002
815960	9.943071e-001	-4.051120e-002
818703	9.941864e-001	-4.058245e-002
821446	9.949124e-001	-4.272256e-002
824190	9.958917e-001	-4.177583e-002
826933	9.964056e-001	-4.230360e-002
829676	9.954047e-001	-4.333423e-002
832419	9.943613e-001	-4.311868e-002
835162	9.928481e-001	-4.258760e-002
837905	9.952147e-001	-4.244233e-002
840648	9.937669e-001	-4.457369e-002
843392	9.939185e-001	-4.218521e-002
846135	9.921240e-001	-4.428046e-002
848878	9.924824e-001	-4.408756e-002
851621	9.923832e-001	-4.329643e-002
854364	9.923523e-001	-4.340620e-002
857107	9.904767e-001	-4.452256e-002
859850	9.935989e-001	-4.358870e-002
862594	9.944554e-001	-4.398822e-002
865337	9.918629e-001	-4.414057e-002
868080	9.911333e-001	-4.477374e-002
870823	9.934386e-001	-4.381419e-002
873566	9.923564e-001	-4.385019e-002
876309	9.937061e-001	-4.448485e-002
879052	9.919974e-001	-4.585067e-002
881796	9.927669e-001	-4.455554e-002
884539	9.919393e-001	-4.503290e-002
887282	9.920249e-001	-4.199841e-002
890025	9.917221e-001	-4.421058e-002
892768	9.935640e-001	-4.454142e-002
895511	9.917592e-001	-4.360828e-002
898254	9.933209e-001	-4.433647e-002
900998	9.930104e-001	-4.395669e-002
903741	9.919498e-001	-4.357791e-002
906484	9.928866e-001	-4.376508e-002
909227	9.919736e-001	-4.305536e-002
911970	9.945024e-001	-4.493056e-002
914713	9.934511e-001	-4.475278e-002
917456	9.927540e-001	-4.512432e-002
920200	9.935647e-001	-4.530534e-002
922943	9.951693e-001	-4.310642e-002
925686	9.942302e-001	-4.715409e-002
928429	9.957285e-001	-4.404179e-002
931172	9.935429e-001	-4.596503e-002
933915	9.950584e-001	-4.499515e-002
936658	9.952679e-001	-4.610929e-002
939401	9.977425e-001	-4.565409e-002
942145	9.960804e-001	-4.714540e-002
944888	9.953022e-001	-4.696543e-002
947631	9.944787e-001	-4.769220e-002
950374	9.971929e-001	-4.681625e-002
953117	9.968939e-001	-4.795532e-002
955860	9.951867e-001	-4.815553e-002
958603	9.955374e-001	-4.903287e-002
961347	9.968129e-001	-4.751298e-002
964090	9.973028e-001	-4.733358e-002
966833	9.954875e-001	-4.854976e-002
969576	9.957651e-001	-4.974929e-002
972319	9.963467e-001	-4.957251e-002
975062	9.964356e-001	-4.989145e-002
977805	9.965950e-001	-4.882216e-002
980549	9.953720e-001	-5.112650e-002
983292	9.961568e-001	-4.985953e-002
986035	9.965068e-001	-5.118566e-002
988778	9.953866e-001	-5.343635e-002
991521	9.958031e-001	-5.127245e-002
994264	9.955905e-001	-5.229803e-002
997007	9.968507e-001	-5.287240e-002
999751	9.967094e-001	-5.065162e-002
1002494	9.960238e-001	-5.493391e-002
1005237	9.948149e-001	-5.467581e-002
1007980	9.968228e-001	-5.352921e-002
1010723	9.964391e-001	-5.326265e-002
1013466	9.963766e-001	-5.428919e-002
1016209	9.962928e-001	-5.637040e-002
1018953	9.955945e-001	-5.573964e-002
1021696	9.950362e-001	-5.227099e-002
1024439	9.963325e-001	-5.500529e-002
1027182	9.951953e-001	-5.618000e-002
1029925	9.963824e-001	-5.422261e-002
1032668	9.950890e-001	-5.483313e-002
1035411	9.966910e-001	-5.579188e-002
1038155	9.969690e-001	-5.669014e-002
1040898	9.963627e-001	-5.715635e-002
1043641	9.962706e-001	-5.541506e-002
1046384	9.943742e-001	-5.632859e-002
1049127	9.942784e-001	-5.699086e-002
1051870	9.947251e-001	-5.888141e-002
1054613	9.979495e-001	-5.804387e-002
1057357	9.965030e-001	-5.952559e-002
1060100	9.964977e-001	-5.886130e-002
1062843	9.944244e-001	-5.718124e-002
1065586	9.940036e-001	-5.774216e-002
1068329	9.948294e-001	-5.679352e-002
1071072	9.958528e-001	-5.842441e-002
1073815	9.946677e-001	-5.949618e-002
1076559	9.941452e-001	-6.082375e-002
1079302	9.951377e-001	-5.897384e-002
1082045	9.951743e-001	-6.005423e-002
1084788	9.957121e-001	-5.874578e-002
1087531	9.948733e-001	-5.927713e-002
1090274	9.929699e-001	-6.081468e-002
1093017	9.953156e-001	-5.951792e-002
1095761	9.940706e-001	-5.930824e-002
1098504	9.951058e-001	-5.880863e-002
1101247	9.963253e-001	-5.978516e-002
1103990	9.941773e-001	-5.974732e-002
1106733	9.971496e-001	-5.988830e-002
1109476	9.962800e-001	-5.800210e-002
1112219	9.971266e-001	-6.083611e-002
1114963	9.958506e-001	-5.871159e-002
1117706	9.970427e-001	-6.179665e-002
1120449	9.952746e-001	-5.953066e-002
1123192	9.954644e-001	-6.344494e-002
1125935	9.959663e-001	-6.172692e-002
1128678	9.965580e-001	-6.117730e-002
1131421	9.980120e-001	-6.252267e-002
1134165	9.953894e-001	-6.360082e-002
1136908	9.963209e-001	-6.401291e-002
1139651	9.964052e-001	-6.267103e-002
1142394	9.959374e-001	-6.390974e-002
1145137	9.968837e-001	-6.390074e-002
1147880	9.962243e-001	-6.433497e-002
1150623	9.957857e-001	-6.499112e-002
1153367	9.967264e-001	-6.517049e-002
1156110	9.958777e-001	-6.474860e-002
1158853	9.953544e-001	-6.353994e-002
1161596	9.957589e-001	-6.634709e-002
1164339	9.958144e-001	-6.367111e-002
1167082	9.962874e-001	-6.566495e-002
1169825	9.955565e-001	-6.715484e-002
1172569	9.965547e-001	-6.701822e-002
1175312	9.964414e-001	-6.613188e-002
1178055	9.960697e-001	-6.677894e-002
1180798	9.952164e-001	-6.660643e-002
1183541	9.951224e-001	-6.632411e-002
1186284	9.958409e-001	-6.739650e-002
1189027	9.955426e-001	-6.740784e-002
1191771	9.957247e-001	-6.670180e-002
1194514	9.956159e-001	-6.857666e-002
1197257	9.929135e-001	-6.871242e-002
1200000	9.939947e-001	-6.917657e-002
