!Agilent Technologies,E5071C,MY46100265,A.07.02
!Date: Wed Mar 04 14:21:20 2020
!Data & Calibration Information:
!Freq	S11:SOLT1(ON)
# Hz S RI R 50
100000	9.977917e-001	-2.951723e-002
102743	9.968954e-001	-2.936284e-002
105486	9.968751e-001	-3.226102e-002
108229	9.957261e-001	-3.314485e-002
110973	9.944181e-001	-3.667271e-002
113716	9.962128e-001	-3.875645e-002
116459	9.933461e-001	-4.331498e-002
119202	9.932573e-001	-4.445403e-002
121945	9.903149e-001	-4.887820e-002
124688	9.877884e-001	-5.144997e-002
127431	9.875979e-001	-5.552022e-002
130175	9.834014e-001	-6.178065e-002
132918	9.782721e-001	-6.953478e-002
135661	9.717154e-001	-7.297325e-002
138404	9.596628e-001	-7.752052e-002
141147	9.503681e-001	-7.931603e-002
143890	9.363939e-001	-8.516855e-002
146633	9.175373e-001	-7.962871e-002
149377	9.027361e-001	-7.598567e-002
152120	8.759991e-001	-6.228954e-002
154863	8.494760e-001	-3.518305e-002
157606	8.540327e-001	4.249713e-003
160349	8.615793e-001	6.914213e-002
163092	9.322024e-001	5.609876e-002
165835	9.319405e-001	3.300013e-002
168579	9.385137e-001	5.688769e-002
171322	9.619089e-001	4.713500e-002
174065	9.746304e-001	5.780237e-002
176808	9.629106e-001	4.974071e-002
179551	9.574356e-001	4.096955e-002
182294	9.840860e-001	2.928168e-002
185037	9.863087e-001	2.700544e-002
187781	9.872939e-001	1.839344e-002
190524	9.836120e-001	2.316418e-002
193267	9.873241e-001	2.563115e-002
196010	9.886304e-001	1.909617e-002
198753	9.793419e-001	1.693970e-002
201496	9.919446e-001	1.543711e-002
204239	9.864659e-001	1.030925e-002
206983	9.890276e-001	7.449467e-003
209726	9.886363e-001	7.970608e-003
212469	9.908456e-001	3.907950e-003
215212	9.914860e-001	4.705557e-003
217955	9.902548e-001	2.292518e-003
220698	9.868858e-001	1.288567e-003
223441	9.903945e-001	3.648111e-003
226185	9.880945e-001	4.731599e-003
228928	9.908398e-001	1.799913e-003
231671	9.874178e-001	-1.039814e-003
234414	9.914285e-001	-1.485760e-003
237157	9.895043e-001	-5.579843e-003
239900	9.892948e-001	-4.733200e-003
242643	9.928363e-001	-7.396781e-003
245387	9.909836e-001	-7.294186e-003
248130	9.904229e-001	-1.110985e-002
250873	9.887569e-001	-1.205335e-002
253616	9.868338e-001	-1.470816e-002
256359	9.839183e-001	-1.583100e-002
259102	9.816465e-001	-1.432385e-002
261845	9.781680e-001	-1.426871e-002
264589	9.783018e-001	-1.544892e-002
267332	9.735263e-001	-1.273053e-002
270075	9.735890e-001	-1.194750e-002
272818	9.701680e-001	-7.053648e-003
275561	9.739321e-001	-4.717123e-003
278304	9.725965e-001	2.064318e-006
281047	9.774442e-001	1.878826e-003
283791	9.755807e-001	2.506480e-003
286534	9.802957e-001	1.440875e-003
289277	9.834888e-001	3.767459e-003
292020	9.842313e-001	2.141037e-003
294763	9.854315e-001	-1.123203e-003
297506	9.890638e-001	2.923202e-004
300249	9.858267e-001	-2.075491e-003
302993	9.885274e-001	-3.100143e-003
305736	9.881519e-001	-3.516912e-003
308479	9.833100e-001	-4.464148e-003
311222	9.875564e-001	-2.345865e-003
313965	9.885647e-001	-5.561206e-003
316708	9.904676e-001	-5.152602e-003
319451	9.894348e-001	-7.326849e-003
322195	9.883998e-001	-8.978625e-003
324938	9.878011e-001	-6.913738e-003
327681	9.873808e-001	-9.380466e-003
330424	9.869978e-001	-7.849033e-003
333167	9.878458e-001	-9.174497e-003
335910	9.899010e-001	-6.365346e-003
338653	9.889276e-001	-9.200830e-003
341397	9.872683e-001	-8.418969e-003
344140	9.863251e-001	-1.140455e-002
346883	9.870537e-001	-1.159929e-002
349626	9.875763e-001	-1.271828e-002
352369	9.877469e-001	-1.139571e-002
355112	9.883510e-001	-1.195918e-002
357855	9.879775e-001	-1.274423e-002
360599	9.866213e-001	-1.410331e-002
363342	9.850070e-001	-1.396135e-002
366085	9.827516e-001	-1.419136e-002
368828	9.829453e-001	-1.332145e-002
371571	9.819812e-001	-1.171360e-002
374314	9.829366e-001	-1.082859e-002
377057	9.839085e-001	-8.955022e-003
379800	9.821761e-001	-1.106815e-002
382544	9.848923e-001	-9.368724e-003
385287	9.826124e-001	-7.742976e-003
388030	9.826773e-001	-6.864821e-003
390773	9.860420e-001	-7.132220e-003
393516	9.870198e-001	-6.127466e-003
396259	9.867624e-001	-7.184329e-003
399002	9.900019e-001	-8.992116e-003
401746	9.886342e-001	-8.740557e-003
404489	9.903561e-001	-6.567162e-003
407232	9.898766e-001	-8.265335e-003
409975	9.903533e-001	-8.867463e-003
412718	9.942633e-001	-7.101235e-003
415461	9.924456e-001	-1.001412e-002
418204	9.914566e-001	-7.133075e-003
420948	9.932884e-001	-9.731389e-003
423691	9.926598e-001	-9.897674e-003
426434	9.944184e-001	-1.129141e-002
429177	9.951383e-001	-1.286991e-002
431920	9.952568e-001	-1.219878e-002
434663	9.947725e-001	-1.153812e-002
437406	9.957969e-001	-1.241406e-002
440150	9.950022e-001	-1.438950e-002
442893	9.970577e-001	-1.446026e-002
445636	9.939036e-001	-1.453269e-002
448379	9.964023e-001	-1.430702e-002
451122	9.957611e-001	-1.646577e-002
453865	9.939089e-001	-1.752717e-002
456608	9.941553e-001	-1.647045e-002
459352	9.935344e-001	-1.583857e-002
462095	9.958207e-001	-1.692186e-002
464838	9.965197e-001	-1.733547e-002
467581	9.960793e-001	-1.844756e-002
470324	9.955852e-001	-1.787056e-002
473067	9.967433e-001	-1.750361e-002
475810	9.966447e-001	-1.917724e-002
478554	9.966793e-001	-1.865070e-002
481297	9.966194e-001	-2.005075e-002
484040	9.973825e-001	-2.006932e-002
486783	9.976179e-001	-1.951286e-002
489526	9.986834e-001	-2.062802e-002
492269	9.956840e-001	-2.010561e-002
495012	9.977802e-001	-2.245810e-002
497756	9.966271e-001	-2.160727e-002
500499	9.987665e-001	-2.304025e-002
503242	9.974948e-001	-2.477639e-002
505985	9.978446e-001	-2.433085e-002
508728	9.977499e-001	-2.491985e-002
511471	9.983313e-001	-2.455872e-002
514214	9.981926e-001	-2.526330e-002
516958	9.961886e-001	-2.675558e-002
519701	9.973554e-001	-2.707563e-002
522444	9.958874e-001	-2.675421e-002
525187	9.976030e-001	-2.895302e-002
527930	9.958446e-001	-3.000379e-002
530673	9.960980e-001	-2.883529e-002
533416	9.945408e-001	-2.998381e-002
536160	9.934564e-001	-2.957230e-002
538903	9.949904e-001	-3.061215e-002
541646	9.954685e-001	-3.059978e-002
544389	9.934027e-001	-3.162779e-002
547132	9.926490e-001	-3.250889e-002
549875	9.937775e-001	-3.090076e-002
552618	9.918599e-001	-3.210240e-002
555362	9.913575e-001	-3.386365e-002
558105	9.908512e-001	-3.190271e-002
560848	9.909748e-001	-3.257536e-002
563591	9.914628e-001	-3.296379e-002
566334	9.909404e-001	-3.469181e-002
569077	9.915631e-001	-3.443043e-002
571820	9.915700e-001	-3.521680e-002
574564	9.911693e-001	-3.636519e-002
577307	9.906622e-001	-3.508255e-002
580050	9.892170e-001	-3.556797e-002
582793	9.886957e-001	-3.392767e-002
585536	9.887319e-001	-3.602990e-002
588279	9.871964e-001	-3.564575e-002
591022	9.860054e-001	-3.724892e-002
593766	9.856562e-001	-3.523669e-002
596509	9.858812e-001	-3.482482e-002
599252	9.842802e-001	-3.668995e-002
601995	9.834778e-001	-3.522187e-002
604738	9.816680e-001	-3.511636e-002
607481	9.815021e-001	-3.515524e-002
610224	9.818418e-001	-3.472857e-002
612968	9.824343e-001	-3.725315e-002
615711	9.818638e-001	-3.397381e-002
618454	9.811067e-001	-3.209525e-002
621197	9.818476e-001	-3.139247e-002
623940	9.812132e-001	-3.112982e-002
626683	9.804386e-001	-3.241619e-002
629426	9.819927e-001	-3.120882e-002
632170	9.819215e-001	-3.261303e-002
634913	9.794787e-001	-3.227662e-002
637656	9.816393e-001	-3.068955e-002
640399	9.800872e-001	-3.143139e-002
643142	9.784195e-001	-3.094881e-002
645885	9.789124e-001	-3.090851e-002
648628	9.789788e-001	-2.926304e-002
651372	9.787183e-001	-2.891375e-002
654115	9.780919e-001	-2.634040e-002
656858	9.784623e-001	-2.731040e-002
659601	9.795420e-001	-2.549585e-002
662344	9.780734e-001	-2.513245e-002
665087	9.807195e-001	-2.457577e-002
667830	9.799520e-001	-2.459851e-002
670574	9.818608e-001	-2.265522e-002
673317	9.816882e-001	-2.300479e-002
676060	9.824046e-001	-2.164725e-002
678803	9.853110e-001	-2.232652e-002
681546	9.850877e-001	-2.078616e-002
684289	9.860529e-001	-2.172794e-002
687032	9.861080e-001	-2.063861e-002
689776	9.882232e-001	-2.246941e-002
692519	9.897970e-001	-2.333367e-002
695262	9.918709e-001	-2.308905e-002
698005	9.907774e-001	-2.167887e-002
700748	9.915688e-001	-2.300621e-002
703491	9.931448e-001	-2.437429e-002
706234	9.916532e-001	-2.513537e-002
708978	9.934155e-001	-2.378591e-002
711721	9.948055e-001	-2.532933e-002
714464	9.951134e-001	-2.633817e-002
717207	9.924663e-001	-2.694453e-002
719950	9.944152e-001	-2.714198e-002
722693	9.940227e-001	-2.759167e-002
725436	9.949718e-001	-2.768638e-002
728180	9.926024e-001	-2.899756e-002
730923	9.949569e-001	-3.066195e-002
733666	9.966479e-001	-2.936052e-002
736409	9.950183e-001	-3.037738e-002
739152	9.953436e-001	-2.917342e-002
741895	9.961223e-001	-3.303823e-002
744638	9.952064e-001	-3.059872e-002
747382	9.956761e-001	-3.233625e-002
750125	9.956058e-001	-3.069330e-002
752868	9.950592e-001	-3.279378e-002
755611	9.942562e-001	-3.333384e-002
758354	9.957300e-001	-3.262669e-002
761097	9.945565e-001	-3.422334e-002
763840	9.957702e-001	-3.508826e-002
766584	9.940040e-001	-3.565077e-002
769327	9.957603e-001	-3.599398e-002
772070	9.974782e-001	-3.649538e-002
774813	9.976425e-001	-3.616004e-002
777556	9.958678e-001	-3.640376e-002
780299	9.959278e-001	-3.890302e-002
783042	9.964754e-001	-3.613357e-002
785786	9.952958e-001	-3.720035e-002
788529	9.963019e-001	-3.792406e-002
791272	9.966405e-001	-3.966697e-002
794015	9.972786e-001	-3.931150e-002
796758	9.957113e-001	-3.900955e-002
799501	9.950179e-001	-3.927113e-002
802244	9.966577e-001	-3.927004e-002
804988	9.963118e-001	-4.064998e-002
807731	9.958712e-001	-4.034142e-002
810474	9.946762e-001	-4.104724e-002
813217	9.971561e-001	-4.258958e-002
815960	9.958351e-001	-4.058817e-002
818703	9.945318e-001	-4.178575e-002
821446	9.946256e-001	-4.316902e-002
824190	9.946554e-001	-4.208232e-002
826933	9.936260e-001	-4.180917e-002
829676	9.937186e-001	-4.326518e-002
832419	9.936541e-001	-4.274775e-002
835162	9.926925e-001	-4.339845e-002
837905	9.936552e-001	-4.406260e-002
840648	9.933515e-001	-4.343613e-002
843392	9.934697e-001	-4.364289e-002
846135	9.918973e-001	-4.429894e-002
848878	9.930435e-001	-4.412702e-002
851621	9.913420e-001	-4.307094e-002
854364	9.921667e-001	-4.299996e-002
857107	9.919858e-001	-4.426876e-002
859850	9.929597e-001	-4.325691e-002
862594	9.939295e-001	-4.385365e-002
865337	9.917429e-001	-4.520919e-002
868080	9.922654e-001	-4.416275e-002
870823	9.932788e-001	-4.404400e-002
873566	9.921153e-001	-4.350579e-002
876309	9.937221e-001	-4.458498e-002
879052	9.926222e-001	-4.506322e-002
881796	9.923198e-001	-4.442917e-002
884539	9.910011e-001	-4.546497e-002
887282	9.922858e-001	-4.373756e-002
890025	9.917040e-001	-4.458409e-002
892768	9.926857e-001	-4.409039e-002
895511	9.919966e-001	-4.357954e-002
898254	9.923022e-001	-4.526461e-002
900998	9.924597e-001	-4.506577e-002
903741	9.919092e-001	-4.389569e-002
906484	9.928834e-001	-4.365976e-002
909227	9.903076e-001	-4.388978e-002
911970	9.930825e-001	-4.515009e-002
914713	9.952955e-001	-4.456668e-002
917456	9.919127e-001	-4.433054e-002
920200	9.939414e-001	-4.460755e-002
922943	9.954588e-001	-4.447856e-002
925686	9.941576e-001	-4.591176e-002
928429	9.960571e-001	-4.525964e-002
931172	9.933806e-001	-4.508985e-002
933915	9.950430e-001	-4.628713e-002
936658	9.961628e-001	-4.719831e-002
939401	9.952952e-001	-4.683723e-002
942145	9.958155e-001	-4.773829e-002
944888	9.955888e-001	-4.717100e-002
947631	9.959766e-001	-4.754821e-002
950374	9.960842e-001	-4.705407e-002
953117	9.973769e-001	-4.890217e-002
955860	9.952389e-001	-4.945825e-002
958603	9.946987e-001	-4.945279e-002
961347	9.967067e-001	-4.844538e-002
964090	9.978809e-001	-4.817144e-002
966833	9.945723e-001	-4.895256e-002
969576	9.952295e-001	-4.952209e-002
972319	9.963306e-001	-4.918596e-002
975062	9.959480e-001	-4.974782e-002
977805	9.965897e-001	-5.083281e-002
980549	9.973468e-001	-5.119037e-002
983292	9.961681e-001	-5.124824e-002
986035	9.967168e-001	-4.972976e-002
988778	9.955987e-001	-5.234097e-002
991521	9.969509e-001	-5.017388e-002
994264	9.958232e-001	-5.195191e-002
997007	9.971630e-001	-5.339860e-002
999751	9.971003e-001	-5.179126e-002
1002494	9.972541e-001	-5.379938e-002
1005237	9.956084e-001	-5.427283e-002
1007980	9.968620e-001	-5.499663e-002
1010723	9.969126e-001	-5.316526e-002
1013466	9.959123e-001	-5.499529e-002
1016209	9.962077e-001	-5.537621e-002
1018953	9.964168e-001	-5.492766e-002
1021696	9.960027e-001	-5.364606e-002
1024439	9.940708e-001	-5.384809e-002
1027182	9.964220e-001	-5.632147e-002
1029925	9.964439e-001	-5.491259e-002
1032668	9.954745e-001	-5.563527e-002
1035411	9.961492e-001	-5.614069e-002
1038155	9.956639e-001	-5.754013e-002
1040898	9.963934e-001	-5.810405e-002
1043641	9.958076e-001	-5.539276e-002
1046384	9.952565e-001	-5.700027e-002
1049127	9.963658e-001	-5.827465e-002
1051870	9.953911e-001	-5.726316e-002
1054613	9.974950e-001	-5.774291e-002
1057357	9.972525e-001	-5.920392e-002
1060100	9.952194e-001	-5.846935e-002
1062843	9.949024e-001	-5.753002e-002
1065586	9.944477e-001	-5.913844e-002
1068329	9.951324e-001	-5.761465e-002
1071072	9.946755e-001	-5.809288e-002
1073815	9.942023e-001	-5.975404e-002
1076559	9.958563e-001	-6.103813e-002
1079302	9.949957e-001	-5.921008e-002
1082045	9.951813e-001	-6.212841e-002
1084788	9.949760e-001	-5.971412e-002
1087531	9.958180e-001	-6.042842e-002
1090274	9.951796e-001	-5.919276e-002
1093017	9.943190e-001	-5.981548e-002
1095761	9.947273e-001	-5.988906e-002
1098504	9.940337e-001	-5.959231e-002
1101247	9.952600e-001	-6.037100e-002
1103990	9.965402e-001	-5.924636e-002
1106733	9.967271e-001	-6.065695e-002
1109476	9.960365e-001	-5.870230e-002
1112219	9.946767e-001	-6.267170e-002
1114963	9.962845e-001	-5.902813e-002
1117706	9.964287e-001	-6.040637e-002
1120449	9.952742e-001	-6.085553e-002
1123192	9.948194e-001	-6.257534e-002
1125935	9.969160e-001	-6.330513e-002
1128678	9.967321e-001	-6.295692e-002
1131421	9.983157e-001	-6.275350e-002
1134165	9.960252e-001	-6.359922e-002
1136908	9.966302e-001	-6.296026e-002
1139651	9.954265e-001	-6.142268e-002
1142394	9.954715e-001	-6.516042e-002
1145137	9.965621e-001	-6.460375e-002
1147880	9.969335e-001	-6.370364e-002
1150623	9.957332e-001	-6.436525e-002
1153367	9.970760e-001	-6.490185e-002
1156110	9.952782e-001	-6.420705e-002
1158853	9.952874e-001	-6.441684e-002
1161596	9.964733e-001	-6.527163e-002
1164339	9.959018e-001	-6.524828e-002
1167082	9.957448e-001	-6.707054e-002
1169825	9.954311e-001	-6.602585e-002
1172569	9.949115e-001	-6.693623e-002
1175312	9.950729e-001	-6.675212e-002
1178055	9.942568e-001	-6.417118e-002
1180798	9.959056e-001	-6.796503e-002
1183541	9.954981e-001	-6.678607e-002
1186284	9.954599e-001	-6.683939e-002
1189027	9.948012e-001	-6.798157e-002
1191771	9.958877e-001	-6.715367e-002
1194514	9.957574e-001	-6.942580e-002
1197257	9.932043e-001	-6.776115e-002
1200000	9.945082e-001	-6.857747e-002
