!Agilent Technologies,E5071C,MY46100265,A.07.02
!Date: Wed Mar 04 14:21:39 2020
!Data & Calibration Information:
!Freq	S11:SOLT1(ON)
# Hz S RI R 50
100000	9.964362e-001	-3.104875e-002
102743	9.953624e-001	-3.078731e-002
105486	9.973607e-001	-3.318100e-002
108229	9.959074e-001	-3.263815e-002
110973	9.934764e-001	-3.727001e-002
113716	9.955342e-001	-3.786799e-002
116459	9.943260e-001	-4.202510e-002
119202	9.912145e-001	-4.597472e-002
121945	9.913905e-001	-4.701414e-002
124688	9.886462e-001	-5.267647e-002
127431	9.876686e-001	-5.433555e-002
130175	9.842847e-001	-6.001048e-002
132918	9.779886e-001	-6.602868e-002
135661	9.748707e-001	-7.374095e-002
138404	9.661209e-001	-7.852902e-002
141147	9.550894e-001	-8.461193e-002
143890	9.393930e-001	-9.279612e-002
146633	9.162554e-001	-9.106076e-002
149377	8.877875e-001	-8.473354e-002
152120	8.547814e-001	-6.316257e-002
154863	8.414313e-001	-1.974448e-002
157606	8.431518e-001	2.084532e-002
160349	8.666570e-001	6.756206e-002
163092	9.218519e-001	7.958437e-002
165835	9.482648e-001	4.505789e-002
168579	9.584439e-001	5.038409e-002
171322	9.457844e-001	3.530449e-002
174065	9.632150e-001	4.081090e-002
176808	9.600370e-001	3.895435e-002
179551	9.609295e-001	3.122265e-002
182294	9.724079e-001	3.385951e-002
185037	9.877197e-001	3.144285e-002
187781	9.837619e-001	2.611925e-002
190524	9.880050e-001	2.292493e-002
193267	9.835703e-001	2.285454e-002
196010	9.928969e-001	2.024114e-002
198753	9.850327e-001	1.860130e-002
201496	9.888830e-001	1.045172e-002
204239	9.870427e-001	9.442075e-003
206983	9.887850e-001	1.064497e-002
209726	9.902979e-001	7.590690e-003
212469	9.880764e-001	5.817206e-003
215212	9.932682e-001	5.405306e-003
217955	9.891703e-001	2.877295e-003
220698	9.875471e-001	4.360354e-003
223441	9.922655e-001	3.667558e-003
226185	9.898918e-001	-3.022037e-004
228928	9.884762e-001	-6.309872e-005
231671	9.898756e-001	-2.149534e-003
234414	9.910293e-001	-3.037457e-003
237157	9.903945e-001	-5.883544e-003
239900	9.906652e-001	-4.927498e-003
242643	9.912935e-001	-5.413064e-003
245387	9.914979e-001	-8.371222e-003
248130	9.895500e-001	-1.113929e-002
250873	9.886396e-001	-1.014117e-002
253616	9.867080e-001	-1.293866e-002
256359	9.858585e-001	-1.439822e-002
259102	9.858161e-001	-1.513632e-002
261845	9.794713e-001	-1.460910e-002
264589	9.783505e-001	-1.618148e-002
267332	9.755887e-001	-1.329500e-002
270075	9.746839e-001	-1.244780e-002
272818	9.710458e-001	-9.179757e-003
275561	9.718783e-001	-7.873098e-003
278304	9.733091e-001	7.923106e-004
281047	9.770002e-001	1.223654e-003
283791	9.753999e-001	6.469548e-004
286534	9.791806e-001	2.674713e-003
289277	9.814671e-001	2.584203e-003
292020	9.830245e-001	1.278873e-004
294763	9.858425e-001	1.269804e-003
297506	9.878672e-001	9.975058e-004
300249	9.861709e-001	-7.660186e-004
302993	9.874978e-001	-1.646011e-003
305736	9.886102e-001	-2.663098e-003
308479	9.859187e-001	-1.184192e-003
311222	9.876651e-001	-3.094046e-003
313965	9.896592e-001	-4.427257e-003
316708	9.913442e-001	-4.718644e-003
319451	9.896806e-001	-5.334563e-003
322195	9.878962e-001	-6.196980e-003
324938	9.894439e-001	-7.420983e-003
327681	9.882851e-001	-7.382669e-003
330424	9.893574e-001	-9.361072e-003
333167	9.874264e-001	-9.538923e-003
335910	9.874783e-001	-8.987175e-003
338653	9.881215e-001	-1.031734e-002
341397	9.870914e-001	-8.671093e-003
344140	9.892294e-001	-9.800575e-003
346883	9.884945e-001	-7.781258e-003
349626	9.904697e-001	-1.128360e-002
352369	9.890365e-001	-1.088767e-002
355112	9.885925e-001	-1.220788e-002
357855	9.869537e-001	-1.262445e-002
360599	9.874830e-001	-1.267931e-002
363342	9.863347e-001	-1.347993e-002
366085	9.851543e-001	-1.361897e-002
368828	9.843735e-001	-1.268258e-002
371571	9.846332e-001	-1.348375e-002
374314	9.828761e-001	-1.244127e-002
377057	9.818381e-001	-8.982290e-003
379800	9.821547e-001	-1.057178e-002
382544	9.830538e-001	-9.852592e-003
385287	9.820632e-001	-7.645045e-003
388030	9.838290e-001	-6.934831e-003
390773	9.870306e-001	-5.694931e-003
393516	9.879179e-001	-3.911863e-003
396259	9.872707e-001	-5.856476e-003
399002	9.889762e-001	-7.114809e-003
401746	9.880754e-001	-1.001233e-002
404489	9.904886e-001	-7.808899e-003
407232	9.899484e-001	-7.348420e-003
409975	9.913146e-001	-8.319951e-003
412718	9.931881e-001	-8.472750e-003
415461	9.922085e-001	-9.323358e-003
418204	9.917223e-001	-7.800474e-003
420948	9.933032e-001	-1.051648e-002
423691	9.923651e-001	-9.593690e-003
426434	9.949029e-001	-1.164260e-002
429177	9.945464e-001	-1.198476e-002
431920	9.946045e-001	-1.222070e-002
434663	9.952097e-001	-1.383843e-002
437406	9.950720e-001	-1.241016e-002
440150	9.947270e-001	-1.417745e-002
442893	9.952548e-001	-1.296205e-002
445636	9.942520e-001	-1.424392e-002
448379	9.951452e-001	-1.561497e-002
451122	9.961162e-001	-1.663337e-002
453865	9.943308e-001	-1.735116e-002
456608	9.950327e-001	-1.670129e-002
459352	9.949639e-001	-1.676469e-002
462095	9.955723e-001	-1.761565e-002
464838	9.959589e-001	-1.773729e-002
467581	9.954483e-001	-1.795140e-002
470324	9.954339e-001	-1.787138e-002
473067	9.979477e-001	-1.718928e-002
475810	9.971115e-001	-1.843495e-002
478554	9.960908e-001	-1.901011e-002
481297	9.965055e-001	-1.953245e-002
484040	9.961235e-001	-1.980985e-002
486783	9.988087e-001	-1.851822e-002
489526	9.983221e-001	-2.033871e-002
492269	9.972975e-001	-2.079450e-002
495012	9.983346e-001	-2.080667e-002
497756	9.971414e-001	-2.083894e-002
500499	9.987270e-001	-2.274854e-002
503242	9.972170e-001	-2.440127e-002
505985	9.968232e-001	-2.454489e-002
508728	9.980271e-001	-2.420471e-002
511471	9.970166e-001	-2.442560e-002
514214	9.975961e-001	-2.450961e-002
516958	9.954102e-001	-2.691041e-002
519701	9.980255e-001	-2.655684e-002
522444	9.960937e-001	-2.704402e-002
525187	9.962526e-001	-2.969485e-002
527930	9.952596e-001	-2.766012e-002
530673	9.973464e-001	-2.922562e-002
533416	9.955535e-001	-3.048079e-002
536160	9.939697e-001	-2.885891e-002
538903	9.955253e-001	-2.989910e-002
541646	9.949091e-001	-3.094674e-002
544389	9.931496e-001	-3.130485e-002
547132	9.937587e-001	-3.136223e-002
549875	9.943899e-001	-3.025056e-002
552618	9.930902e-001	-3.164726e-002
555362	9.916125e-001	-3.421753e-002
558105	9.901610e-001	-3.191677e-002
560848	9.912030e-001	-3.250880e-002
563591	9.928545e-001	-3.295523e-002
566334	9.908873e-001	-3.600791e-002
569077	9.917233e-001	-3.439443e-002
571820	9.903692e-001	-3.443789e-002
574564	9.905035e-001	-3.418270e-002
577307	9.905916e-001	-3.591823e-002
580050	9.904878e-001	-3.524976e-002
582793	9.881106e-001	-3.441078e-002
585536	9.888650e-001	-3.576075e-002
588279	9.878104e-001	-3.558698e-002
591022	9.874985e-001	-3.714029e-002
593766	9.855928e-001	-3.616678e-002
596509	9.844786e-001	-3.388418e-002
599252	9.850073e-001	-3.497211e-002
601995	9.861815e-001	-3.522770e-002
604738	9.835791e-001	-3.490494e-002
607481	9.808731e-001	-3.511757e-002
610224	9.837978e-001	-3.465507e-002
612968	9.811240e-001	-3.562545e-002
615711	9.823478e-001	-3.499196e-002
618454	9.802239e-001	-3.419937e-002
621197	9.806149e-001	-3.086153e-002
623940	9.826079e-001	-3.151415e-002
626683	9.820946e-001	-3.266891e-002
629426	9.806531e-001	-3.345918e-002
632170	9.806446e-001	-3.195711e-002
634913	9.808455e-001	-3.399923e-002
637656	9.825240e-001	-3.227365e-002
640399	9.790909e-001	-3.101504e-002
643142	9.784866e-001	-3.014493e-002
645885	9.803931e-001	-2.969184e-002
648628	9.796303e-001	-3.034489e-002
651372	9.786204e-001	-2.920574e-002
654115	9.771431e-001	-2.590810e-002
656858	9.779039e-001	-2.538428e-002
659601	9.796597e-001	-2.510004e-002
662344	9.783402e-001	-2.602579e-002
665087	9.807561e-001	-2.374740e-002
667830	9.805657e-001	-2.339201e-002
670574	9.807831e-001	-2.195640e-002
673317	9.817715e-001	-2.257917e-002
676060	9.809471e-001	-2.107471e-002
678803	9.838097e-001	-2.060178e-002
681546	9.855533e-001	-2.085934e-002
684289	9.871134e-001	-2.186866e-002
687032	9.867616e-001	-2.085451e-002
689776	9.889646e-001	-2.088246e-002
692519	9.901970e-001	-2.246687e-002
695262	9.900318e-001	-2.246870e-002
698005	9.895926e-001	-2.306161e-002
700748	9.905117e-001	-2.359623e-002
703491	9.927826e-001	-2.311590e-002
706234	9.930464e-001	-2.564737e-002
708978	9.929884e-001	-2.418180e-002
711721	9.933157e-001	-2.420041e-002
714464	9.940224e-001	-2.542751e-002
717207	9.945262e-001	-2.588359e-002
719950	9.945840e-001	-2.755869e-002
722693	9.958075e-001	-2.779332e-002
725436	9.957610e-001	-2.575810e-002
728180	9.942946e-001	-2.764090e-002
730923	9.958801e-001	-2.904554e-002
733666	9.956224e-001	-2.923147e-002
736409	9.965188e-001	-2.931909e-002
739152	9.937724e-001	-3.016458e-002
741895	9.957992e-001	-3.223229e-002
744638	9.951811e-001	-2.875766e-002
747382	9.955961e-001	-3.143861e-002
750125	9.952836e-001	-3.148291e-002
752868	9.958434e-001	-3.201085e-002
755611	9.952463e-001	-3.160701e-002
758354	9.961113e-001	-3.334859e-002
761097	9.956711e-001	-3.360420e-002
763840	9.961402e-001	-3.398969e-002
766584	9.939628e-001	-3.565593e-002
769327	9.968052e-001	-3.601094e-002
772070	9.962275e-001	-3.629728e-002
774813	9.974551e-001	-3.542953e-002
777556	9.975121e-001	-3.798419e-002
780299	9.963558e-001	-3.805956e-002
783042	9.960154e-001	-3.570139e-002
785786	9.955183e-001	-3.683587e-002
788529	9.980025e-001	-3.736763e-002
791272	9.978963e-001	-3.761459e-002
794015	9.967839e-001	-3.884970e-002
796758	9.961111e-001	-3.818513e-002
799501	9.969550e-001	-3.991937e-002
802244	9.962149e-001	-4.024756e-002
804988	9.952296e-001	-4.019074e-002
807731	9.951251e-001	-3.933986e-002
810474	9.950106e-001	-4.030943e-002
813217	9.966622e-001	-4.135119e-002
815960	9.954226e-001	-3.998687e-002
818703	9.951165e-001	-4.097863e-002
821446	9.947806e-001	-4.277810e-002
824190	9.952544e-001	-4.102959e-002
826933	9.942382e-001	-4.175408e-002
829676	9.934444e-001	-4.275942e-002
832419	9.946377e-001	-4.236400e-002
835162	9.928034e-001	-4.329603e-002
837905	9.949861e-001	-4.256399e-002
840648	9.933361e-001	-4.311436e-002
843392	9.935666e-001	-4.271262e-002
846135	9.924414e-001	-4.465553e-002
848878	9.935145e-001	-4.362072e-002
851621	9.929721e-001	-4.285947e-002
854364	9.931729e-001	-4.332965e-002
857107	9.914454e-001	-4.305941e-002
859850	9.938444e-001	-4.370879e-002
862594	9.938708e-001	-4.428817e-002
865337	9.918340e-001	-4.467475e-002
868080	9.917643e-001	-4.393073e-002
870823	9.938678e-001	-4.318253e-002
873566	9.930606e-001	-4.386526e-002
876309	9.945602e-001	-4.376994e-002
879052	9.927294e-001	-4.437585e-002
881796	9.932872e-001	-4.383144e-002
884539	9.918810e-001	-4.469017e-002
887282	9.924981e-001	-4.198903e-002
890025	9.923814e-001	-4.482330e-002
892768	9.936453e-001	-4.313926e-002
895511	9.921675e-001	-4.373316e-002
898254	9.924736e-001	-4.396189e-002
900998	9.918190e-001	-4.447270e-002
903741	9.927526e-001	-4.380362e-002
906484	9.931030e-001	-4.487899e-002
909227	9.928673e-001	-4.306188e-002
911970	9.935130e-001	-4.363120e-002
914713	9.949663e-001	-4.469934e-002
917456	9.940088e-001	-4.457930e-002
920200	9.940659e-001	-4.403522e-002
922943	9.946999e-001	-4.268894e-002
925686	9.935046e-001	-4.676484e-002
928429	9.955404e-001	-4.499871e-002
931172	9.941868e-001	-4.555660e-002
933915	9.950395e-001	-4.471107e-002
936658	9.966279e-001	-4.687829e-002
939401	9.968156e-001	-4.548928e-002
942145	9.969537e-001	-4.593003e-002
944888	9.961521e-001	-4.794459e-002
947631	9.959084e-001	-4.737485e-002
950374	9.964582e-001	-4.642758e-002
953117	9.968323e-001	-4.947640e-002
955860	9.949382e-001	-4.712538e-002
958603	9.950049e-001	-4.885065e-002
961347	9.971511e-001	-4.762191e-002
964090	9.961783e-001	-4.751649e-002
966833	9.955633e-001	-4.894879e-002
969576	9.966190e-001	-4.916215e-002
972319	9.971310e-001	-4.920838e-002
975062	9.966654e-001	-4.943291e-002
977805	9.958150e-001	-4.962313e-002
980549	9.958881e-001	-5.072338e-002
983292	9.965185e-001	-5.039109e-002
986035	9.962063e-001	-4.945094e-002
988778	9.957073e-001	-5.270719e-002
991521	9.957024e-001	-5.034337e-002
994264	9.962219e-001	-5.174592e-002
997007	9.966620e-001	-5.282367e-002
999751	9.965737e-001	-5.134087e-002
1002494	9.963038e-001	-5.358051e-002
1005237	9.950124e-001	-5.294096e-002
1007980	9.983154e-001	-5.370989e-002
1010723	9.964054e-001	-5.282114e-002
1013466	9.968084e-001	-5.309303e-002
1016209	9.967747e-001	-5.541896e-002
1018953	9.960675e-001	-5.495676e-002
1021696	9.957718e-001	-5.297781e-002
1024439	9.953215e-001	-5.437819e-002
1027182	9.970249e-001	-5.548832e-002
1029925	9.960688e-001	-5.422977e-002
1032668	9.951783e-001	-5.437721e-002
1035411	9.947743e-001	-5.539783e-002
1038155	9.974168e-001	-5.535643e-002
1040898	9.969790e-001	-5.692363e-002
1043641	9.945387e-001	-5.483174e-002
1046384	9.957038e-001	-5.762686e-002
1049127	9.955932e-001	-5.624970e-002
1051870	9.950505e-001	-5.740677e-002
1054613	9.969241e-001	-5.618951e-002
1057357	9.969737e-001	-5.909525e-002
1060100	9.956510e-001	-5.979290e-002
1062843	9.943589e-001	-5.760197e-002
1065586	9.938334e-001	-5.729522e-002
1068329	9.950572e-001	-5.725446e-002
1071072	9.946584e-001	-5.788114e-002
1073815	9.941544e-001	-5.891946e-002
1076559	9.941609e-001	-5.904671e-002
1079302	9.959874e-001	-5.748625e-002
1082045	9.946288e-001	-6.000561e-002
1084788	9.930285e-001	-5.775922e-002
1087531	9.956026e-001	-5.943175e-002
1090274	9.937970e-001	-5.829393e-002
1093017	9.945929e-001	-5.987849e-002
1095761	9.953063e-001	-6.049367e-002
1098504	9.954686e-001	-6.050984e-002
1101247	9.955999e-001	-5.887672e-002
1103990	9.955754e-001	-5.956167e-002
1106733	9.970684e-001	-5.977460e-002
1109476	9.971730e-001	-5.791297e-002
1112219	9.951881e-001	-5.975739e-002
1114963	9.960655e-001	-6.006995e-002
1117706	9.973998e-001	-6.109090e-002
1120449	9.950767e-001	-5.977332e-002
1123192	9.962493e-001	-6.208611e-002
1125935	9.949620e-001	-6.119320e-002
1128678	9.970977e-001	-6.201785e-002
1131421	9.971336e-001	-6.365095e-002
1134165	9.959830e-001	-6.246093e-002
1136908	9.971677e-001	-6.335420e-002
1139651	9.955429e-001	-6.216410e-002
1142394	9.967549e-001	-6.314723e-002
1145137	9.965165e-001	-6.318315e-002
1147880	9.969782e-001	-6.338993e-002
1150623	9.961084e-001	-6.400789e-002
1153367	9.943379e-001	-6.447984e-002
1156110	9.953363e-001	-6.443725e-002
1158853	9.949924e-001	-6.295190e-002
1161596	9.961197e-001	-6.470633e-002
1164339	9.962608e-001	-6.496708e-002
1167082	9.952621e-001	-6.524500e-002
1169825	9.956383e-001	-6.634046e-002
1172569	9.960298e-001	-6.704265e-002
1175312	9.957451e-001	-6.665197e-002
1178055	9.939647e-001	-6.536639e-002
1180798	9.951565e-001	-6.704982e-002
1183541	9.958899e-001	-6.570148e-002
1186284	9.954318e-001	-6.704123e-002
1189027	9.957847e-001	-6.743472e-002
1191771	9.937754e-001	-6.740463e-002
1194514	9.931081e-001	-6.877943e-002
1197257	9.921805e-001	-6.639442e-002
1200000	9.952812e-001	-6.776417e-002
