!Agilent Technologies,E5071C,MY46100265,A.07.02
!Date: Wed Mar 04 14:53:12 2020
!Data & Calibration Information:
!Freq	S11:SOLT1(ON)
# Hz S MA R 50
100000	9.882692e-001	-1.176535e+000
102743	9.868754e-001	-1.071054e+000
105486	9.883248e-001	-1.221004e+000
108229	9.888097e-001	-1.230211e+000
110973	9.865389e-001	-1.225810e+000
113716	9.895930e-001	-1.336115e+000
116459	9.875902e-001	-1.418516e+000
119202	9.864081e-001	-1.380817e+000
121945	9.863062e-001	-1.397218e+000
124688	9.851702e-001	-1.486959e+000
127431	9.861777e-001	-1.463528e+000
130175	9.849097e-001	-1.580942e+000
132918	9.842446e-001	-1.499856e+000
135661	9.856812e-001	-1.808370e+000
138404	9.848043e-001	-1.704447e+000
141147	9.844152e-001	-1.656200e+000
143890	9.809396e-001	-1.825732e+000
146633	9.817476e-001	-1.773043e+000
149377	9.806518e-001	-1.793353e+000
152120	9.796837e-001	-1.899337e+000
154863	9.805443e-001	-2.077246e+000
157606	9.771062e-001	-2.088137e+000
160349	9.742144e-001	-2.232326e+000
163092	9.742371e-001	-2.249518e+000
165835	9.703443e-001	-2.411326e+000
168579	9.649699e-001	-2.459144e+000
171322	9.598808e-001	-2.556152e+000
174065	9.516757e-001	-2.432153e+000
176808	9.423080e-001	-1.804683e+000
179551	9.393776e-001	-9.396561e-001
182294	9.487032e-001	-5.248182e-003
185037	9.660082e-001	1.423934e-001
187781	9.750472e-001	-1.800027e-001
190524	9.766097e-001	-4.357101e-001
193267	9.800078e-001	-5.207389e-001
196010	9.820030e-001	-7.815629e-001
198753	9.801699e-001	-9.606052e-001
201496	9.811215e-001	-1.015895e+000
204239	9.800058e-001	-1.115158e+000
206983	9.804978e-001	-1.169268e+000
209726	9.804582e-001	-1.309268e+000
212469	9.788684e-001	-1.322564e+000
215212	9.805609e-001	-1.410186e+000
217955	9.754842e-001	-1.502045e+000
220698	9.739465e-001	-1.523432e+000
223441	9.742782e-001	-1.317227e+000
226185	9.744988e-001	-1.095320e+000
228928	9.772107e-001	-1.220584e+000
231671	9.782837e-001	-1.230354e+000
234414	9.812735e-001	-1.297446e+000
237157	9.811364e-001	-1.360338e+000
239900	9.812266e-001	-1.414297e+000
242643	9.807975e-001	-1.533351e+000
245387	9.811665e-001	-1.573433e+000
248130	9.781624e-001	-1.664769e+000
250873	9.776757e-001	-1.627515e+000
253616	9.769987e-001	-1.649826e+000
256359	9.765472e-001	-1.578233e+000
259102	9.782917e-001	-1.370168e+000
261845	9.781856e-001	-1.467629e+000
264589	9.801775e-001	-1.571128e+000
267332	9.806638e-001	-1.581053e+000
270075	9.811587e-001	-1.616938e+000
272818	9.806977e-001	-1.747956e+000
275561	9.810896e-001	-1.787255e+000
278304	9.814377e-001	-1.741822e+000
281047	9.815507e-001	-1.835249e+000
283791	9.792056e-001	-1.856539e+000
286534	9.798569e-001	-1.937154e+000
289277	9.786827e-001	-1.873109e+000
292020	9.787529e-001	-2.001146e+000
294763	9.783845e-001	-2.027869e+000
297506	9.791159e-001	-1.987126e+000
300249	9.769189e-001	-2.043705e+000
302993	9.770018e-001	-2.065687e+000
305736	9.772289e-001	-2.033823e+000
308479	9.757421e-001	-2.039178e+000
311222	9.742821e-001	-2.055927e+000
313965	9.783328e-001	-1.997750e+000
316708	9.762395e-001	-1.981587e+000
319451	9.753473e-001	-1.974314e+000
322195	9.753346e-001	-2.022860e+000
324938	9.767746e-001	-2.069881e+000
327681	9.764595e-001	-2.016635e+000
330424	9.760510e-001	-2.217387e+000
333167	9.755166e-001	-2.254977e+000
335910	9.746447e-001	-2.202515e+000
338653	9.751028e-001	-2.267003e+000
341397	9.747630e-001	-2.097721e+000
344140	9.751368e-001	-2.043605e+000
346883	9.762775e-001	-2.111656e+000
349626	9.757904e-001	-2.228736e+000
352369	9.768757e-001	-2.228877e+000
355112	9.783935e-001	-2.192475e+000
357855	9.778576e-001	-2.273118e+000
360599	9.782694e-001	-2.379499e+000
363342	9.758621e-001	-2.397012e+000
366085	9.756323e-001	-2.382694e+000
368828	9.747726e-001	-2.421356e+000
371571	9.753750e-001	-2.373035e+000
374314	9.746182e-001	-2.359852e+000
377057	9.744128e-001	-2.353089e+000
379800	9.731219e-001	-2.396663e+000
382544	9.756117e-001	-2.463201e+000
385287	9.733725e-001	-2.405089e+000
388030	9.734746e-001	-2.337187e+000
390773	9.744626e-001	-2.389731e+000
393516	9.760171e-001	-2.331950e+000
396259	9.738133e-001	-2.499181e+000
399002	9.736683e-001	-2.417769e+000
401746	9.737979e-001	-2.558390e+000
404489	9.759984e-001	-2.449016e+000
407232	9.755758e-001	-2.418012e+000
409975	9.728471e-001	-2.470094e+000
412718	9.751723e-001	-2.433073e+000
415461	9.747960e-001	-2.508693e+000
418204	9.740905e-001	-2.469939e+000
420948	9.739103e-001	-2.493294e+000
423691	9.732568e-001	-2.510182e+000
426434	9.758179e-001	-2.566833e+000
429177	9.739258e-001	-2.458562e+000
431920	9.744910e-001	-2.581419e+000
434663	9.752476e-001	-2.473927e+000
437406	9.750800e-001	-2.533406e+000
440150	9.737868e-001	-2.741069e+000
442893	9.760347e-001	-2.647643e+000
445636	9.740069e-001	-2.620164e+000
448379	9.744802e-001	-2.701704e+000
451122	9.742325e-001	-2.791451e+000
453865	9.724533e-001	-2.789727e+000
456608	9.721735e-001	-2.768991e+000
459352	9.713948e-001	-2.659141e+000
462095	9.728264e-001	-2.687272e+000
464838	9.748512e-001	-2.767448e+000
467581	9.727905e-001	-2.728577e+000
470324	9.725983e-001	-2.722198e+000
473067	9.726117e-001	-2.697259e+000
475810	9.745780e-001	-2.740593e+000
478554	9.736664e-001	-2.764815e+000
481297	9.722324e-001	-2.704135e+000
484040	9.716205e-001	-2.721811e+000
486783	9.724205e-001	-2.612660e+000
489526	9.737781e-001	-2.679115e+000
492269	9.722278e-001	-2.600876e+000
495012	9.739028e-001	-2.685133e+000
497756	9.734423e-001	-2.660370e+000
500499	9.748156e-001	-2.615925e+000
503242	9.750403e-001	-2.690841e+000
505985	9.769392e-001	-2.673804e+000
508728	9.770433e-001	-2.756201e+000
511471	9.775529e-001	-2.802897e+000
514214	9.772789e-001	-2.769116e+000
516958	9.763078e-001	-2.980994e+000
519701	9.773874e-001	-2.853584e+000
522444	9.764913e-001	-2.989500e+000
525187	9.794809e-001	-2.993365e+000
527930	9.783013e-001	-2.955685e+000
530673	9.794436e-001	-3.101401e+000
533416	9.769705e-001	-3.074549e+000
536160	9.771632e-001	-3.032505e+000
538903	9.778784e-001	-3.098700e+000
541646	9.776313e-001	-3.171926e+000
544389	9.770811e-001	-3.142390e+000
547132	9.769918e-001	-3.189016e+000
549875	9.771368e-001	-3.132727e+000
552618	9.765325e-001	-3.167737e+000
555362	9.767643e-001	-3.282688e+000
558105	9.774981e-001	-3.304951e+000
560848	9.769115e-001	-3.235141e+000
563591	9.767768e-001	-3.381548e+000
566334	9.768906e-001	-3.429206e+000
569077	9.763835e-001	-3.436981e+000
571820	9.766035e-001	-3.373035e+000
574564	9.758055e-001	-3.460093e+000
577307	9.768757e-001	-3.481002e+000
580050	9.768316e-001	-3.459274e+000
582793	9.768268e-001	-3.435529e+000
585536	9.766235e-001	-3.581152e+000
588279	9.745003e-001	-3.556128e+000
591022	9.742481e-001	-3.646610e+000
593766	9.760854e-001	-3.614122e+000
596509	9.758357e-001	-3.591349e+000
599252	9.741746e-001	-3.621008e+000
601995	9.749801e-001	-3.706927e+000
604738	9.747481e-001	-3.688533e+000
607481	9.744490e-001	-3.657409e+000
610224	9.740144e-001	-3.692477e+000
612968	9.730397e-001	-3.828851e+000
615711	9.744112e-001	-3.819617e+000
618454	9.721525e-001	-3.758842e+000
621197	9.727644e-001	-3.736593e+000
623940	9.742286e-001	-3.766704e+000
626683	9.732149e-001	-3.686785e+000
629426	9.737985e-001	-3.725736e+000
632170	9.734873e-001	-3.917632e+000
634913	9.730311e-001	-3.908236e+000
637656	9.737746e-001	-3.935127e+000
640399	9.733104e-001	-3.883957e+000
643142	9.737830e-001	-3.833618e+000
645885	9.734093e-001	-3.900445e+000
648628	9.733984e-001	-3.920080e+000
651372	9.737242e-001	-3.929161e+000
654115	9.727525e-001	-3.968132e+000
656858	9.736532e-001	-4.070148e+000
659601	9.723685e-001	-4.112726e+000
662344	9.715628e-001	-4.147920e+000
665087	9.726482e-001	-4.104528e+000
667830	9.703950e-001	-4.204744e+000
670574	9.700625e-001	-4.155638e+000
673317	9.708865e-001	-4.207940e+000
676060	9.691859e-001	-4.169192e+000
678803	9.688995e-001	-4.262495e+000
681546	9.686577e-001	-4.235097e+000
684289	9.689243e-001	-4.202998e+000
687032	9.689224e-001	-4.243351e+000
689776	9.688026e-001	-4.257294e+000
692519	9.698558e-001	-4.198834e+000
695262	9.676618e-001	-4.288193e+000
698005	9.671674e-001	-4.237855e+000
700748	9.669949e-001	-4.261806e+000
703491	9.680794e-001	-4.408174e+000
706234	9.667274e-001	-4.305997e+000
708978	9.658188e-001	-4.366955e+000
711721	9.676496e-001	-4.294747e+000
714464	9.663394e-001	-4.387283e+000
717207	9.662400e-001	-4.467485e+000
719950	9.643146e-001	-4.355602e+000
722693	9.653182e-001	-4.413348e+000
725436	9.649030e-001	-4.386325e+000
728180	9.649938e-001	-4.423541e+000
730923	9.648742e-001	-4.446896e+000
733666	9.652866e-001	-4.470321e+000
736409	9.624207e-001	-4.409937e+000
739152	9.631945e-001	-4.347249e+000
741895	9.631909e-001	-4.503331e+000
744638	9.640574e-001	-4.329321e+000
747382	9.614885e-001	-4.415453e+000
750125	9.606420e-001	-4.466049e+000
752868	9.599227e-001	-4.351654e+000
755611	9.593786e-001	-4.401176e+000
758354	9.592133e-001	-4.372763e+000
761097	9.593098e-001	-4.416817e+000
763840	9.582230e-001	-4.278344e+000
766584	9.592324e-001	-4.437989e+000
769327	9.580792e-001	-4.321795e+000
772070	9.583035e-001	-4.362375e+000
774813	9.587153e-001	-4.305628e+000
777556	9.591262e-001	-4.241392e+000
780299	9.580822e-001	-4.337296e+000
783042	9.600286e-001	-4.225943e+000
785786	9.584542e-001	-4.200636e+000
788529	9.595244e-001	-4.197822e+000
791272	9.594082e-001	-4.185363e+000
794015	9.595800e-001	-4.154782e+000
796758	9.584333e-001	-4.062549e+000
799501	9.595089e-001	-4.129375e+000
802244	9.602026e-001	-4.162818e+000
804988	9.603101e-001	-4.146797e+000
807731	9.614691e-001	-4.073782e+000
810474	9.614684e-001	-4.100236e+000
813217	9.624214e-001	-4.130808e+000
815960	9.617502e-001	-4.097430e+000
818703	9.625648e-001	-4.151713e+000
821446	9.636648e-001	-4.161371e+000
824190	9.631467e-001	-4.129010e+000
826933	9.641903e-001	-4.194861e+000
829676	9.630394e-001	-4.306896e+000
832419	9.628162e-001	-4.248955e+000
835162	9.621171e-001	-4.292253e+000
837905	9.643275e-001	-4.178589e+000
840648	9.638111e-001	-4.258040e+000
843392	9.644885e-001	-4.215273e+000
846135	9.624915e-001	-4.284232e+000
848878	9.656439e-001	-4.280911e+000
851621	9.633807e-001	-4.161792e+000
854364	9.648140e-001	-4.272289e+000
857107	9.634495e-001	-4.265287e+000
859850	9.637847e-001	-4.318949e+000
862594	9.643699e-001	-4.305248e+000
865337	9.627532e-001	-4.282570e+000
868080	9.639244e-001	-4.347084e+000
870823	9.647329e-001	-4.226067e+000
873566	9.647510e-001	-4.235612e+000
876309	9.661232e-001	-4.239149e+000
879052	9.643376e-001	-4.278941e+000
881796	9.669486e-001	-4.226409e+000
884539	9.677159e-001	-4.231265e+000
887282	9.690154e-001	-4.215269e+000
890025	9.682047e-001	-4.353640e+000
892768	9.694004e-001	-4.406685e+000
895511	9.694026e-001	-4.319671e+000
898254	9.699800e-001	-4.469960e+000
900998	9.706105e-001	-4.456368e+000
903741	9.701329e-001	-4.466613e+000
906484	9.692588e-001	-4.523108e+000
909227	9.689714e-001	-4.509111e+000
911970	9.712204e-001	-4.554051e+000
914713	9.702466e-001	-4.599281e+000
917456	9.701175e-001	-4.689645e+000
920200	9.709571e-001	-4.682275e+000
922943	9.702027e-001	-4.637762e+000
925686	9.706473e-001	-4.819112e+000
928429	9.730941e-001	-4.723788e+000
931172	9.682631e-001	-4.800602e+000
933915	9.699540e-001	-4.816098e+000
936658	9.701301e-001	-4.918877e+000
939401	9.715840e-001	-4.886748e+000
942145	9.698026e-001	-4.954303e+000
944888	9.700131e-001	-4.965212e+000
947631	9.695537e-001	-4.988947e+000
950374	9.707883e-001	-5.036438e+000
953117	9.706755e-001	-5.162034e+000
955860	9.693296e-001	-5.082083e+000
958603	9.677981e-001	-5.069337e+000
961347	9.698390e-001	-5.100249e+000
964090	9.701204e-001	-5.126924e+000
966833	9.686692e-001	-5.062896e+000
969576	9.683682e-001	-5.177078e+000
972319	9.675201e-001	-5.250535e+000
975062	9.688086e-001	-5.160567e+000
977805	9.674574e-001	-5.273363e+000
980549	9.685906e-001	-5.288948e+000
983292	9.670067e-001	-5.203692e+000
986035	9.671428e-001	-5.263378e+000
988778	9.672172e-001	-5.389215e+000
991521	9.671171e-001	-5.307590e+000
994264	9.654411e-001	-5.320760e+000
997007	9.664607e-001	-5.439539e+000
999751	9.643831e-001	-5.350474e+000
1002494	9.644934e-001	-5.434874e+000
1005237	9.635532e-001	-5.384492e+000
1007980	9.659645e-001	-5.430813e+000
1010723	9.657316e-001	-5.405316e+000
1013466	9.630532e-001	-5.390036e+000
1016209	9.654734e-001	-5.448468e+000
1018953	9.641914e-001	-5.374857e+000
1021696	9.631792e-001	-5.272305e+000
1024439	9.616768e-001	-5.348413e+000
1027182	9.632867e-001	-5.301615e+000
1029925	9.629278e-001	-5.288350e+000
1032668	9.597347e-001	-5.325082e+000
1035411	9.632207e-001	-5.255353e+000
1038155	9.639755e-001	-5.304528e+000
1040898	9.640896e-001	-5.246488e+000
1043641	9.629629e-001	-5.203324e+000
1046384	9.635829e-001	-5.238413e+000
1049127	9.636308e-001	-5.258858e+000
1051870	9.641462e-001	-5.300771e+000
1054613	9.662104e-001	-5.232532e+000
1057357	9.654340e-001	-5.348660e+000
1060100	9.667282e-001	-5.336354e+000
1062843	9.654153e-001	-5.189754e+000
1065586	9.653003e-001	-5.328808e+000
1068329	9.668718e-001	-5.380891e+000
1071072	9.663547e-001	-5.289385e+000
1073815	9.664196e-001	-5.361922e+000
1076559	9.663617e-001	-5.460513e+000
1079302	9.673882e-001	-5.480018e+000
1082045	9.677534e-001	-5.462234e+000
1084788	9.662195e-001	-5.406344e+000
1087531	9.679608e-001	-5.435593e+000
1090274	9.676957e-001	-5.503897e+000
1093017	9.675215e-001	-5.528073e+000
1095761	9.670881e-001	-5.489809e+000
1098504	9.690600e-001	-5.511983e+000
1101247	9.683799e-001	-5.559990e+000
1103990	9.684526e-001	-5.653706e+000
1106733	9.700216e-001	-5.573843e+000
1109476	9.700310e-001	-5.532930e+000
1112219	9.681163e-001	-5.713260e+000
1114963	9.675134e-001	-5.659569e+000
1117706	9.693111e-001	-5.745009e+000
1120449	9.664011e-001	-5.737522e+000
1123192	9.676209e-001	-5.803069e+000
1125935	9.681085e-001	-5.763289e+000
1128678	9.696219e-001	-5.762921e+000
1131421	9.689440e-001	-5.837627e+000
1134165	9.678009e-001	-5.816697e+000
1136908	9.688377e-001	-5.847206e+000
1139651	9.672247e-001	-5.757596e+000
1142394	9.673324e-001	-5.906839e+000
1145137	9.665702e-001	-5.839027e+000
1147880	9.689304e-001	-5.902541e+000
1150623	9.681337e-001	-5.831109e+000
1153367	9.673433e-001	-5.912628e+000
1156110	9.664826e-001	-5.885326e+000
1158853	9.680847e-001	-5.875856e+000
1161596	9.683309e-001	-5.933958e+000
1164339	9.680605e-001	-5.964714e+000
1167082	9.668234e-001	-6.016152e+000
1169825	9.686932e-001	-5.971757e+000
1172569	9.661817e-001	-6.157108e+000
1175312	9.677669e-001	-6.053937e+000
1178055	9.675536e-001	-6.056202e+000
1180798	9.682817e-001	-6.168941e+000
1183541	9.676731e-001	-6.097590e+000
1186284	9.677448e-001	-6.109549e+000
1189027	9.676501e-001	-6.180465e+000
1191771	9.674682e-001	-6.154515e+000
1194514	9.671613e-001	-6.265496e+000
1197257	9.656339e-001	-6.190576e+000
1200000	9.667917e-001	-6.263753e+000
