!Agilent Technologies,E5071C,MY46100265,A.07.02
!Date: Wed Mar 04 14:52:47 2020
!Data & Calibration Information:
!Freq	S11:SOLT1(ON)
# Hz S MA R 50
100000	9.878798e-001	-1.043383e+000
102743	9.863308e-001	-1.110103e+000
105486	9.871911e-001	-1.155312e+000
108229	9.872388e-001	-1.139384e+000
110973	9.838801e-001	-1.223598e+000
113716	9.864266e-001	-1.316141e+000
116459	9.875300e-001	-1.314948e+000
119202	9.860626e-001	-1.399373e+000
121945	9.854330e-001	-1.422114e+000
124688	9.836655e-001	-1.537278e+000
127431	9.842764e-001	-1.513729e+000
130175	9.841969e-001	-1.546063e+000
132918	9.831168e-001	-1.543489e+000
135661	9.834213e-001	-1.770791e+000
138404	9.840210e-001	-1.698343e+000
141147	9.844535e-001	-1.744498e+000
143890	9.801753e-001	-1.773348e+000
146633	9.818499e-001	-1.735658e+000
149377	9.799363e-001	-1.902950e+000
152120	9.796434e-001	-1.839009e+000
154863	9.797403e-001	-2.043915e+000
157606	9.789356e-001	-2.016181e+000
160349	9.747324e-001	-2.239722e+000
163092	9.744697e-001	-2.271350e+000
165835	9.715152e-001	-2.322285e+000
168579	9.677615e-001	-2.460655e+000
171322	9.623779e-001	-2.603281e+000
174065	9.556451e-001	-2.582239e+000
176808	9.461625e-001	-2.369174e+000
179551	9.368057e-001	-1.575800e+000
182294	9.372994e-001	-4.767641e-001
185037	9.531925e-001	4.310389e-001
187781	9.690927e-001	2.337382e-001
190524	9.752563e-001	-1.827366e-001
193267	9.791130e-001	-4.201565e-001
196010	9.803711e-001	-6.373106e-001
198753	9.784678e-001	-9.011779e-001
201496	9.803787e-001	-1.031213e+000
204239	9.795660e-001	-1.067547e+000
206983	9.806169e-001	-1.095001e+000
209726	9.804166e-001	-1.307154e+000
212469	9.791439e-001	-1.311703e+000
215212	9.794353e-001	-1.414639e+000
217955	9.765959e-001	-1.464347e+000
220698	9.747727e-001	-1.507773e+000
223441	9.766407e-001	-1.308967e+000
226185	9.759338e-001	-1.206716e+000
228928	9.772722e-001	-1.267471e+000
231671	9.774163e-001	-1.326571e+000
234414	9.794012e-001	-1.264701e+000
237157	9.804473e-001	-1.404266e+000
239900	9.799194e-001	-1.384718e+000
242643	9.791348e-001	-1.508204e+000
245387	9.801746e-001	-1.554447e+000
248130	9.768102e-001	-1.651603e+000
250873	9.770993e-001	-1.661058e+000
253616	9.778884e-001	-1.756049e+000
256359	9.747243e-001	-1.566121e+000
259102	9.775878e-001	-1.519318e+000
261845	9.765379e-001	-1.441091e+000
264589	9.777821e-001	-1.699362e+000
267332	9.794340e-001	-1.533140e+000
270075	9.818387e-001	-1.633944e+000
272818	9.792503e-001	-1.702808e+000
275561	9.795709e-001	-1.859113e+000
278304	9.802172e-001	-1.771278e+000
281047	9.812640e-001	-1.854526e+000
283791	9.797795e-001	-1.863311e+000
286534	9.788935e-001	-1.935650e+000
289277	9.788096e-001	-1.973491e+000
292020	9.790294e-001	-2.050941e+000
294763	9.771402e-001	-1.984406e+000
297506	9.767645e-001	-2.038852e+000
300249	9.750673e-001	-2.049242e+000
302993	9.762191e-001	-2.195018e+000
305736	9.752531e-001	-2.128585e+000
308479	9.752094e-001	-2.038558e+000
311222	9.733053e-001	-2.118707e+000
313965	9.761898e-001	-1.950990e+000
316708	9.751048e-001	-2.001866e+000
319451	9.756277e-001	-1.985198e+000
322195	9.737856e-001	-2.070406e+000
324938	9.743607e-001	-2.152875e+000
327681	9.746540e-001	-1.986609e+000
330424	9.743530e-001	-2.142203e+000
333167	9.755121e-001	-2.202938e+000
335910	9.738331e-001	-2.193133e+000
338653	9.733872e-001	-2.022001e+000
341397	9.731079e-001	-1.984546e+000
344140	9.749201e-001	-2.121316e+000
346883	9.757263e-001	-2.159985e+000
349626	9.769587e-001	-2.129792e+000
352369	9.764850e-001	-2.185458e+000
355112	9.760173e-001	-2.267419e+000
357855	9.767011e-001	-2.279574e+000
360599	9.765916e-001	-2.363905e+000
363342	9.747988e-001	-2.492765e+000
366085	9.752574e-001	-2.349570e+000
368828	9.745507e-001	-2.385687e+000
371571	9.754117e-001	-2.480796e+000
374314	9.738021e-001	-2.384239e+000
377057	9.723721e-001	-2.293164e+000
379800	9.717488e-001	-2.480087e+000
382544	9.728027e-001	-2.462538e+000
385287	9.710325e-001	-2.413703e+000
388030	9.733327e-001	-2.336140e+000
390773	9.735068e-001	-2.395179e+000
393516	9.739539e-001	-2.431853e+000
396259	9.728559e-001	-2.412586e+000
399002	9.742445e-001	-2.486296e+000
401746	9.729718e-001	-2.541097e+000
404489	9.716555e-001	-2.439235e+000
407232	9.724934e-001	-2.458382e+000
409975	9.711101e-001	-2.409669e+000
412718	9.728900e-001	-2.424609e+000
415461	9.735287e-001	-2.452632e+000
418204	9.711427e-001	-2.403978e+000
420948	9.720143e-001	-2.403489e+000
423691	9.709948e-001	-2.458202e+000
426434	9.739605e-001	-2.511239e+000
429177	9.732225e-001	-2.551230e+000
431920	9.724174e-001	-2.506270e+000
434663	9.726506e-001	-2.545531e+000
437406	9.746026e-001	-2.430823e+000
440150	9.735903e-001	-2.667201e+000
442893	9.749500e-001	-2.550327e+000
445636	9.719232e-001	-2.602512e+000
448379	9.739498e-001	-2.681981e+000
451122	9.730911e-001	-2.777340e+000
453865	9.720002e-001	-2.773388e+000
456608	9.717348e-001	-2.669905e+000
459352	9.701396e-001	-2.647506e+000
462095	9.721657e-001	-2.751895e+000
464838	9.728260e-001	-2.707962e+000
467581	9.709984e-001	-2.687821e+000
470324	9.727108e-001	-2.735942e+000
473067	9.719167e-001	-2.650382e+000
475810	9.727193e-001	-2.729141e+000
478554	9.720868e-001	-2.653024e+000
481297	9.714126e-001	-2.669953e+000
484040	9.716045e-001	-2.753635e+000
486783	9.720338e-001	-2.673144e+000
489526	9.726306e-001	-2.629238e+000
492269	9.718302e-001	-2.641115e+000
495012	9.724145e-001	-2.641831e+000
497756	9.727434e-001	-2.576304e+000
500499	9.740980e-001	-2.613583e+000
503242	9.750701e-001	-2.655886e+000
505985	9.757268e-001	-2.705762e+000
508728	9.754655e-001	-2.699923e+000
511471	9.759830e-001	-2.704142e+000
514214	9.775153e-001	-2.764352e+000
516958	9.756229e-001	-2.921438e+000
519701	9.771726e-001	-2.901750e+000
522444	9.771646e-001	-2.878956e+000
525187	9.774742e-001	-3.006408e+000
527930	9.762583e-001	-2.983874e+000
530673	9.776185e-001	-3.033602e+000
533416	9.775945e-001	-3.037348e+000
536160	9.757389e-001	-3.022700e+000
538903	9.776785e-001	-3.097176e+000
541646	9.764296e-001	-3.116999e+000
544389	9.773863e-001	-3.083405e+000
547132	9.755585e-001	-3.223100e+000
549875	9.779328e-001	-3.167540e+000
552618	9.764651e-001	-3.237855e+000
555362	9.755524e-001	-3.294117e+000
558105	9.750832e-001	-3.292927e+000
560848	9.757302e-001	-3.279226e+000
563591	9.766602e-001	-3.338473e+000
566334	9.760073e-001	-3.448121e+000
569077	9.766353e-001	-3.399543e+000
571820	9.766836e-001	-3.394143e+000
574564	9.769624e-001	-3.537043e+000
577307	9.760742e-001	-3.429142e+000
580050	9.766912e-001	-3.518294e+000
582793	9.766803e-001	-3.528941e+000
585536	9.747389e-001	-3.610635e+000
588279	9.733720e-001	-3.584666e+000
591022	9.742867e-001	-3.633296e+000
593766	9.733815e-001	-3.579866e+000
596509	9.746683e-001	-3.655872e+000
599252	9.736439e-001	-3.645728e+000
601995	9.732767e-001	-3.678340e+000
604738	9.738545e-001	-3.623262e+000
607481	9.716527e-001	-3.727823e+000
610224	9.735034e-001	-3.765176e+000
612968	9.726330e-001	-3.752539e+000
615711	9.720758e-001	-3.778010e+000
618454	9.734487e-001	-3.772060e+000
621197	9.722471e-001	-3.734900e+000
623940	9.721050e-001	-3.710335e+000
626683	9.716863e-001	-3.727323e+000
629426	9.730763e-001	-3.780287e+000
632170	9.737273e-001	-3.841617e+000
634913	9.734053e-001	-3.835313e+000
637656	9.737593e-001	-3.907823e+000
640399	9.732884e-001	-3.869953e+000
643142	9.722524e-001	-3.860355e+000
645885	9.725205e-001	-3.902305e+000
648628	9.733269e-001	-3.995393e+000
651372	9.726123e-001	-3.990817e+000
654115	9.718232e-001	-4.022101e+000
656858	9.722066e-001	-4.102191e+000
659601	9.719250e-001	-4.051259e+000
662344	9.723417e-001	-4.201490e+000
665087	9.713408e-001	-4.153584e+000
667830	9.708499e-001	-4.242942e+000
670574	9.703349e-001	-4.236162e+000
673317	9.681073e-001	-4.277497e+000
676060	9.669344e-001	-4.183680e+000
678803	9.685398e-001	-4.271306e+000
681546	9.681270e-001	-4.223005e+000
684289	9.686669e-001	-4.286496e+000
687032	9.677885e-001	-4.240655e+000
689776	9.677414e-001	-4.261672e+000
692519	9.692613e-001	-4.324850e+000
695262	9.677759e-001	-4.364014e+000
698005	9.678714e-001	-4.277022e+000
700748	9.676633e-001	-4.363893e+000
703491	9.656789e-001	-4.385505e+000
706234	9.659038e-001	-4.391294e+000
708978	9.636679e-001	-4.394219e+000
711721	9.651295e-001	-4.263870e+000
714464	9.657369e-001	-4.457539e+000
717207	9.645033e-001	-4.391840e+000
719950	9.642486e-001	-4.423864e+000
722693	9.635680e-001	-4.426915e+000
725436	9.627801e-001	-4.345714e+000
728180	9.618878e-001	-4.418367e+000
730923	9.634293e-001	-4.448553e+000
733666	9.633553e-001	-4.367132e+000
736409	9.622158e-001	-4.351899e+000
739152	9.605244e-001	-4.400293e+000
741895	9.619275e-001	-4.445977e+000
744638	9.630464e-001	-4.395131e+000
747382	9.614629e-001	-4.402767e+000
750125	9.605247e-001	-4.370603e+000
752868	9.614381e-001	-4.357304e+000
755611	9.604077e-001	-4.386503e+000
758354	9.593494e-001	-4.316734e+000
761097	9.587446e-001	-4.393726e+000
763840	9.596207e-001	-4.304531e+000
766584	9.582761e-001	-4.420308e+000
769327	9.587814e-001	-4.317473e+000
772070	9.601361e-001	-4.363540e+000
774813	9.590954e-001	-4.381014e+000
777556	9.589373e-001	-4.241803e+000
780299	9.582956e-001	-4.418960e+000
783042	9.590281e-001	-4.268993e+000
785786	9.583418e-001	-4.269809e+000
788529	9.593880e-001	-4.336747e+000
791272	9.606527e-001	-4.283464e+000
794015	9.577014e-001	-4.346033e+000
796758	9.597058e-001	-4.382074e+000
799501	9.595810e-001	-4.356730e+000
802244	9.584972e-001	-4.324257e+000
804988	9.598686e-001	-4.226893e+000
807731	9.581204e-001	-4.236226e+000
810474	9.569375e-001	-4.336954e+000
813217	9.604291e-001	-4.301403e+000
815960	9.595335e-001	-4.207669e+000
818703	9.574098e-001	-4.262335e+000
821446	9.586665e-001	-4.254630e+000
824190	9.594143e-001	-4.180634e+000
826933	9.584757e-001	-4.104179e+000
829676	9.585976e-001	-4.218388e+000
832419	9.602494e-001	-4.151517e+000
835162	9.584587e-001	-4.213098e+000
837905	9.613721e-001	-4.175508e+000
840648	9.608520e-001	-4.209826e+000
843392	9.618169e-001	-4.098724e+000
846135	9.609524e-001	-4.227010e+000
848878	9.626510e-001	-4.180643e+000
851621	9.621113e-001	-4.200048e+000
854364	9.626810e-001	-4.218996e+000
857107	9.620829e-001	-4.180169e+000
859850	9.632176e-001	-4.205650e+000
862594	9.646061e-001	-4.187656e+000
865337	9.629768e-001	-4.173172e+000
868080	9.620372e-001	-4.190523e+000
870823	9.645296e-001	-4.229389e+000
873566	9.636994e-001	-4.246109e+000
876309	9.653582e-001	-4.193770e+000
879052	9.640052e-001	-4.232180e+000
881796	9.658703e-001	-4.191863e+000
884539	9.668360e-001	-4.325893e+000
887282	9.668821e-001	-4.193045e+000
890025	9.682659e-001	-4.288037e+000
892768	9.683694e-001	-4.339927e+000
895511	9.681416e-001	-4.412393e+000
898254	9.699621e-001	-4.469987e+000
900998	9.708460e-001	-4.425950e+000
903741	9.704574e-001	-4.475959e+000
906484	9.699559e-001	-4.493896e+000
909227	9.691483e-001	-4.502302e+000
911970	9.681495e-001	-4.569323e+000
914713	9.708477e-001	-4.615418e+000
917456	9.681084e-001	-4.665864e+000
920200	9.700979e-001	-4.647397e+000
922943	9.700809e-001	-4.699429e+000
925686	9.695024e-001	-4.692202e+000
928429	9.716796e-001	-4.744636e+000
931172	9.680523e-001	-4.774852e+000
933915	9.693186e-001	-4.816979e+000
936658	9.707737e-001	-4.881432e+000
939401	9.717318e-001	-4.843433e+000
942145	9.708319e-001	-5.008997e+000
944888	9.692003e-001	-5.019005e+000
947631	9.696034e-001	-4.990372e+000
950374	9.711272e-001	-5.023150e+000
953117	9.704836e-001	-5.080089e+000
955860	9.685443e-001	-5.126321e+000
958603	9.679650e-001	-5.158631e+000
961347	9.703142e-001	-5.078522e+000
964090	9.686794e-001	-5.169535e+000
966833	9.670911e-001	-5.145255e+000
969576	9.685267e-001	-5.160702e+000
972319	9.667102e-001	-5.191930e+000
975062	9.674085e-001	-5.277031e+000
977805	9.661086e-001	-5.306049e+000
980549	9.664870e-001	-5.348556e+000
983292	9.655654e-001	-5.333085e+000
986035	9.655912e-001	-5.296429e+000
988778	9.652138e-001	-5.419564e+000
991521	9.648752e-001	-5.283996e+000
994264	9.650161e-001	-5.323412e+000
997007	9.635927e-001	-5.475418e+000
999751	9.630812e-001	-5.268797e+000
1002494	9.634429e-001	-5.408534e+000
1005237	9.639088e-001	-5.354685e+000
1007980	9.642784e-001	-5.499500e+000
1010723	9.640691e-001	-5.430029e+000
1013466	9.632269e-001	-5.367461e+000
1016209	9.624958e-001	-5.427766e+000
1018953	9.618392e-001	-5.399634e+000
1021696	9.616106e-001	-5.320357e+000
1024439	9.611492e-001	-5.387001e+000
1027182	9.625651e-001	-5.375621e+000
1029925	9.615202e-001	-5.316866e+000
1032668	9.595762e-001	-5.299513e+000
1035411	9.609963e-001	-5.299397e+000
1038155	9.628770e-001	-5.300947e+000
1040898	9.637903e-001	-5.337184e+000
1043641	9.612498e-001	-5.277769e+000
1046384	9.617666e-001	-5.308657e+000
1049127	9.619997e-001	-5.386652e+000
1051870	9.628441e-001	-5.408194e+000
1054613	9.637606e-001	-5.231420e+000
1057357	9.641417e-001	-5.307687e+000
1060100	9.630345e-001	-5.355045e+000
1062843	9.638709e-001	-5.168793e+000
1065586	9.639141e-001	-5.289563e+000
1068329	9.661750e-001	-5.338271e+000
1071072	9.649284e-001	-5.272555e+000
1073815	9.639977e-001	-5.347110e+000
1076559	9.654368e-001	-5.409985e+000
1079302	9.666490e-001	-5.386566e+000
1082045	9.662375e-001	-5.305254e+000
1084788	9.665277e-001	-5.410566e+000
1087531	9.661132e-001	-5.436409e+000
1090274	9.647620e-001	-5.485808e+000
1093017	9.669518e-001	-5.441652e+000
1095761	9.675685e-001	-5.486239e+000
1098504	9.675096e-001	-5.404025e+000
1101247	9.675180e-001	-5.561454e+000
1103990	9.681364e-001	-5.591162e+000
1106733	9.676621e-001	-5.553049e+000
1109476	9.670284e-001	-5.515263e+000
1112219	9.672901e-001	-5.689358e+000
1114963	9.671917e-001	-5.586612e+000
1117706	9.691328e-001	-5.686621e+000
1120449	9.666272e-001	-5.640833e+000
1123192	9.665599e-001	-5.736039e+000
1125935	9.686096e-001	-5.771514e+000
1128678	9.672662e-001	-5.711493e+000
1131421	9.690958e-001	-5.777792e+000
1134165	9.686079e-001	-5.815044e+000
1136908	9.682766e-001	-5.758399e+000
1139651	9.675573e-001	-5.773570e+000
1142394	9.667968e-001	-5.907861e+000
1145137	9.664211e-001	-5.863160e+000
1147880	9.676206e-001	-5.856025e+000
1150623	9.674587e-001	-5.848171e+000
1153367	9.671341e-001	-5.884114e+000
1156110	9.674507e-001	-5.880780e+000
1158853	9.660747e-001	-5.954043e+000
1161596	9.678965e-001	-5.955392e+000
1164339	9.684924e-001	-5.988307e+000
1167082	9.675207e-001	-6.040450e+000
1169825	9.686382e-001	-6.071443e+000
1172569	9.670895e-001	-6.011377e+000
1175312	9.688021e-001	-6.020416e+000
1178055	9.676360e-001	-6.033280e+000
1180798	9.690421e-001	-6.145244e+000
1183541	9.669559e-001	-6.160985e+000
1186284	9.663238e-001	-6.227686e+000
1189027	9.685446e-001	-6.244134e+000
1191771	9.657099e-001	-6.203620e+000
1194514	9.661128e-001	-6.361319e+000
1197257	9.657839e-001	-6.376277e+000
1200000	9.667409e-001	-6.307554e+000
