!Agilent Technologies,E5071C,MY46100265,A.07.02
!Date: Wed Mar 04 14:58:30 2020
!Data & Calibration Information:
!Freq	S11:SOLT1(ON)
# Hz S MA R 50
100000	9.887586e-001	-1.978879e+000
102743	9.863252e-001	-1.919588e+000
105486	9.881000e-001	-2.040377e+000
108229	9.862217e-001	-2.075732e+000
110973	9.859104e-001	-2.200993e+000
113716	9.884370e-001	-2.382067e+000
116459	9.859917e-001	-2.662293e+000
119202	9.865427e-001	-2.782824e+000
121945	9.844653e-001	-2.764164e+000
124688	9.825275e-001	-3.130926e+000
127431	9.830308e-001	-3.212739e+000
130175	9.829147e-001	-3.526495e+000
132918	9.816298e-001	-3.721787e+000
135661	9.788623e-001	-4.200963e+000
138404	9.759621e-001	-4.618959e+000
141147	9.707298e-001	-5.089905e+000
143890	9.597524e-001	-5.821160e+000
146633	9.472302e-001	-6.291532e+000
149377	9.314097e-001	-6.727515e+000
152120	9.085419e-001	-7.479157e+000
154863	8.723382e-001	-7.653128e+000
157606	8.254349e-001	-6.250104e+000
160349	7.870311e-001	-2.766893e+000
163092	7.966646e-001	2.526488e+000
165835	8.518445e-001	4.689566e+000
168579	8.921228e-001	4.494049e+000
171322	9.107813e-001	4.089115e+000
174065	9.300059e-001	3.947921e+000
176808	9.453040e-001	3.279058e+000
179551	9.479544e-001	2.789860e+000
182294	9.530175e-001	2.278523e+000
185037	9.576384e-001	2.248882e+000
187781	9.637658e-001	2.009293e+000
190524	9.642096e-001	2.098738e+000
193267	9.715847e-001	1.908829e+000
196010	9.734046e-001	1.755515e+000
198753	9.733958e-001	1.416110e+000
201496	9.778256e-001	1.187427e+000
204239	9.782250e-001	1.142156e+000
206983	9.797620e-001	9.790781e-001
209726	9.824984e-001	8.246387e-001
212469	9.823842e-001	6.691009e-001
215212	9.847521e-001	2.943824e-001
217955	9.825068e-001	2.929269e-001
220698	9.837447e-001	9.536207e-002
223441	9.840710e-001	9.940273e-002
226185	9.835870e-001	-3.007022e-002
228928	9.854571e-001	-1.663403e-001
231671	9.839535e-001	-3.555445e-001
234414	9.835129e-001	-2.858491e-001
237157	9.844726e-001	-5.067403e-001
239900	9.843610e-001	-5.226380e-001
242643	9.834641e-001	-6.908783e-001
245387	9.828267e-001	-8.687641e-001
248130	9.817611e-001	-1.078850e+000
250873	9.811349e-001	-1.070405e+000
253616	9.806786e-001	-1.274137e+000
256359	9.758602e-001	-1.214822e+000
259102	9.764994e-001	-1.320068e+000
261845	9.715251e-001	-1.239580e+000
264589	9.707807e-001	-1.308814e+000
267332	9.687312e-001	-1.101302e+000
270075	9.715178e-001	-1.123677e+000
272818	9.704072e-001	-1.035745e+000
275561	9.719299e-001	-1.057907e+000
278304	9.710471e-001	-1.013549e+000
281047	9.710216e-001	-1.183843e+000
283791	9.707701e-001	-1.092757e+000
286534	9.690240e-001	-1.282067e+000
289277	9.665949e-001	-1.310720e+000
292020	9.664035e-001	-1.254575e+000
294763	9.617694e-001	-1.112445e+000
297506	9.640338e-001	-1.153060e+000
300249	9.590313e-001	-9.904258e-001
302993	9.588302e-001	-1.058986e+000
305736	9.593236e-001	-7.685710e-001
308479	9.589315e-001	-6.415354e-001
311222	9.616326e-001	-5.334088e-001
313965	9.663590e-001	-4.748880e-001
316708	9.677021e-001	-5.027161e-001
319451	9.685968e-001	-5.587123e-001
322195	9.693950e-001	-6.039113e-001
324938	9.709084e-001	-6.826838e-001
327681	9.716231e-001	-6.823530e-001
330424	9.716721e-001	-7.820213e-001
333167	9.717173e-001	-8.500454e-001
335910	9.720042e-001	-8.484173e-001
338653	9.726123e-001	-1.003040e+000
341397	9.718593e-001	-9.486111e-001
344140	9.734459e-001	-1.063883e+000
346883	9.710088e-001	-1.066813e+000
349626	9.701989e-001	-1.188643e+000
352369	9.684835e-001	-1.146505e+000
355112	9.682473e-001	-1.139493e+000
357855	9.656522e-001	-1.092732e+000
360599	9.667537e-001	-1.037483e+000
363342	9.651485e-001	-1.099773e+000
366085	9.635313e-001	-8.437772e-001
368828	9.647492e-001	-8.520791e-001
371571	9.683214e-001	-8.320417e-001
374314	9.667345e-001	-7.527986e-001
377057	9.670709e-001	-6.641098e-001
379800	9.679101e-001	-6.915510e-001
382544	9.688393e-001	-7.521879e-001
385287	9.686994e-001	-7.704557e-001
388030	9.701532e-001	-6.746847e-001
390773	9.720956e-001	-8.651371e-001
393516	9.727394e-001	-7.850425e-001
396259	9.704484e-001	-7.368313e-001
399002	9.751284e-001	-7.319468e-001
401746	9.730322e-001	-8.162697e-001
404489	9.748444e-001	-7.233346e-001
407232	9.763774e-001	-8.076111e-001
409975	9.741509e-001	-8.340606e-001
412718	9.787161e-001	-8.435046e-001
415461	9.776618e-001	-8.399344e-001
418204	9.779109e-001	-8.497705e-001
420948	9.772763e-001	-8.913222e-001
423691	9.759967e-001	-8.991205e-001
426434	9.807430e-001	-1.020896e+000
429177	9.790130e-001	-1.009500e+000
431920	9.794316e-001	-1.084999e+000
434663	9.795037e-001	-1.019230e+000
437406	9.814288e-001	-1.088139e+000
440150	9.793565e-001	-1.201489e+000
442893	9.812889e-001	-1.127970e+000
445636	9.796891e-001	-1.231248e+000
448379	9.821374e-001	-1.248080e+000
451122	9.798686e-001	-1.367076e+000
453865	9.806980e-001	-1.361300e+000
456608	9.811047e-001	-1.389913e+000
459352	9.811891e-001	-1.369049e+000
462095	9.802755e-001	-1.469002e+000
464838	9.824496e-001	-1.522070e+000
467581	9.829025e-001	-1.488042e+000
470324	9.811645e-001	-1.547383e+000
473067	9.831047e-001	-1.503138e+000
475810	9.841782e-001	-1.625956e+000
478554	9.819157e-001	-1.635960e+000
481297	9.814460e-001	-1.681499e+000
484040	9.817983e-001	-1.632171e+000
486783	9.824900e-001	-1.709569e+000
489526	9.828782e-001	-1.754438e+000
492269	9.807288e-001	-1.700994e+000
495012	9.824027e-001	-1.837963e+000
497756	9.819053e-001	-1.770728e+000
500499	9.821326e-001	-1.901725e+000
503242	9.817112e-001	-1.976150e+000
505985	9.822523e-001	-2.011181e+000
508728	9.822310e-001	-1.992584e+000
511471	9.816337e-001	-2.016023e+000
514214	9.820066e-001	-2.141316e+000
516958	9.802443e-001	-2.203993e+000
519701	9.831198e-001	-2.212140e+000
522444	9.792107e-001	-2.282689e+000
525187	9.791807e-001	-2.318323e+000
527930	9.787855e-001	-2.470271e+000
530673	9.781480e-001	-2.318647e+000
533416	9.776879e-001	-2.339256e+000
536160	9.758379e-001	-2.352696e+000
538903	9.748469e-001	-2.303176e+000
541646	9.749917e-001	-2.374337e+000
544389	9.757363e-001	-2.341862e+000
547132	9.755144e-001	-2.287070e+000
549875	9.793562e-001	-2.367984e+000
552618	9.760603e-001	-2.500556e+000
555362	9.776303e-001	-2.568848e+000
558105	9.757002e-001	-2.452026e+000
560848	9.772405e-001	-2.702120e+000
563591	9.773207e-001	-2.790539e+000
566334	9.762891e-001	-2.862087e+000
569077	9.766806e-001	-2.976574e+000
571820	9.744056e-001	-3.163216e+000
574564	9.733566e-001	-3.243435e+000
577307	9.712166e-001	-3.348230e+000
580050	9.682686e-001	-3.462776e+000
582793	9.620479e-001	-3.486755e+000
585536	9.574973e-001	-3.666385e+000
588279	9.487907e-001	-3.577833e+000
591022	9.396328e-001	-3.371966e+000
593766	9.346417e-001	-2.814877e+000
596509	9.317993e-001	-2.130560e+000
599252	9.341180e-001	-1.502604e+000
601995	9.403869e-001	-1.085010e+000
604738	9.479648e-001	-8.361355e-001
607481	9.544408e-001	-8.971266e-001
610224	9.594036e-001	-9.314600e-001
612968	9.617067e-001	-1.073273e+000
615711	9.646276e-001	-1.093628e+000
618454	9.664359e-001	-1.173918e+000
621197	9.661741e-001	-1.123420e+000
623940	9.701767e-001	-1.238594e+000
626683	9.707202e-001	-1.273835e+000
629426	9.717069e-001	-1.363688e+000
632170	9.743369e-001	-1.469018e+000
634913	9.723432e-001	-1.471991e+000
637656	9.737057e-001	-1.543070e+000
640399	9.726625e-001	-1.530550e+000
643142	9.744568e-001	-1.499194e+000
645885	9.735937e-001	-1.573236e+000
648628	9.761173e-001	-1.622858e+000
651372	9.765924e-001	-1.555563e+000
654115	9.767540e-001	-1.591756e+000
656858	9.765212e-001	-1.655208e+000
659601	9.783193e-001	-1.760022e+000
662344	9.767141e-001	-1.802551e+000
665087	9.789147e-001	-1.698374e+000
667830	9.785814e-001	-1.808296e+000
670574	9.792744e-001	-1.785256e+000
673317	9.793836e-001	-1.820449e+000
676060	9.777331e-001	-1.980768e+000
678803	9.801804e-001	-1.926864e+000
681546	9.803408e-001	-1.934505e+000
684289	9.792380e-001	-2.055400e+000
687032	9.796078e-001	-2.068498e+000
689776	9.795695e-001	-2.126770e+000
692519	9.808238e-001	-2.130892e+000
695262	9.820624e-001	-2.181258e+000
698005	9.810898e-001	-2.218055e+000
700748	9.818499e-001	-2.269842e+000
703491	9.812655e-001	-2.314215e+000
706234	9.807209e-001	-2.264616e+000
708978	9.800899e-001	-2.310167e+000
711721	9.818519e-001	-2.305468e+000
714464	9.821967e-001	-2.409964e+000
717207	9.819188e-001	-2.419786e+000
719950	9.810873e-001	-2.430282e+000
722693	9.806085e-001	-2.511682e+000
725436	9.803856e-001	-2.425985e+000
728180	9.797709e-001	-2.548264e+000
730923	9.811226e-001	-2.503409e+000
733666	9.817147e-001	-2.539839e+000
736409	9.797924e-001	-2.641345e+000
739152	9.789649e-001	-2.695081e+000
741895	9.797009e-001	-2.807239e+000
744638	9.805454e-001	-2.646725e+000
747382	9.802541e-001	-2.654476e+000
750125	9.794064e-001	-2.738695e+000
752868	9.792491e-001	-2.680677e+000
755611	9.787072e-001	-2.688121e+000
758354	9.789002e-001	-2.775507e+000
761097	9.790159e-001	-2.807333e+000
763840	9.781984e-001	-2.910642e+000
766584	9.780886e-001	-2.965817e+000
769327	9.786821e-001	-2.796389e+000
772070	9.786703e-001	-2.890069e+000
774813	9.783891e-001	-2.921055e+000
777556	9.785312e-001	-2.919780e+000
780299	9.781394e-001	-3.023988e+000
783042	9.769890e-001	-2.938755e+000
785786	9.763437e-001	-2.992841e+000
788529	9.784947e-001	-2.924740e+000
791272	9.772837e-001	-2.975144e+000
794015	9.754249e-001	-3.004965e+000
796758	9.750713e-001	-2.926649e+000
799501	9.751849e-001	-2.985700e+000
802244	9.748283e-001	-2.982663e+000
804988	9.741669e-001	-2.974364e+000
807731	9.743443e-001	-2.953518e+000
810474	9.759054e-001	-2.984740e+000
813217	9.756591e-001	-2.968605e+000
815960	9.742778e-001	-2.905952e+000
818703	9.735476e-001	-2.927089e+000
821446	9.741086e-001	-2.882308e+000
824190	9.753774e-001	-2.838161e+000
826933	9.753020e-001	-2.799894e+000
829676	9.755392e-001	-2.931053e+000
832419	9.748336e-001	-2.972178e+000
835162	9.750764e-001	-3.000516e+000
837905	9.761022e-001	-2.942502e+000
840648	9.767048e-001	-3.027280e+000
843392	9.774014e-001	-2.951608e+000
846135	9.744832e-001	-2.974097e+000
848878	9.755909e-001	-2.949968e+000
851621	9.755224e-001	-2.978844e+000
854364	9.770441e-001	-2.964123e+000
857107	9.766576e-001	-2.925998e+000
859850	9.763130e-001	-2.960465e+000
862594	9.775320e-001	-2.918930e+000
865337	9.762934e-001	-3.014871e+000
868080	9.770169e-001	-3.049056e+000
870823	9.792358e-001	-3.028939e+000
873566	9.783574e-001	-3.075622e+000
876309	9.798928e-001	-3.073178e+000
879052	9.782237e-001	-3.178707e+000
881796	9.793717e-001	-3.111912e+000
884539	9.786248e-001	-3.278621e+000
887282	9.798259e-001	-3.112053e+000
890025	9.785520e-001	-3.182380e+000
892768	9.787226e-001	-3.166984e+000
895511	9.778602e-001	-3.207286e+000
898254	9.795673e-001	-3.282106e+000
900998	9.800023e-001	-3.213736e+000
903741	9.789170e-001	-3.315479e+000
906484	9.785176e-001	-3.250120e+000
909227	9.770708e-001	-3.341041e+000
911970	9.792148e-001	-3.313505e+000
914713	9.796327e-001	-3.370627e+000
917456	9.769705e-001	-3.437357e+000
920200	9.777095e-001	-3.382957e+000
922943	9.784572e-001	-3.368797e+000
925686	9.777099e-001	-3.494732e+000
928429	9.793288e-001	-3.360631e+000
931172	9.771081e-001	-3.457885e+000
933915	9.771435e-001	-3.454451e+000
936658	9.784162e-001	-3.456308e+000
939401	9.790020e-001	-3.470432e+000
942145	9.796445e-001	-3.462210e+000
944888	9.765869e-001	-3.480692e+000
947631	9.785094e-001	-3.511598e+000
950374	9.798903e-001	-3.471444e+000
953117	9.791582e-001	-3.639264e+000
955860	9.788266e-001	-3.518116e+000
958603	9.786500e-001	-3.528355e+000
961347	9.801146e-001	-3.524911e+000
964090	9.796517e-001	-3.567775e+000
966833	9.775421e-001	-3.550205e+000
969576	9.788974e-001	-3.622794e+000
972319	9.799206e-001	-3.611052e+000
975062	9.796034e-001	-3.755001e+000
977805	9.772966e-001	-3.722865e+000
980549	9.793739e-001	-3.757653e+000
983292	9.774966e-001	-3.724431e+000
986035	9.786638e-001	-3.717900e+000
988778	9.794554e-001	-3.765780e+000
991521	9.801483e-001	-3.718484e+000
994264	9.780734e-001	-3.856744e+000
997007	9.779689e-001	-3.819522e+000
999751	9.775011e-001	-3.744653e+000
1002494	9.776527e-001	-3.888658e+000
1005237	9.786322e-001	-3.853274e+000
1007980	9.779892e-001	-3.837349e+000
1010723	9.785763e-001	-3.902265e+000
1013466	9.776748e-001	-3.941519e+000
1016209	9.769860e-001	-3.957690e+000
1018953	9.780772e-001	-3.903848e+000
1021696	9.775352e-001	-3.796429e+000
1024439	9.766046e-001	-3.874103e+000
1027182	9.776896e-001	-3.950649e+000
1029925	9.785107e-001	-3.925412e+000
1032668	9.767045e-001	-3.959605e+000
1035411	9.766205e-001	-4.005550e+000
1038155	9.784570e-001	-3.990742e+000
1040898	9.773163e-001	-3.985729e+000
1043641	9.769228e-001	-3.900081e+000
1046384	9.771843e-001	-3.994928e+000
1049127	9.774394e-001	-4.035391e+000
1051870	9.764650e-001	-4.103460e+000
1054613	9.778195e-001	-4.050365e+000
1057357	9.774547e-001	-4.101533e+000
1060100	9.767576e-001	-4.132705e+000
1062843	9.775906e-001	-4.002035e+000
1065586	9.762838e-001	-4.033855e+000
1068329	9.767663e-001	-4.077966e+000
1071072	9.761449e-001	-4.079167e+000
1073815	9.760985e-001	-4.031255e+000
1076559	9.762507e-001	-4.183162e+000
1079302	9.778568e-001	-4.057522e+000
1082045	9.773443e-001	-4.197939e+000
1084788	9.762995e-001	-4.211275e+000
1087531	9.788806e-001	-4.179970e+000
1090274	9.760770e-001	-4.179456e+000
1093017	9.769641e-001	-4.234693e+000
1095761	9.756967e-001	-4.161556e+000
1098504	9.776985e-001	-4.174860e+000
1101247	9.759284e-001	-4.261069e+000
1103990	9.767394e-001	-4.222558e+000
1106733	9.773179e-001	-4.199104e+000
1109476	9.773742e-001	-4.204428e+000
1112219	9.775182e-001	-4.305264e+000
1114963	9.769871e-001	-4.230861e+000
1117706	9.769279e-001	-4.343811e+000
1120449	9.756952e-001	-4.215495e+000
1123192	9.760287e-001	-4.378358e+000
1125935	9.772694e-001	-4.309547e+000
1128678	9.760961e-001	-4.284547e+000
1131421	9.780643e-001	-4.300412e+000
1134165	9.762356e-001	-4.347306e+000
1136908	9.773296e-001	-4.338652e+000
1139651	9.761226e-001	-4.270112e+000
1142394	9.763674e-001	-4.390178e+000
1145137	9.769432e-001	-4.345254e+000
1147880	9.772594e-001	-4.365649e+000
1150623	9.768957e-001	-4.407415e+000
1153367	9.777951e-001	-4.484864e+000
1156110	9.781489e-001	-4.404060e+000
1158853	9.773739e-001	-4.388017e+000
1161596	9.791369e-001	-4.445854e+000
1164339	9.776545e-001	-4.412564e+000
1167082	9.778187e-001	-4.593049e+000
1169825	9.773110e-001	-4.518083e+000
1172569	9.761548e-001	-4.573928e+000
1175312	9.781790e-001	-4.623839e+000
1178055	9.764512e-001	-4.596386e+000
1180798	9.768061e-001	-4.603625e+000
1183541	9.765519e-001	-4.551722e+000
1186284	9.774505e-001	-4.616739e+000
1189027	9.753335e-001	-4.630946e+000
1191771	9.774980e-001	-4.575436e+000
1194514	9.742050e-001	-4.802420e+000
1197257	9.761570e-001	-4.656609e+000
1200000	9.758252e-001	-4.684416e+000
