!Agilent Technologies,E5071C,MY46100265,A.07.02
!Date: Wed Mar 04 14:58:18 2020
!Data & Calibration Information:
!Freq	S11:SOLT1(ON)
# Hz S MA R 50
100000	9.904443e-001	-1.957248e+000
102743	9.861918e-001	-1.887687e+000
105486	9.895467e-001	-2.176114e+000
108229	9.869498e-001	-2.155452e+000
110973	9.865112e-001	-2.246902e+000
113716	9.881390e-001	-2.380656e+000
116459	9.870210e-001	-2.587035e+000
119202	9.864655e-001	-2.679873e+000
121945	9.837554e-001	-2.821169e+000
124688	9.830900e-001	-3.036082e+000
127431	9.831441e-001	-3.188526e+000
130175	9.818646e-001	-3.448677e+000
132918	9.796640e-001	-3.731261e+000
135661	9.789281e-001	-4.154865e+000
138404	9.746076e-001	-4.471043e+000
141147	9.696235e-001	-5.016191e+000
143890	9.596182e-001	-5.624706e+000
146633	9.473445e-001	-6.155049e+000
149377	9.358062e-001	-6.485430e+000
152120	9.147277e-001	-7.188699e+000
154863	8.814487e-001	-7.376304e+000
157606	8.402794e-001	-6.574140e+000
160349	8.007920e-001	-3.958850e+000
163092	7.931254e-001	6.920912e-001
165835	8.283093e-001	4.021056e+000
168579	8.760464e-001	5.254163e+000
171322	9.053684e-001	4.662512e+000
174065	9.346482e-001	4.160145e+000
176808	9.438300e-001	3.613155e+000
179551	9.488450e-001	2.581177e+000
182294	9.596841e-001	2.353531e+000
185037	9.574509e-001	2.524353e+000
187781	9.653903e-001	2.179443e+000
190524	9.647118e-001	2.092913e+000
193267	9.730597e-001	1.872917e+000
196010	9.735395e-001	1.696843e+000
198753	9.736416e-001	1.515289e+000
201496	9.758782e-001	1.119383e+000
204239	9.795644e-001	1.103751e+000
206983	9.800947e-001	9.888955e-001
209726	9.818475e-001	8.009446e-001
212469	9.819596e-001	6.218827e-001
215212	9.853270e-001	3.877252e-001
217955	9.843950e-001	2.120941e-001
220698	9.832081e-001	2.135346e-002
223441	9.847729e-001	1.126371e-001
226185	9.828451e-001	-6.841613e-002
228928	9.835132e-001	-2.280420e-001
231671	9.826897e-001	-3.523931e-001
234414	9.836657e-001	-3.187509e-001
237157	9.830350e-001	-4.858696e-001
239900	9.834781e-001	-5.895687e-001
242643	9.836410e-001	-7.124363e-001
245387	9.813847e-001	-8.812076e-001
248130	9.808759e-001	-9.942970e-001
250873	9.804182e-001	-9.898880e-001
253616	9.787558e-001	-1.226922e+000
256359	9.765273e-001	-1.294481e+000
259102	9.760007e-001	-1.301871e+000
261845	9.701443e-001	-1.226108e+000
264589	9.715143e-001	-1.293087e+000
267332	9.692933e-001	-1.107756e+000
270075	9.723858e-001	-1.092325e+000
272818	9.694131e-001	-1.004001e+000
275561	9.703649e-001	-1.181591e+000
278304	9.703036e-001	-1.143939e+000
281047	9.690900e-001	-1.157673e+000
283791	9.692635e-001	-1.257606e+000
286534	9.690992e-001	-1.283001e+000
289277	9.661209e-001	-1.244972e+000
292020	9.645772e-001	-1.313699e+000
294763	9.619248e-001	-1.205336e+000
297506	9.619048e-001	-1.143284e+000
300249	9.594145e-001	-1.035500e+000
302993	9.595683e-001	-9.712745e-001
305736	9.594977e-001	-7.976991e-001
308479	9.609005e-001	-5.864135e-001
311222	9.616609e-001	-4.381662e-001
313965	9.666150e-001	-4.741809e-001
316708	9.669923e-001	-4.803629e-001
319451	9.694612e-001	-5.962839e-001
322195	9.691784e-001	-5.575995e-001
324938	9.701871e-001	-5.619416e-001
327681	9.717885e-001	-6.104888e-001
330424	9.716886e-001	-7.669310e-001
333167	9.730882e-001	-8.625234e-001
335910	9.728475e-001	-8.290988e-001
338653	9.731828e-001	-9.247542e-001
341397	9.721766e-001	-9.506242e-001
344140	9.712888e-001	-1.082033e+000
346883	9.701875e-001	-1.113665e+000
349626	9.711523e-001	-1.148053e+000
352369	9.690226e-001	-1.174529e+000
355112	9.682798e-001	-1.016825e+000
357855	9.667261e-001	-1.091219e+000
360599	9.679250e-001	-9.937093e-001
363342	9.654228e-001	-1.109235e+000
366085	9.644018e-001	-8.737087e-001
368828	9.653483e-001	-8.939011e-001
371571	9.672576e-001	-8.710530e-001
374314	9.682704e-001	-8.222812e-001
377057	9.687351e-001	-7.318589e-001
379800	9.674908e-001	-7.824757e-001
382544	9.698932e-001	-7.652451e-001
385287	9.689998e-001	-7.966620e-001
388030	9.701785e-001	-6.963235e-001
390773	9.709218e-001	-7.525441e-001
393516	9.729492e-001	-6.719422e-001
396259	9.709533e-001	-7.337659e-001
399002	9.738467e-001	-8.952695e-001
401746	9.730508e-001	-8.752018e-001
404489	9.754495e-001	-7.182589e-001
407232	9.742064e-001	-7.196506e-001
409975	9.745389e-001	-8.102296e-001
412718	9.795074e-001	-7.961485e-001
415461	9.774262e-001	-9.136223e-001
418204	9.780665e-001	-8.460990e-001
420948	9.770474e-001	-9.025875e-001
423691	9.775530e-001	-9.776373e-001
426434	9.793829e-001	-1.033805e+000
429177	9.794233e-001	-9.889227e-001
431920	9.793998e-001	-1.003703e+000
434663	9.803820e-001	-1.044604e+000
437406	9.823053e-001	-1.139483e+000
440150	9.800144e-001	-1.178635e+000
442893	9.820297e-001	-1.223957e+000
445636	9.801126e-001	-1.312756e+000
448379	9.819658e-001	-1.258724e+000
451122	9.816047e-001	-1.412640e+000
453865	9.805160e-001	-1.366776e+000
456608	9.818024e-001	-1.335324e+000
459352	9.813437e-001	-1.364903e+000
462095	9.808162e-001	-1.377000e+000
464838	9.819422e-001	-1.540873e+000
467581	9.816107e-001	-1.516947e+000
470324	9.817222e-001	-1.541880e+000
473067	9.823620e-001	-1.554522e+000
475810	9.839130e-001	-1.709227e+000
478554	9.840655e-001	-1.654153e+000
481297	9.814693e-001	-1.611531e+000
484040	9.823764e-001	-1.741657e+000
486783	9.820656e-001	-1.727284e+000
489526	9.821681e-001	-1.795553e+000
492269	9.809905e-001	-1.806476e+000
495012	9.820434e-001	-1.773765e+000
497756	9.816279e-001	-1.837648e+000
500499	9.821243e-001	-1.882126e+000
503242	9.827444e-001	-1.965750e+000
505985	9.817303e-001	-2.039044e+000
508728	9.820904e-001	-2.029765e+000
511471	9.812372e-001	-2.068305e+000
514214	9.816905e-001	-2.095241e+000
516958	9.802237e-001	-2.194891e+000
519701	9.799158e-001	-2.255760e+000
522444	9.796518e-001	-2.268144e+000
525187	9.792605e-001	-2.368180e+000
527930	9.789082e-001	-2.313594e+000
530673	9.790063e-001	-2.442423e+000
533416	9.763457e-001	-2.352472e+000
536160	9.761431e-001	-2.382410e+000
538903	9.760988e-001	-2.341100e+000
541646	9.759781e-001	-2.316990e+000
544389	9.754566e-001	-2.273149e+000
547132	9.736637e-001	-2.389232e+000
549875	9.779077e-001	-2.373855e+000
552618	9.771777e-001	-2.418896e+000
555362	9.763835e-001	-2.582722e+000
558105	9.763592e-001	-2.508354e+000
560848	9.766269e-001	-2.616487e+000
563591	9.773254e-001	-2.780610e+000
566334	9.760960e-001	-2.869635e+000
569077	9.770145e-001	-2.886223e+000
571820	9.757420e-001	-3.054577e+000
574564	9.722882e-001	-3.173209e+000
577307	9.695369e-001	-3.385920e+000
580050	9.672400e-001	-3.464396e+000
582793	9.631534e-001	-3.422739e+000
585536	9.561149e-001	-3.663529e+000
588279	9.486825e-001	-3.640549e+000
591022	9.407134e-001	-3.364518e+000
593766	9.341139e-001	-2.850632e+000
596509	9.314631e-001	-2.151304e+000
599252	9.333002e-001	-1.583527e+000
601995	9.400193e-001	-1.078257e+000
604738	9.478609e-001	-8.088476e-001
607481	9.531696e-001	-8.109190e-001
610224	9.591257e-001	-9.508798e-001
612968	9.623991e-001	-1.044191e+000
615711	9.662166e-001	-1.143269e+000
618454	9.668411e-001	-1.196032e+000
621197	9.680180e-001	-1.150105e+000
623940	9.697877e-001	-1.195587e+000
626683	9.696790e-001	-1.366575e+000
629426	9.712582e-001	-1.397568e+000
632170	9.715316e-001	-1.476139e+000
634913	9.718957e-001	-1.493970e+000
637656	9.742312e-001	-1.568637e+000
640399	9.732972e-001	-1.562254e+000
643142	9.737558e-001	-1.410554e+000
645885	9.739764e-001	-1.609772e+000
648628	9.759354e-001	-1.634616e+000
651372	9.766726e-001	-1.578902e+000
654115	9.763966e-001	-1.715760e+000
656858	9.764671e-001	-1.690275e+000
659601	9.776042e-001	-1.713588e+000
662344	9.772439e-001	-1.809033e+000
665087	9.773947e-001	-1.752587e+000
667830	9.791179e-001	-1.816474e+000
670574	9.792032e-001	-1.841859e+000
673317	9.788390e-001	-1.953551e+000
676060	9.776818e-001	-1.901294e+000
678803	9.798097e-001	-1.993781e+000
681546	9.801663e-001	-2.013575e+000
684289	9.810818e-001	-2.014316e+000
687032	9.805167e-001	-2.090181e+000
689776	9.807801e-001	-2.081865e+000
692519	9.816885e-001	-2.150411e+000
695262	9.824062e-001	-2.209122e+000
698005	9.802159e-001	-2.245119e+000
700748	9.811731e-001	-2.210191e+000
703491	9.820589e-001	-2.335347e+000
706234	9.824312e-001	-2.336031e+000
708978	9.801524e-001	-2.379958e+000
711721	9.825860e-001	-2.265085e+000
714464	9.801277e-001	-2.508875e+000
717207	9.805589e-001	-2.418328e+000
719950	9.810900e-001	-2.519428e+000
722693	9.819525e-001	-2.466767e+000
725436	9.804130e-001	-2.421866e+000
728180	9.796146e-001	-2.506624e+000
730923	9.821400e-001	-2.542302e+000
733666	9.813240e-001	-2.628145e+000
736409	9.797229e-001	-2.576610e+000
739152	9.793073e-001	-2.606101e+000
741895	9.795055e-001	-2.702190e+000
744638	9.788691e-001	-2.654881e+000
747382	9.793259e-001	-2.644015e+000
750125	9.798615e-001	-2.634999e+000
752868	9.791665e-001	-2.696389e+000
755611	9.793821e-001	-2.698352e+000
758354	9.793945e-001	-2.715376e+000
761097	9.788509e-001	-2.969309e+000
763840	9.774200e-001	-2.865710e+000
766584	9.789203e-001	-2.958672e+000
769327	9.771565e-001	-2.935523e+000
772070	9.791824e-001	-2.990873e+000
774813	9.779050e-001	-2.922207e+000
777556	9.789981e-001	-2.915019e+000
780299	9.779344e-001	-2.962058e+000
783042	9.782855e-001	-2.882248e+000
785786	9.758200e-001	-2.941051e+000
788529	9.781830e-001	-2.908985e+000
791272	9.764139e-001	-3.020943e+000
794015	9.766995e-001	-3.039565e+000
796758	9.756466e-001	-3.104180e+000
799501	9.748021e-001	-3.008894e+000
802244	9.760731e-001	-3.009331e+000
804988	9.760695e-001	-2.943348e+000
807731	9.740528e-001	-2.977867e+000
810474	9.731731e-001	-2.938112e+000
813217	9.742741e-001	-2.989757e+000
815960	9.727797e-001	-2.857229e+000
818703	9.740002e-001	-2.882536e+000
821446	9.744999e-001	-2.922489e+000
824190	9.750979e-001	-2.822027e+000
826933	9.746909e-001	-2.895642e+000
829676	9.742206e-001	-2.998243e+000
832419	9.751493e-001	-2.980847e+000
835162	9.742567e-001	-2.993245e+000
837905	9.770160e-001	-2.949825e+000
840648	9.760906e-001	-2.970300e+000
843392	9.763235e-001	-2.963341e+000
846135	9.740123e-001	-3.101876e+000
848878	9.760408e-001	-2.999875e+000
851621	9.757277e-001	-2.968826e+000
854364	9.760411e-001	-2.950836e+000
857107	9.752012e-001	-2.988427e+000
859850	9.778057e-001	-3.041557e+000
862594	9.788562e-001	-2.934465e+000
865337	9.764995e-001	-3.061558e+000
868080	9.771678e-001	-3.039604e+000
870823	9.786180e-001	-3.026750e+000
873566	9.785754e-001	-3.088904e+000
876309	9.813631e-001	-3.142956e+000
879052	9.789533e-001	-3.211183e+000
881796	9.782791e-001	-3.179952e+000
884539	9.785677e-001	-3.175579e+000
887282	9.790893e-001	-3.084662e+000
890025	9.795061e-001	-3.212317e+000
892768	9.782265e-001	-3.275626e+000
895511	9.782370e-001	-3.249220e+000
898254	9.812590e-001	-3.294973e+000
900998	9.805419e-001	-3.264398e+000
903741	9.790842e-001	-3.273011e+000
906484	9.779257e-001	-3.347299e+000
909227	9.776652e-001	-3.296981e+000
911970	9.790501e-001	-3.329280e+000
914713	9.770235e-001	-3.429414e+000
917456	9.767554e-001	-3.437498e+000
920200	9.773363e-001	-3.401969e+000
922943	9.792687e-001	-3.414184e+000
925686	9.774877e-001	-3.464552e+000
928429	9.781981e-001	-3.355469e+000
931172	9.753592e-001	-3.450996e+000
933915	9.773431e-001	-3.418383e+000
936658	9.773834e-001	-3.472695e+000
939401	9.790839e-001	-3.459648e+000
942145	9.793337e-001	-3.455323e+000
944888	9.767846e-001	-3.534371e+000
947631	9.788946e-001	-3.494018e+000
950374	9.802122e-001	-3.490861e+000
953117	9.792495e-001	-3.471571e+000
955860	9.791980e-001	-3.541760e+000
958603	9.793631e-001	-3.595461e+000
961347	9.803131e-001	-3.564212e+000
964090	9.793532e-001	-3.564610e+000
966833	9.783747e-001	-3.623095e+000
969576	9.804081e-001	-3.580550e+000
972319	9.789307e-001	-3.668800e+000
975062	9.799476e-001	-3.633938e+000
977805	9.779935e-001	-3.738569e+000
980549	9.786232e-001	-3.770166e+000
983292	9.791808e-001	-3.690762e+000
986035	9.792268e-001	-3.669987e+000
988778	9.780527e-001	-3.844453e+000
991521	9.782254e-001	-3.796398e+000
994264	9.767082e-001	-3.784201e+000
997007	9.775712e-001	-3.799020e+000
999751	9.780955e-001	-3.722666e+000
1002494	9.781017e-001	-3.890362e+000
1005237	9.776405e-001	-3.900224e+000
1007980	9.775513e-001	-3.882731e+000
1010723	9.787240e-001	-3.926910e+000
1013466	9.774055e-001	-3.854419e+000
1016209	9.782362e-001	-3.986003e+000
1018953	9.777352e-001	-4.020406e+000
1021696	9.767562e-001	-3.927686e+000
1024439	9.778730e-001	-3.874038e+000
1027182	9.773595e-001	-3.945193e+000
1029925	9.779689e-001	-3.926136e+000
1032668	9.754467e-001	-3.960731e+000
1035411	9.775599e-001	-3.928361e+000
1038155	9.777583e-001	-3.972712e+000
1040898	9.774682e-001	-4.054811e+000
1043641	9.755777e-001	-3.928617e+000
1046384	9.767161e-001	-4.052702e+000
1049127	9.769044e-001	-4.021917e+000
1051870	9.770452e-001	-4.035662e+000
1054613	9.777283e-001	-4.065858e+000
1057357	9.769560e-001	-4.113354e+000
1060100	9.778532e-001	-4.116092e+000
1062843	9.769933e-001	-4.025987e+000
1065586	9.759802e-001	-4.062126e+000
1068329	9.771101e-001	-4.121962e+000
1071072	9.755405e-001	-4.063030e+000
1073815	9.765007e-001	-4.117249e+000
1076559	9.761308e-001	-4.158027e+000
1079302	9.783268e-001	-4.109880e+000
1082045	9.773936e-001	-4.150012e+000
1084788	9.767954e-001	-4.204960e+000
1087531	9.776981e-001	-4.176751e+000
1090274	9.768137e-001	-4.215062e+000
1093017	9.765170e-001	-4.199620e+000
1095761	9.757512e-001	-4.173990e+000
1098504	9.770814e-001	-4.192795e+000
1101247	9.766565e-001	-4.250246e+000
1103990	9.777917e-001	-4.251020e+000
1106733	9.785829e-001	-4.196839e+000
1109476	9.774094e-001	-4.188595e+000
1112219	9.763712e-001	-4.344314e+000
1114963	9.764952e-001	-4.215109e+000
1117706	9.775529e-001	-4.346221e+000
1120449	9.739143e-001	-4.201548e+000
1123192	9.757859e-001	-4.360960e+000
1125935	9.768820e-001	-4.328088e+000
1128678	9.769741e-001	-4.337747e+000
1131421	9.778529e-001	-4.325065e+000
1134165	9.763181e-001	-4.397502e+000
1136908	9.770333e-001	-4.309090e+000
1139651	9.771426e-001	-4.297290e+000
1142394	9.771865e-001	-4.460932e+000
1145137	9.764430e-001	-4.321611e+000
1147880	9.768974e-001	-4.331989e+000
1150623	9.784798e-001	-4.387961e+000
1153367	9.778131e-001	-4.385690e+000
1156110	9.788530e-001	-4.433762e+000
1158853	9.764597e-001	-4.379018e+000
1161596	9.780103e-001	-4.477626e+000
1164339	9.781877e-001	-4.454176e+000
1167082	9.773210e-001	-4.602353e+000
1169825	9.790123e-001	-4.522872e+000
1172569	9.755522e-001	-4.655897e+000
1175312	9.774778e-001	-4.581692e+000
1178055	9.770569e-001	-4.526295e+000
1180798	9.787573e-001	-4.616775e+000
1183541	9.750897e-001	-4.597079e+000
1186284	9.771407e-001	-4.633102e+000
1189027	9.769385e-001	-4.706411e+000
1191771	9.781682e-001	-4.566533e+000
1194514	9.760104e-001	-4.774834e+000
1197257	9.755992e-001	-4.701828e+000
1200000	9.759155e-001	-4.733719e+000
