!Agilent Technologies,E5071C,MY46100265,A.07.02
!Date: Wed Mar 04 14:42:38 2020
!Data & Calibration Information:
!Freq	S11:SOLT1(ON)
# Hz S MA R 50
100000	1.000387e+000	-1.886688e+000
102743	9.978039e-001	-1.798584e+000
105486	1.000908e+000	-1.994102e+000
108229	9.996300e-001	-2.197656e+000
110973	9.978397e-001	-2.238146e+000
113716	9.994887e-001	-2.442265e+000
116459	9.983339e-001	-2.658526e+000
119202	9.984612e-001	-2.847434e+000
121945	9.970628e-001	-2.998256e+000
124688	9.926226e-001	-3.197446e+000
127431	9.946481e-001	-3.408349e+000
130175	9.951601e-001	-3.803895e+000
132918	1.000365e+000	-4.295543e+000
135661	9.972436e-001	-5.004961e+000
138404	9.921640e-001	-5.602216e+000
141147	9.807613e-001	-6.360978e+000
143890	9.654831e-001	-7.304999e+000
146633	9.511718e-001	-8.422120e+000
149377	9.234755e-001	-9.722873e+000
152120	8.766803e-001	-1.097978e+001
154863	8.017635e-001	-1.150852e+001
157606	7.012206e-001	-7.826684e+000
160349	6.511929e-001	4.417318e+000
163092	7.740321e-001	1.571325e+001
165835	9.437583e-001	1.248088e+001
168579	9.660029e-001	7.085610e+000
171322	9.725877e-001	6.321088e+000
174065	9.753739e-001	4.953778e+000
176808	9.842392e-001	3.370624e+000
179551	9.897619e-001	3.343538e+000
182294	9.917008e-001	2.973661e+000
185037	9.913856e-001	2.781291e+000
187781	9.930406e-001	1.719552e+000
190524	9.883298e-001	2.057980e+000
193267	9.960792e-001	1.708660e+000
196010	9.967576e-001	1.637020e+000
198753	9.940514e-001	1.168996e+000
201496	9.958720e-001	1.138662e+000
204239	9.944707e-001	8.370955e-001
206983	9.965613e-001	7.917974e-001
209726	9.986313e-001	6.771764e-001
212469	9.925933e-001	3.256536e-001
215212	9.957136e-001	3.286322e-001
217955	9.933618e-001	8.500091e-002
220698	9.928565e-001	-9.748722e-002
223441	9.924106e-001	-1.298742e-001
226185	9.883092e-001	-2.372151e-001
228928	9.846046e-001	-3.261786e-001
231671	9.819448e-001	-3.023048e-001
234414	9.829120e-001	-2.250807e-001
237157	9.838678e-001	-2.223412e-001
239900	9.822023e-001	-1.647627e-001
242643	9.846376e-001	-2.277774e-001
245387	9.851915e-001	-2.690157e-001
248130	9.840237e-001	-3.163368e-001
250873	9.843517e-001	-2.838382e-001
253616	9.809532e-001	-5.232042e-001
256359	9.785152e-001	-4.889667e-001
259102	9.774960e-001	-3.816435e-001
261845	9.757554e-001	-1.264544e-001
264589	9.786811e-001	-3.361062e-001
267332	9.778236e-001	-1.609903e-001
270075	9.778539e-001	-2.236831e-001
272818	9.758081e-001	-1.608696e-001
275561	9.769956e-001	-2.135222e-001
278304	9.776013e-001	-1.055417e-001
281047	9.758244e-001	1.981924e-002
283791	9.756495e-001	1.645277e-001
286534	9.780071e-001	1.326001e-001
289277	9.787673e-001	1.769439e-001
292020	9.810629e-001	1.009979e-001
294763	9.829592e-001	2.413970e-001
297506	9.840351e-001	6.712967e-002
300249	9.831035e-001	1.391292e-001
302993	9.846251e-001	8.754777e-002
305736	9.855132e-001	-6.715341e-002
308479	9.857787e-001	3.039278e-002
311222	9.859354e-001	-2.426886e-002
313965	9.876325e-001	-1.058265e-001
316708	9.868413e-001	-1.495481e-001
319451	9.890532e-001	-1.320935e-001
322195	9.856099e-001	-2.321071e-001
324938	9.878122e-001	-2.475308e-001
327681	9.882531e-001	-2.236234e-001
330424	9.865506e-001	-4.119630e-001
333167	9.875351e-001	-4.051431e-001
335910	9.873465e-001	-3.851675e-001
338653	9.866829e-001	-4.596055e-001
341397	9.860913e-001	-3.354033e-001
344140	9.863665e-001	-4.834425e-001
346883	9.862917e-001	-4.717240e-001
349626	9.865869e-001	-5.045436e-001
352369	9.854925e-001	-5.023401e-001
355112	9.852029e-001	-3.536708e-001
357855	9.853307e-001	-4.650344e-001
360599	9.875681e-001	-4.271667e-001
363342	9.837969e-001	-5.812071e-001
366085	9.839195e-001	-3.461811e-001
368828	9.833038e-001	-3.150497e-001
371571	9.860191e-001	-4.111999e-001
374314	9.820821e-001	-2.736255e-001
377057	9.843389e-001	-2.814759e-001
379800	9.829926e-001	-2.862188e-001
382544	9.850934e-001	-2.814140e-001
385287	9.858471e-001	-1.708828e-001
388030	9.862655e-001	-7.689911e-002
390773	9.866910e-001	-1.560328e-001
393516	9.892437e-001	-4.376230e-002
396259	9.888933e-001	-2.775352e-001
399002	9.921934e-001	-2.358329e-001
401746	9.908054e-001	-2.830647e-001
404489	9.932144e-001	-2.418294e-001
407232	9.932518e-001	-3.290799e-001
409975	9.924166e-001	-3.190568e-001
412718	9.951229e-001	-2.297079e-001
415461	9.942520e-001	-3.425437e-001
418204	9.932363e-001	-2.928093e-001
420948	9.948650e-001	-4.560594e-001
423691	9.936110e-001	-5.050435e-001
426434	9.965134e-001	-5.217081e-001
429177	9.961049e-001	-5.078003e-001
431920	9.964715e-001	-5.293472e-001
434663	9.971412e-001	-6.323813e-001
437406	9.983699e-001	-6.493179e-001
440150	9.954558e-001	-7.676225e-001
442893	9.962833e-001	-6.593125e-001
445636	9.958283e-001	-7.984235e-001
448379	9.969469e-001	-7.969227e-001
451122	9.954595e-001	-9.270733e-001
453865	9.940925e-001	-8.965178e-001
456608	9.952293e-001	-8.374022e-001
459352	9.942585e-001	-8.666057e-001
462095	9.956342e-001	-8.932327e-001
464838	9.977774e-001	-9.943347e-001
467581	9.965846e-001	-9.935464e-001
470324	9.963917e-001	-9.774665e-001
473067	9.969768e-001	-1.007419e+000
475810	9.981512e-001	-1.073741e+000
478554	9.987789e-001	-1.095619e+000
481297	9.960428e-001	-1.100417e+000
484040	9.979420e-001	-1.140455e+000
486783	9.974324e-001	-1.132333e+000
489526	9.991030e-001	-1.174234e+000
492269	9.954705e-001	-1.158832e+000
495012	9.965764e-001	-1.271488e+000
497756	9.958904e-001	-1.252029e+000
500499	9.981837e-001	-1.298670e+000
503242	9.961017e-001	-1.351632e+000
505985	9.959986e-001	-1.465322e+000
508728	9.954656e-001	-1.416576e+000
511471	9.942331e-001	-1.473993e+000
514214	9.975901e-001	-1.433658e+000
516958	9.941950e-001	-1.484776e+000
519701	9.949473e-001	-1.458075e+000
522444	9.938217e-001	-1.573101e+000
525187	9.940049e-001	-1.484009e+000
527930	9.924335e-001	-1.465551e+000
530673	9.930160e-001	-1.539155e+000
533416	9.922421e-001	-1.557106e+000
536160	9.916713e-001	-1.425214e+000
538903	9.939879e-001	-1.517698e+000
541646	9.925776e-001	-1.432335e+000
544389	9.943996e-001	-1.488062e+000
547132	9.948805e-001	-1.587161e+000
549875	9.964550e-001	-1.503438e+000
552618	9.953197e-001	-1.721623e+000
555362	9.956926e-001	-1.758557e+000
558105	9.938378e-001	-1.740346e+000
560848	9.929397e-001	-1.817724e+000
563591	9.949482e-001	-1.892442e+000
566334	9.930201e-001	-1.914157e+000
569077	9.927687e-001	-1.950949e+000
571820	9.916057e-001	-2.026759e+000
574564	9.908980e-001	-2.008482e+000
577307	9.901689e-001	-1.968315e+000
580050	9.901321e-001	-2.008451e+000
582793	9.889518e-001	-1.934560e+000
585536	9.888503e-001	-2.069460e+000
588279	9.856342e-001	-2.040794e+000
591022	9.865797e-001	-2.117204e+000
593766	9.851401e-001	-2.103820e+000
596509	9.832592e-001	-2.064181e+000
599252	9.809950e-001	-1.966038e+000
601995	9.801569e-001	-1.961559e+000
604738	9.800608e-001	-1.879586e+000
607481	9.774998e-001	-1.714353e+000
610224	9.785258e-001	-1.637103e+000
612968	9.786794e-001	-1.681802e+000
615711	9.796453e-001	-1.594745e+000
618454	9.808076e-001	-1.423409e+000
621197	9.822135e-001	-1.505401e+000
623940	9.826288e-001	-1.500371e+000
626683	9.823596e-001	-1.505485e+000
629426	9.825403e-001	-1.454224e+000
632170	9.830378e-001	-1.609424e+000
634913	9.810732e-001	-1.579280e+000
637656	9.829141e-001	-1.462780e+000
640399	9.828564e-001	-1.300615e+000
643142	9.830627e-001	-1.238210e+000
645885	9.844990e-001	-1.297581e+000
648628	9.860732e-001	-1.347254e+000
651372	9.863815e-001	-1.246448e+000
654115	9.881400e-001	-1.324077e+000
656858	9.879563e-001	-1.444294e+000
659601	9.893652e-001	-1.368579e+000
662344	9.877509e-001	-1.457980e+000
665087	9.899063e-001	-1.363135e+000
667830	9.874956e-001	-1.517392e+000
670574	9.882026e-001	-1.499486e+000
673317	9.880191e-001	-1.458712e+000
676060	9.854573e-001	-1.457441e+000
678803	9.874106e-001	-1.510461e+000
681546	9.876398e-001	-1.440701e+000
684289	9.894654e-001	-1.476629e+000
687032	9.883400e-001	-1.425979e+000
689776	9.897586e-001	-1.397972e+000
692519	9.903167e-001	-1.419165e+000
695262	9.902904e-001	-1.452701e+000
698005	9.911566e-001	-1.472556e+000
700748	9.917448e-001	-1.417623e+000
703491	9.910859e-001	-1.433003e+000
706234	9.922293e-001	-1.398281e+000
708978	9.909891e-001	-1.514564e+000
711721	9.936062e-001	-1.421215e+000
714464	9.933496e-001	-1.489484e+000
717207	9.940467e-001	-1.504914e+000
719950	9.941583e-001	-1.520138e+000
722693	9.941575e-001	-1.630278e+000
725436	9.937673e-001	-1.509542e+000
728180	9.943962e-001	-1.592817e+000
730923	9.963436e-001	-1.616055e+000
733666	9.955288e-001	-1.693296e+000
736409	9.940740e-001	-1.620660e+000
739152	9.943830e-001	-1.643017e+000
741895	9.959947e-001	-1.766709e+000
744638	9.968043e-001	-1.645724e+000
747382	9.970099e-001	-1.679863e+000
750125	9.945143e-001	-1.784016e+000
752868	9.954829e-001	-1.725472e+000
755611	9.963075e-001	-1.772415e+000
758354	9.955120e-001	-1.775947e+000
761097	9.966453e-001	-1.851028e+000
763840	9.973213e-001	-1.889492e+000
766584	9.967464e-001	-1.975393e+000
769327	9.974517e-001	-1.896798e+000
772070	9.989668e-001	-1.928592e+000
774813	9.977781e-001	-1.965013e+000
777556	9.962923e-001	-2.032443e+000
780299	9.977482e-001	-2.054927e+000
783042	9.971409e-001	-2.002137e+000
785786	9.974444e-001	-2.092919e+000
788529	9.974768e-001	-2.104552e+000
791272	9.983652e-001	-2.079896e+000
794015	9.969059e-001	-2.199755e+000
796758	9.968338e-001	-2.189943e+000
799501	9.968596e-001	-2.154169e+000
802244	9.985603e-001	-2.273026e+000
804988	9.976998e-001	-2.259971e+000
807731	9.977735e-001	-2.247927e+000
810474	9.968179e-001	-2.242509e+000
813217	9.988938e-001	-2.311060e+000
815960	9.963837e-001	-2.377066e+000
818703	9.956722e-001	-2.308985e+000
821446	9.977102e-001	-2.423684e+000
824190	9.960201e-001	-2.309772e+000
826933	9.967266e-001	-2.275303e+000
829676	9.956163e-001	-2.472082e+000
832419	9.935957e-001	-2.526033e+000
835162	9.920569e-001	-2.477175e+000
837905	9.930757e-001	-2.405253e+000
840648	9.915890e-001	-2.466278e+000
843392	9.918394e-001	-2.297455e+000
846135	9.923382e-001	-2.376597e+000
848878	9.934961e-001	-2.342279e+000
851621	9.939494e-001	-2.283265e+000
854364	9.959724e-001	-2.345923e+000
857107	9.930848e-001	-2.363763e+000
859850	9.952388e-001	-2.374695e+000
862594	9.955219e-001	-2.376277e+000
865337	9.948051e-001	-2.381020e+000
868080	9.945388e-001	-2.457649e+000
870823	9.955198e-001	-2.398880e+000
873566	9.941768e-001	-2.451658e+000
876309	9.974008e-001	-2.487094e+000
879052	9.941282e-001	-2.516759e+000
881796	9.946643e-001	-2.465362e+000
884539	9.940469e-001	-2.548390e+000
887282	9.956660e-001	-2.443681e+000
890025	9.936050e-001	-2.512338e+000
892768	9.946502e-001	-2.494718e+000
895511	9.941230e-001	-2.521944e+000
898254	9.951869e-001	-2.546880e+000
900998	9.955135e-001	-2.611030e+000
903741	9.940131e-001	-2.541147e+000
906484	9.924974e-001	-2.563457e+000
909227	9.917772e-001	-2.603099e+000
911970	9.926753e-001	-2.634636e+000
914713	9.925490e-001	-2.519765e+000
917456	9.921892e-001	-2.573128e+000
920200	9.932138e-001	-2.558878e+000
922943	9.945530e-001	-2.430123e+000
925686	9.947390e-001	-2.536927e+000
928429	9.962013e-001	-2.448092e+000
931172	9.938515e-001	-2.461900e+000
933915	9.957047e-001	-2.509686e+000
936658	9.960362e-001	-2.540243e+000
939401	9.969277e-001	-2.485659e+000
942145	9.967764e-001	-2.604244e+000
944888	9.967166e-001	-2.656140e+000
947631	9.984257e-001	-2.539098e+000
950374	9.994070e-001	-2.562859e+000
953117	9.978292e-001	-2.674445e+000
955860	9.973079e-001	-2.636286e+000
958603	9.965712e-001	-2.735215e+000
961347	9.984801e-001	-2.599950e+000
964090	9.992748e-001	-2.664161e+000
966833	9.961840e-001	-2.636343e+000
969576	9.986515e-001	-2.800878e+000
972319	9.969689e-001	-2.767719e+000
975062	9.978795e-001	-2.782838e+000
977805	9.988172e-001	-2.765796e+000
980549	9.991291e-001	-2.950259e+000
983292	9.986986e-001	-2.793608e+000
986035	9.977712e-001	-2.769292e+000
988778	9.980570e-001	-3.000772e+000
991521	9.990655e-001	-2.963722e+000
994264	9.988672e-001	-2.878759e+000
997007	9.980719e-001	-2.934776e+000
999751	9.998716e-001	-2.857616e+000
1002494	9.973014e-001	-3.078817e+000
1005237	9.981324e-001	-2.980350e+000
1007980	9.992341e-001	-3.041145e+000
1010723	9.984989e-001	-2.965152e+000
1013466	9.994545e-001	-3.052517e+000
1016209	1.000427e+000	-3.081820e+000
1018953	9.989626e-001	-3.098671e+000
1021696	9.988107e-001	-2.993198e+000
1024439	9.972133e-001	-3.102882e+000
1027182	9.996601e-001	-3.116392e+000
1029925	9.985729e-001	-3.052999e+000
1032668	9.964379e-001	-3.142676e+000
1035411	9.980601e-001	-3.120705e+000
1038155	9.987536e-001	-3.191206e+000
1040898	9.988383e-001	-3.196721e+000
1043641	9.980424e-001	-3.126717e+000
1046384	9.971247e-001	-3.186565e+000
1049127	9.968890e-001	-3.319228e+000
1051870	9.981425e-001	-3.220283e+000
1054613	9.993598e-001	-3.250740e+000
1057357	9.992058e-001	-3.340036e+000
1060100	9.979701e-001	-3.347975e+000
1062843	9.976797e-001	-3.203395e+000
1065586	9.961614e-001	-3.337616e+000
1068329	9.967854e-001	-3.354966e+000
1071072	9.978045e-001	-3.288602e+000
1073815	9.957923e-001	-3.336044e+000
1076559	9.971104e-001	-3.402499e+000
1079302	9.971576e-001	-3.360795e+000
1082045	9.961022e-001	-3.446861e+000
1084788	9.951956e-001	-3.337500e+000
1087531	9.953303e-001	-3.345101e+000
1090274	9.942583e-001	-3.272809e+000
1093017	9.946664e-001	-3.199490e+000
1095761	9.966271e-001	-3.331505e+000
1098504	9.972543e-001	-3.257128e+000
1101247	9.975480e-001	-3.300204e+000
1103990	9.970684e-001	-3.446626e+000
1106733	9.985835e-001	-3.368704e+000
1109476	9.988577e-001	-3.266184e+000
1112219	9.974986e-001	-3.448526e+000
1114963	9.976839e-001	-3.305042e+000
1117706	9.997943e-001	-3.352919e+000
1120449	9.969527e-001	-3.343810e+000
1123192	9.967535e-001	-3.560181e+000
1125935	9.985309e-001	-3.429064e+000
1128678	9.981196e-001	-3.490565e+000
1131421	9.985618e-001	-3.513224e+000
1134165	9.978373e-001	-3.565188e+000
1136908	9.993227e-001	-3.576120e+000
1139651	9.974180e-001	-3.424129e+000
1142394	9.988134e-001	-3.516783e+000
1145137	9.976533e-001	-3.591277e+000
1147880	9.990451e-001	-3.478142e+000
1150623	9.998151e-001	-3.576983e+000
1153367	9.972677e-001	-3.568321e+000
1156110	9.981195e-001	-3.547292e+000
1158853	9.967707e-001	-3.580062e+000
1161596	9.993440e-001	-3.678823e+000
1164339	9.988835e-001	-3.643163e+000
1167082	9.983654e-001	-3.703626e+000
1169825	9.992303e-001	-3.725319e+000
1172569	9.964076e-001	-3.774788e+000
1175312	9.977254e-001	-3.745987e+000
1178055	9.967315e-001	-3.713039e+000
1180798	9.982530e-001	-3.805487e+000
1183541	9.979055e-001	-3.756034e+000
1186284	9.974646e-001	-3.806795e+000
1189027	9.984477e-001	-3.820589e+000
1191771	9.983975e-001	-3.777076e+000
1194514	9.973954e-001	-3.892738e+000
1197257	9.968067e-001	-3.871284e+000
1200000	9.974952e-001	-3.806729e+000
