!Agilent Technologies,E5071C,MY46100265,A.07.02
!Date: Wed Mar 04 14:47:54 2020
!Data & Calibration Information:
!Freq	S11:SOLT1(ON)
# Hz S MA R 50
100000	9.898505e-001	-1.944728e+000
102743	9.873728e-001	-1.930486e+000
105486	9.883689e-001	-2.191806e+000
108229	9.888087e-001	-2.223354e+000
110973	9.869851e-001	-2.408602e+000
113716	9.877462e-001	-2.574169e+000
116459	9.867474e-001	-2.692043e+000
119202	9.854573e-001	-2.870334e+000
121945	9.838376e-001	-2.999627e+000
124688	9.805798e-001	-3.229745e+000
127431	9.799347e-001	-3.336372e+000
130175	9.773806e-001	-3.629462e+000
132918	9.752174e-001	-3.962717e+000
135661	9.679547e-001	-4.393028e+000
138404	9.659441e-001	-4.347210e+000
141147	9.559341e-001	-4.642540e+000
143890	9.455465e-001	-4.709630e+000
146633	9.381605e-001	-4.653597e+000
149377	9.277475e-001	-4.975646e+000
152120	9.138727e-001	-5.142314e+000
154863	8.926851e-001	-4.702325e+000
157606	8.804670e-001	-3.728343e+000
160349	8.651600e-001	-1.796722e+000
163092	8.624691e-001	-4.829686e-001
165835	8.767874e-001	8.526682e-001
168579	8.923622e-001	1.757049e+000
171322	9.124481e-001	9.041457e-001
174065	9.302953e-001	2.364181e+000
176808	9.145565e-001	8.330070e-001
179551	9.427579e-001	2.344096e+000
182294	9.683931e-001	2.964705e+000
185037	9.546666e-001	2.803354e+000
187781	9.644749e-001	1.313129e+000
190524	9.628941e-001	1.312801e+000
193267	9.672022e-001	8.207057e-001
196010	9.780275e-001	1.082516e+000
198753	9.710137e-001	6.198382e-001
201496	9.678392e-001	7.511538e-001
204239	9.715979e-001	8.603457e-001
206983	9.760824e-001	6.189192e-001
209726	9.621964e-001	5.165048e-001
212469	9.696120e-001	2.519955e-002
215212	9.712437e-001	8.485967e-002
217955	9.713242e-001	7.186465e-003
220698	9.747779e-001	-4.881289e-001
223441	9.735354e-001	-8.446491e-002
226185	9.708900e-001	-2.296380e-001
228928	9.725970e-001	-1.793520e-001
231671	9.714096e-001	-3.755064e-001
234414	9.706340e-001	-4.861826e-002
237157	9.701056e-001	-3.427561e-001
239900	9.689936e-001	-3.260311e-001
242643	9.680328e-001	-2.539478e-001
245387	9.721953e-001	-1.936183e-001
248130	9.695825e-001	-2.439815e-001
250873	9.725269e-001	-1.525617e-001
253616	9.748078e-001	-3.486249e-001
256359	9.743769e-001	-2.861557e-001
259102	9.746552e-001	-2.298161e-001
261845	9.768086e-001	-2.558228e-001
264589	9.773577e-001	-4.610538e-001
267332	9.770547e-001	-5.559515e-001
270075	9.781220e-001	-4.982038e-001
272818	9.769792e-001	-5.602935e-001
275561	9.785056e-001	-7.339638e-001
278304	9.797491e-001	-6.576201e-001
281047	9.788001e-001	-8.352578e-001
283791	9.781332e-001	-7.480067e-001
286534	9.782124e-001	-8.906090e-001
289277	9.779218e-001	-8.275817e-001
292020	9.783235e-001	-1.045770e+000
294763	9.754291e-001	-1.055768e+000
297506	9.763140e-001	-1.010168e+000
300249	9.749389e-001	-1.124946e+000
302993	9.727356e-001	-1.282091e+000
305736	9.706720e-001	-1.183191e+000
308479	9.698529e-001	-1.056993e+000
311222	9.687914e-001	-9.349457e-001
313965	9.707070e-001	-8.747329e-001
316708	9.698960e-001	-8.667048e-001
319451	9.701320e-001	-7.496022e-001
322195	9.710645e-001	-7.764750e-001
324938	9.706476e-001	-7.182758e-001
327681	9.749146e-001	-7.389560e-001
330424	9.761760e-001	-8.392278e-001
333167	9.768451e-001	-8.562023e-001
335910	9.755423e-001	-8.422916e-001
338653	9.783172e-001	-9.532875e-001
341397	9.785824e-001	-9.005992e-001
344140	9.798392e-001	-1.028996e+000
346883	9.809816e-001	-1.040204e+000
349626	9.788816e-001	-1.196818e+000
352369	9.802220e-001	-1.179841e+000
355112	9.805008e-001	-1.226439e+000
357855	9.793016e-001	-1.257707e+000
360599	9.807712e-001	-1.230089e+000
363342	9.781198e-001	-1.472887e+000
366085	9.783059e-001	-1.369478e+000
368828	9.777370e-001	-1.364491e+000
371571	9.758476e-001	-1.464459e+000
374314	9.766709e-001	-1.427196e+000
377057	9.767214e-001	-1.310769e+000
379800	9.766788e-001	-1.433992e+000
382544	9.775901e-001	-1.408762e+000
385287	9.767016e-001	-1.419365e+000
388030	9.771905e-001	-1.380984e+000
390773	9.780755e-001	-1.452100e+000
393516	9.765030e-001	-1.468025e+000
396259	9.769331e-001	-1.510248e+000
399002	9.797409e-001	-1.480496e+000
401746	9.769728e-001	-1.681459e+000
404489	9.783415e-001	-1.493393e+000
407232	9.788009e-001	-1.501626e+000
409975	9.767353e-001	-1.617284e+000
412718	9.784792e-001	-1.581474e+000
415461	9.785942e-001	-1.608879e+000
418204	9.780629e-001	-1.603427e+000
420948	9.776358e-001	-1.729682e+000
423691	9.775510e-001	-1.713037e+000
426434	9.782680e-001	-1.769804e+000
429177	9.795911e-001	-1.736880e+000
431920	9.784703e-001	-1.800893e+000
434663	9.771742e-001	-1.803022e+000
437406	9.791555e-001	-1.752823e+000
440150	9.772356e-001	-1.885800e+000
442893	9.786114e-001	-1.895246e+000
445636	9.760711e-001	-1.872283e+000
448379	9.779384e-001	-1.901026e+000
451122	9.757589e-001	-1.992498e+000
453865	9.750974e-001	-1.993806e+000
456608	9.756218e-001	-1.969368e+000
459352	9.727860e-001	-1.922726e+000
462095	9.748635e-001	-1.819265e+000
464838	9.772621e-001	-1.872001e+000
467581	9.747710e-001	-1.854945e+000
470324	9.764297e-001	-1.929501e+000
473067	9.771965e-001	-1.881310e+000
475810	9.775454e-001	-1.909246e+000
478554	9.784433e-001	-1.862505e+000
481297	9.766736e-001	-1.949585e+000
484040	9.776133e-001	-1.969439e+000
486783	9.789944e-001	-1.951021e+000
489526	9.798056e-001	-1.956748e+000
492269	9.773926e-001	-2.027517e+000
495012	9.772082e-001	-2.003119e+000
497756	9.778003e-001	-1.945188e+000
500499	9.788582e-001	-2.060488e+000
503242	9.783281e-001	-2.060362e+000
505985	9.781505e-001	-2.248310e+000
508728	9.777057e-001	-2.133185e+000
511471	9.790320e-001	-2.133489e+000
514214	9.807543e-001	-2.125930e+000
516958	9.785599e-001	-2.260157e+000
519701	9.789042e-001	-2.193958e+000
522444	9.773027e-001	-2.246698e+000
525187	9.804793e-001	-2.302489e+000
527930	9.789476e-001	-2.355146e+000
530673	9.796778e-001	-2.402727e+000
533416	9.795965e-001	-2.346621e+000
536160	9.786051e-001	-2.409682e+000
538903	9.793006e-001	-2.402453e+000
541646	9.784211e-001	-2.427641e+000
544389	9.779582e-001	-2.403427e+000
547132	9.761661e-001	-2.454191e+000
549875	9.789165e-001	-2.502458e+000
552618	9.781763e-001	-2.471407e+000
555362	9.774887e-001	-2.614464e+000
558105	9.764774e-001	-2.591225e+000
560848	9.779353e-001	-2.615313e+000
563591	9.776076e-001	-2.689617e+000
566334	9.779081e-001	-2.730044e+000
569077	9.773308e-001	-2.702911e+000
571820	9.779185e-001	-2.829125e+000
574564	9.771723e-001	-2.756652e+000
577307	9.781073e-001	-2.799831e+000
580050	9.775352e-001	-2.794543e+000
582793	9.767760e-001	-2.806985e+000
585536	9.757103e-001	-2.864812e+000
588279	9.743288e-001	-2.911256e+000
591022	9.746575e-001	-2.990884e+000
593766	9.730420e-001	-3.046293e+000
596509	9.730320e-001	-2.884445e+000
599252	9.718812e-001	-2.982530e+000
601995	9.727421e-001	-3.028483e+000
604738	9.721482e-001	-2.865797e+000
607481	9.693066e-001	-3.013611e+000
610224	9.690843e-001	-2.970155e+000
612968	9.686429e-001	-3.013531e+000
615711	9.688852e-001	-3.009788e+000
618454	9.669511e-001	-2.900180e+000
621197	9.673960e-001	-2.786663e+000
623940	9.674133e-001	-2.758769e+000
626683	9.664704e-001	-2.727176e+000
629426	9.688822e-001	-2.707587e+000
632170	9.681307e-001	-2.721305e+000
634913	9.683832e-001	-2.661772e+000
637656	9.704292e-001	-2.626604e+000
640399	9.690083e-001	-2.558870e+000
643142	9.710720e-001	-2.504967e+000
645885	9.726220e-001	-2.568537e+000
648628	9.719055e-001	-2.631908e+000
651372	9.725183e-001	-2.615797e+000
654115	9.724323e-001	-2.581924e+000
656858	9.735407e-001	-2.718848e+000
659601	9.728021e-001	-2.713317e+000
662344	9.714842e-001	-2.735942e+000
665087	9.740504e-001	-2.701926e+000
667830	9.727108e-001	-2.795197e+000
670574	9.731046e-001	-2.734524e+000
673317	9.741327e-001	-2.754665e+000
676060	9.723098e-001	-2.783065e+000
678803	9.754450e-001	-2.830116e+000
681546	9.740894e-001	-2.874189e+000
684289	9.744778e-001	-2.903583e+000
687032	9.738354e-001	-2.913152e+000
689776	9.744799e-001	-2.857779e+000
692519	9.753324e-001	-2.975606e+000
695262	9.747858e-001	-2.914824e+000
698005	9.745275e-001	-2.943687e+000
700748	9.749740e-001	-3.020196e+000
703491	9.760119e-001	-3.034498e+000
706234	9.747044e-001	-3.034184e+000
708978	9.743301e-001	-3.015645e+000
711721	9.751794e-001	-2.990925e+000
714464	9.751310e-001	-3.151336e+000
717207	9.756885e-001	-3.043525e+000
719950	9.755681e-001	-3.127698e+000
722693	9.759954e-001	-3.170089e+000
725436	9.750278e-001	-3.131424e+000
728180	9.747308e-001	-3.101916e+000
730923	9.757475e-001	-3.193311e+000
733666	9.762735e-001	-3.160054e+000
736409	9.748883e-001	-3.134468e+000
739152	9.747544e-001	-3.194558e+000
741895	9.767380e-001	-3.356268e+000
744638	9.749162e-001	-3.244765e+000
747382	9.756604e-001	-3.250947e+000
750125	9.762324e-001	-3.304381e+000
752868	9.760659e-001	-3.280309e+000
755611	9.745547e-001	-3.315548e+000
758354	9.765348e-001	-3.333124e+000
761097	9.748308e-001	-3.421246e+000
763840	9.751236e-001	-3.458814e+000
766584	9.741864e-001	-3.509549e+000
769327	9.748278e-001	-3.428863e+000
772070	9.756399e-001	-3.502582e+000
774813	9.757762e-001	-3.553732e+000
777556	9.747974e-001	-3.552959e+000
780299	9.744080e-001	-3.586404e+000
783042	9.762102e-001	-3.533159e+000
785786	9.734845e-001	-3.579464e+000
788529	9.753489e-001	-3.610392e+000
791272	9.745672e-001	-3.684103e+000
794015	9.728640e-001	-3.622089e+000
796758	9.738057e-001	-3.776856e+000
799501	9.733708e-001	-3.747212e+000
802244	9.736048e-001	-3.783961e+000
804988	9.740894e-001	-3.746301e+000
807731	9.735516e-001	-3.753415e+000
810474	9.714716e-001	-3.763939e+000
813217	9.732830e-001	-3.859633e+000
815960	9.715142e-001	-3.737307e+000
818703	9.724703e-001	-3.781364e+000
821446	9.718556e-001	-3.792630e+000
824190	9.718690e-001	-3.739761e+000
826933	9.714065e-001	-3.731707e+000
829676	9.711746e-001	-3.787654e+000
832419	9.714962e-001	-3.901664e+000
835162	9.695198e-001	-3.887702e+000
837905	9.728553e-001	-3.798330e+000
840648	9.706989e-001	-3.881427e+000
843392	9.705144e-001	-3.919048e+000
846135	9.694322e-001	-3.871600e+000
848878	9.696347e-001	-3.900468e+000
851621	9.699469e-001	-3.938139e+000
854364	9.695713e-001	-3.868622e+000
857107	9.701661e-001	-3.898758e+000
859850	9.694992e-001	-3.905235e+000
862594	9.695069e-001	-3.885612e+000
865337	9.691379e-001	-3.950470e+000
868080	9.692111e-001	-3.899843e+000
870823	9.703760e-001	-3.862539e+000
873566	9.700060e-001	-3.826881e+000
876309	9.708196e-001	-3.958651e+000
879052	9.690426e-001	-3.996355e+000
881796	9.704529e-001	-3.883005e+000
884539	9.691469e-001	-3.911129e+000
887282	9.693313e-001	-3.870743e+000
890025	9.690055e-001	-3.927678e+000
892768	9.688219e-001	-3.865799e+000
895511	9.686145e-001	-3.968703e+000
898254	9.701934e-001	-3.955341e+000
900998	9.711106e-001	-4.015753e+000
903741	9.691253e-001	-3.972060e+000
906484	9.683715e-001	-3.941696e+000
909227	9.682164e-001	-3.997312e+000
911970	9.685561e-001	-4.009005e+000
914713	9.686784e-001	-4.002327e+000
917456	9.692452e-001	-4.064388e+000
920200	9.694733e-001	-4.062016e+000
922943	9.704726e-001	-3.942557e+000
925686	9.699760e-001	-4.165093e+000
928429	9.712085e-001	-4.023821e+000
931172	9.680044e-001	-4.075645e+000
933915	9.715341e-001	-4.151701e+000
936658	9.691591e-001	-4.143824e+000
939401	9.704406e-001	-4.158848e+000
942145	9.696959e-001	-4.284334e+000
944888	9.685891e-001	-4.223382e+000
947631	9.678284e-001	-4.222525e+000
950374	9.696548e-001	-4.178602e+000
953117	9.679961e-001	-4.324287e+000
955860	9.672888e-001	-4.194866e+000
958603	9.678525e-001	-4.330730e+000
961347	9.685491e-001	-4.091225e+000
964090	9.672633e-001	-4.175568e+000
966833	9.679793e-001	-4.181876e+000
969576	9.695208e-001	-4.254189e+000
972319	9.688009e-001	-4.149860e+000
975062	9.681006e-001	-4.173292e+000
977805	9.697510e-001	-4.173982e+000
980549	9.692778e-001	-4.253074e+000
983292	9.680534e-001	-4.270429e+000
986035	9.695773e-001	-4.233719e+000
988778	9.697233e-001	-4.376368e+000
991521	9.706722e-001	-4.187546e+000
994264	9.687248e-001	-4.316741e+000
997007	9.698416e-001	-4.355826e+000
999751	9.709050e-001	-4.274725e+000
1002494	9.685883e-001	-4.359123e+000
1005237	9.692707e-001	-4.409173e+000
1007980	9.691672e-001	-4.472089e+000
1010723	9.689845e-001	-4.407086e+000
1013466	9.686826e-001	-4.407417e+000
1016209	9.685895e-001	-4.586280e+000
1018953	9.684331e-001	-4.463356e+000
1021696	9.674492e-001	-4.411575e+000
1024439	9.670290e-001	-4.459973e+000
1027182	9.692085e-001	-4.596335e+000
1029925	9.694197e-001	-4.400024e+000
1032668	9.658760e-001	-4.476486e+000
1035411	9.674142e-001	-4.510399e+000
1038155	9.683180e-001	-4.569957e+000
1040898	9.677983e-001	-4.545042e+000
1043641	9.684613e-001	-4.406341e+000
1046384	9.670526e-001	-4.601228e+000
1049127	9.677736e-001	-4.569325e+000
1051870	9.675067e-001	-4.550404e+000
1054613	9.689593e-001	-4.600050e+000
1057357	9.675724e-001	-4.666836e+000
1060100	9.679724e-001	-4.689075e+000
1062843	9.678260e-001	-4.460865e+000
1065586	9.668859e-001	-4.696935e+000
1068329	9.661663e-001	-4.624668e+000
1071072	9.665060e-001	-4.569706e+000
1073815	9.663298e-001	-4.560896e+000
1076559	9.676108e-001	-4.589978e+000
1079302	9.677011e-001	-4.645359e+000
1082045	9.671224e-001	-4.692113e+000
1084788	9.665072e-001	-4.598875e+000
1087531	9.663754e-001	-4.600352e+000
1090274	9.655020e-001	-4.690194e+000
1093017	9.675498e-001	-4.615308e+000
1095761	9.670895e-001	-4.548072e+000
1098504	9.665195e-001	-4.618889e+000
1101247	9.670966e-001	-4.541746e+000
1103990	9.664268e-001	-4.580352e+000
1106733	9.689513e-001	-4.581436e+000
1109476	9.676600e-001	-4.451692e+000
1112219	9.682876e-001	-4.670348e+000
1114963	9.688918e-001	-4.477423e+000
1117706	9.694920e-001	-4.569121e+000
1120449	9.675808e-001	-4.587854e+000
1123192	9.680882e-001	-4.691885e+000
1125935	9.708693e-001	-4.710167e+000
1128678	9.696235e-001	-4.743203e+000
1131421	9.718934e-001	-4.724760e+000
1134165	9.695723e-001	-4.706771e+000
1136908	9.717419e-001	-4.832940e+000
1139651	9.697783e-001	-4.762132e+000
1142394	9.695174e-001	-4.862488e+000
1145137	9.706590e-001	-4.817554e+000
1147880	9.704656e-001	-4.867947e+000
1150623	9.712052e-001	-4.885848e+000
1153367	9.700044e-001	-4.976187e+000
1156110	9.699570e-001	-4.929607e+000
1158853	9.693491e-001	-4.896641e+000
1161596	9.705344e-001	-5.041060e+000
1164339	9.694424e-001	-4.998294e+000
1167082	9.698945e-001	-5.087715e+000
1169825	9.695357e-001	-5.100434e+000
1172569	9.678875e-001	-5.069069e+000
1175312	9.694408e-001	-5.064384e+000
1178055	9.688698e-001	-5.052458e+000
1180798	9.692148e-001	-5.099655e+000
1183541	9.686372e-001	-5.054170e+000
1186284	9.675864e-001	-5.148102e+000
1189027	9.678922e-001	-5.111485e+000
1191771	9.681807e-001	-5.069723e+000
1194514	9.680832e-001	-5.261627e+000
1197257	9.674399e-001	-5.159904e+000
1200000	9.685552e-001	-5.191125e+000
