!Agilent Technologies,E5071C,MY46100265,A.07.02
!Date: Wed Mar 04 14:33:42 2020
!Data & Calibration Information:
!Freq	S11:SOLT1(ON)
# Hz S MA R 50
100000	9.972566e-001	-1.913766e+000
102743	9.941400e-001	-1.912217e+000
105486	9.956637e-001	-2.146452e+000
108229	9.962577e-001	-2.120844e+000
110973	9.947586e-001	-2.259837e+000
113716	9.956363e-001	-2.451894e+000
116459	9.950077e-001	-2.569005e+000
119202	9.935630e-001	-2.767699e+000
121945	9.925163e-001	-2.943830e+000
124688	9.894874e-001	-3.128022e+000
127431	9.913286e-001	-3.258046e+000
130175	9.900677e-001	-3.477580e+000
132918	9.875495e-001	-3.591981e+000
135661	9.878020e-001	-4.229750e+000
138404	9.855418e-001	-4.593869e+000
141147	9.804072e-001	-5.133681e+000
143890	9.716730e-001	-5.837995e+000
146633	9.634100e-001	-6.396091e+000
149377	9.454959e-001	-7.123496e+000
152120	9.249263e-001	-8.164225e+000
154863	8.905920e-001	-8.650293e+000
157606	8.415118e-001	-8.433675e+000
160349	7.840737e-001	-6.618652e+000
163092	7.444189e-001	-6.265156e-001
165835	7.785585e-001	5.927534e+000
168579	8.597181e-001	8.394064e+000
171322	9.178925e-001	7.299392e+000
174065	9.306398e-001	4.713424e+000
176808	9.616305e-001	4.507077e+000
179551	9.575174e-001	4.356383e+000
182294	9.749842e-001	3.214705e+000
185037	9.864617e-001	2.739163e+000
187781	9.831546e-001	2.726355e+000
190524	9.805998e-001	2.374081e+000
193267	9.842774e-001	2.088966e+000
196010	9.823661e-001	1.908057e+000
198753	9.859334e-001	1.491746e+000
201496	9.923898e-001	1.207818e+000
204239	9.888694e-001	9.742543e-001
206983	9.907350e-001	7.996574e-001
209726	9.895594e-001	5.294313e-001
212469	9.892615e-001	5.373996e-001
215212	9.917913e-001	6.202962e-001
217955	9.942272e-001	1.954612e-001
220698	9.931092e-001	1.147736e-001
223441	9.908484e-001	1.512742e-001
226185	9.911156e-001	5.272373e-004
228928	9.911015e-001	-2.584207e-001
231671	9.907095e-001	-2.439652e-001
234414	9.910713e-001	-2.618698e-001
237157	9.916216e-001	-4.848710e-001
239900	9.890139e-001	-5.649877e-001
242643	9.909803e-001	-7.727252e-001
245387	9.893977e-001	-9.049144e-001
248130	9.894491e-001	-9.426492e-001
250873	9.904604e-001	-1.093637e+000
253616	9.892286e-001	-1.169589e+000
256359	9.884467e-001	-1.416788e+000
259102	9.876608e-001	-1.532870e+000
261845	9.836344e-001	-1.701215e+000
264589	9.814706e-001	-2.041189e+000
267332	9.775995e-001	-2.103676e+000
270075	9.717977e-001	-2.327099e+000
272818	9.626187e-001	-2.533301e+000
275561	9.524973e-001	-2.440308e+000
278304	9.403165e-001	-2.071612e+000
281047	9.296650e-001	-1.302298e+000
283791	9.278909e-001	-1.198987e-001
286534	9.379305e-001	7.540501e-001
289277	9.521666e-001	1.137628e+000
292020	9.642708e-001	8.721344e-001
294763	9.687588e-001	7.393289e-001
297506	9.729164e-001	6.313746e-001
300249	9.725900e-001	5.807117e-001
302993	9.756401e-001	3.249601e-001
305736	9.793456e-001	2.142401e-001
308479	9.799751e-001	9.649556e-002
311222	9.795194e-001	-3.936807e-002
313965	9.822666e-001	-1.274579e-001
316708	9.789081e-001	-2.901557e-001
319451	9.800438e-001	-2.894393e-001
322195	9.789144e-001	-3.348574e-001
324938	9.778102e-001	-2.881774e-001
327681	9.808568e-001	-3.720475e-001
330424	9.810100e-001	-5.691640e-001
333167	9.812895e-001	-6.483700e-001
335910	9.795860e-001	-6.914990e-001
338653	9.793386e-001	-8.403286e-001
341397	9.761504e-001	-7.477904e-001
344140	9.746224e-001	-1.015028e+000
346883	9.716377e-001	-9.287684e-001
349626	9.666909e-001	-8.275191e-001
352369	9.645314e-001	-5.540178e-001
355112	9.642043e-001	-2.364643e-001
357855	9.669270e-001	1.703629e-001
360599	9.748738e-001	3.060415e-001
363342	9.777078e-001	9.811120e-002
366085	9.795678e-001	-3.825488e-003
368828	9.796379e-001	-1.155481e-001
371571	9.821735e-001	-1.773760e-001
374314	9.811821e-001	-1.401350e-001
377057	9.816910e-001	-1.360877e-001
379800	9.807293e-001	-2.035020e-001
382544	9.835984e-001	-2.483097e-001
385287	9.845419e-001	-2.295235e-001
388030	9.838544e-001	-2.319253e-001
390773	9.861375e-001	-3.380997e-001
393516	9.871318e-001	-2.897842e-001
396259	9.868832e-001	-2.909030e-001
399002	9.890580e-001	-4.344524e-001
401746	9.883347e-001	-5.508369e-001
404489	9.891052e-001	-3.968838e-001
407232	9.898729e-001	-4.758954e-001
409975	9.893348e-001	-5.559532e-001
412718	9.909226e-001	-5.468952e-001
415461	9.902414e-001	-5.999129e-001
418204	9.899068e-001	-6.274846e-001
420948	9.903728e-001	-7.453317e-001
423691	9.910758e-001	-8.088270e-001
426434	9.938918e-001	-8.656642e-001
429177	9.932208e-001	-9.026061e-001
431920	9.927512e-001	-9.112959e-001
434663	9.917721e-001	-9.753205e-001
437406	9.910498e-001	-9.642732e-001
440150	9.902907e-001	-1.164319e+000
442893	9.931886e-001	-1.124669e+000
445636	9.908125e-001	-1.156497e+000
448379	9.897643e-001	-1.195303e+000
451122	9.880020e-001	-1.301586e+000
453865	9.878929e-001	-1.270868e+000
456608	9.884171e-001	-1.161275e+000
459352	9.872893e-001	-1.139307e+000
462095	9.892708e-001	-1.163190e+000
464838	9.927004e-001	-1.233386e+000
467581	9.906395e-001	-1.323512e+000
470324	9.900561e-001	-1.299833e+000
473067	9.912354e-001	-1.246538e+000
475810	9.910817e-001	-1.388941e+000
478554	9.910670e-001	-1.318897e+000
481297	9.913915e-001	-1.404648e+000
484040	9.898825e-001	-1.473961e+000
486783	9.911041e-001	-1.473850e+000
489526	9.920842e-001	-1.544567e+000
492269	9.900766e-001	-1.586229e+000
495012	9.915818e-001	-1.556869e+000
497756	9.906444e-001	-1.540931e+000
500499	9.924277e-001	-1.629291e+000
503242	9.903762e-001	-1.730308e+000
505985	9.908640e-001	-1.834554e+000
508728	9.897078e-001	-1.772677e+000
511471	9.889813e-001	-1.863854e+000
514214	9.896334e-001	-1.788823e+000
516958	9.876767e-001	-1.897661e+000
519701	9.887135e-001	-1.881492e+000
522444	9.869193e-001	-2.027397e+000
525187	9.873807e-001	-2.023125e+000
527930	9.873441e-001	-1.959565e+000
530673	9.867578e-001	-2.058549e+000
533416	9.855802e-001	-2.058358e+000
536160	9.857796e-001	-1.993831e+000
538903	9.858175e-001	-2.086653e+000
541646	9.839919e-001	-2.087000e+000
544389	9.852725e-001	-2.091604e+000
547132	9.834921e-001	-2.153477e+000
549875	9.864234e-001	-2.146449e+000
552618	9.840560e-001	-2.220870e+000
555362	9.835604e-001	-2.257608e+000
558105	9.827975e-001	-2.347283e+000
560848	9.835079e-001	-2.339882e+000
563591	9.848578e-001	-2.557007e+000
566334	9.826158e-001	-2.719163e+000
569077	9.819182e-001	-2.753070e+000
571820	9.807603e-001	-2.928721e+000
574564	9.776136e-001	-3.016679e+000
577307	9.742918e-001	-3.060985e+000
580050	9.690385e-001	-3.221050e+000
582793	9.628474e-001	-3.113450e+000
585536	9.569860e-001	-3.005616e+000
588279	9.520460e-001	-2.658629e+000
591022	9.492962e-001	-2.379508e+000
593766	9.472941e-001	-1.968734e+000
596509	9.485050e-001	-1.506065e+000
599252	9.517473e-001	-1.267491e+000
601995	9.538394e-001	-1.023083e+000
604738	9.591809e-001	-8.646930e-001
607481	9.614639e-001	-7.214246e-001
610224	9.651996e-001	-8.129995e-001
612968	9.704001e-001	-8.153781e-001
615711	9.716996e-001	-8.517554e-001
618454	9.736489e-001	-8.493894e-001
621197	9.740580e-001	-8.174415e-001
623940	9.752759e-001	-9.209261e-001
626683	9.755724e-001	-9.608701e-001
629426	9.761678e-001	-1.005141e+000
632170	9.779489e-001	-1.043735e+000
634913	9.771441e-001	-1.100282e+000
637656	9.779909e-001	-9.997258e-001
640399	9.796033e-001	-9.900167e-001
643142	9.795416e-001	-9.276447e-001
645885	9.803618e-001	-1.032660e+000
648628	9.844037e-001	-1.178934e+000
651372	9.837242e-001	-9.621808e-001
654115	9.839106e-001	-9.950005e-001
656858	9.858064e-001	-1.138396e+000
659601	9.864129e-001	-1.172220e+000
662344	9.867989e-001	-1.255485e+000
665087	9.873444e-001	-1.211988e+000
667830	9.881017e-001	-1.359839e+000
670574	9.867865e-001	-1.339731e+000
673317	9.876770e-001	-1.456357e+000
676060	9.864663e-001	-1.410266e+000
678803	9.884091e-001	-1.536638e+000
681546	9.882698e-001	-1.506181e+000
684289	9.893119e-001	-1.621282e+000
687032	9.870205e-001	-1.597902e+000
689776	9.890851e-001	-1.562640e+000
692519	9.877341e-001	-1.634539e+000
695262	9.907403e-001	-1.650447e+000
698005	9.884102e-001	-1.566978e+000
700748	9.906453e-001	-1.586311e+000
703491	9.891665e-001	-1.715557e+000
706234	9.885797e-001	-1.745910e+000
708978	9.897423e-001	-1.661637e+000
711721	9.901639e-001	-1.666999e+000
714464	9.904050e-001	-1.788113e+000
717207	9.887955e-001	-1.787836e+000
719950	9.894717e-001	-1.776555e+000
722693	9.904932e-001	-1.915408e+000
725436	9.888956e-001	-1.826652e+000
728180	9.888603e-001	-1.883229e+000
730923	9.916609e-001	-1.914638e+000
733666	9.914798e-001	-1.860349e+000
736409	9.901802e-001	-1.912371e+000
739152	9.899566e-001	-1.915440e+000
741895	9.915087e-001	-1.984722e+000
744638	9.920032e-001	-1.904707e+000
747382	9.911366e-001	-2.004240e+000
750125	9.912809e-001	-2.028142e+000
752868	9.925792e-001	-2.093411e+000
755611	9.912937e-001	-2.107458e+000
758354	9.902287e-001	-2.129045e+000
761097	9.907122e-001	-2.197365e+000
763840	9.913511e-001	-2.113898e+000
766584	9.907492e-001	-2.308108e+000
769327	9.920569e-001	-2.258443e+000
772070	9.930359e-001	-2.348352e+000
774813	9.925584e-001	-2.353747e+000
777556	9.909997e-001	-2.257490e+000
780299	9.902026e-001	-2.388734e+000
783042	9.909710e-001	-2.315615e+000
785786	9.914385e-001	-2.352701e+000
788529	9.917282e-001	-2.420369e+000
791272	9.909674e-001	-2.394769e+000
794015	9.904944e-001	-2.429351e+000
796758	9.902957e-001	-2.528493e+000
799501	9.902241e-001	-2.530799e+000
802244	9.901876e-001	-2.523652e+000
804988	9.897261e-001	-2.546043e+000
807731	9.883322e-001	-2.552492e+000
810474	9.883253e-001	-2.570872e+000
813217	9.898316e-001	-2.571558e+000
815960	9.869363e-001	-2.593056e+000
818703	9.877643e-001	-2.568047e+000
821446	9.866123e-001	-2.507407e+000
824190	9.891422e-001	-2.417868e+000
826933	9.876331e-001	-2.515223e+000
829676	9.891200e-001	-2.587102e+000
832419	9.890804e-001	-2.582349e+000
835162	9.877126e-001	-2.595867e+000
837905	9.898786e-001	-2.516243e+000
840648	9.886755e-001	-2.636033e+000
843392	9.888410e-001	-2.599352e+000
846135	9.880614e-001	-2.696523e+000
848878	9.896068e-001	-2.648354e+000
851621	9.885329e-001	-2.618261e+000
854364	9.887272e-001	-2.716479e+000
857107	9.865470e-001	-2.588252e+000
859850	9.879020e-001	-2.796128e+000
862594	9.884350e-001	-2.627132e+000
865337	9.876078e-001	-2.700290e+000
868080	9.881952e-001	-2.752725e+000
870823	9.892715e-001	-2.623600e+000
873566	9.884012e-001	-2.622520e+000
876309	9.902074e-001	-2.640956e+000
879052	9.885017e-001	-2.815019e+000
881796	9.888478e-001	-2.679223e+000
884539	9.889706e-001	-2.777588e+000
887282	9.913511e-001	-2.586236e+000
890025	9.886868e-001	-2.700971e+000
892768	9.895801e-001	-2.709726e+000
895511	9.888186e-001	-2.660635e+000
898254	9.894496e-001	-2.860841e+000
900998	9.887898e-001	-2.800950e+000
903741	9.898564e-001	-2.694907e+000
906484	9.900936e-001	-2.736902e+000
909227	9.890189e-001	-2.748933e+000
911970	9.905929e-001	-2.715092e+000
914713	9.911924e-001	-2.835195e+000
917456	9.897760e-001	-2.777601e+000
920200	9.901764e-001	-2.867732e+000
922943	9.929912e-001	-2.791862e+000
925686	9.906577e-001	-2.921222e+000
928429	9.927805e-001	-2.861041e+000
931172	9.901667e-001	-2.895446e+000
933915	9.912417e-001	-2.946258e+000
936658	9.924305e-001	-3.042699e+000
939401	9.926050e-001	-2.931855e+000
942145	9.925576e-001	-3.053896e+000
944888	9.904670e-001	-3.073638e+000
947631	9.914898e-001	-3.070638e+000
950374	9.931517e-001	-3.010123e+000
953117	9.913441e-001	-3.081863e+000
955860	9.926042e-001	-3.062784e+000
958603	9.926638e-001	-3.077810e+000
961347	9.926707e-001	-3.036693e+000
964090	9.932010e-001	-3.060014e+000
966833	9.910215e-001	-3.018351e+000
969576	9.922013e-001	-3.089585e+000
972319	9.930721e-001	-3.133338e+000
975062	9.931682e-001	-3.167082e+000
977805	9.928711e-001	-3.054143e+000
980549	9.934779e-001	-3.241573e+000
983292	9.920599e-001	-3.215927e+000
986035	9.932209e-001	-3.251117e+000
988778	9.920111e-001	-3.357465e+000
991521	9.929649e-001	-3.278443e+000
994264	9.915271e-001	-3.330431e+000
997007	9.921485e-001	-3.407999e+000
999751	9.917647e-001	-3.227925e+000
1002494	9.904327e-001	-3.483313e+000
1005237	9.904032e-001	-3.407831e+000
1007980	9.925343e-001	-3.416711e+000
1010723	9.927766e-001	-3.445377e+000
1013466	9.923877e-001	-3.352123e+000
1016209	9.919362e-001	-3.590132e+000
1018953	9.909995e-001	-3.465059e+000
1021696	9.917688e-001	-3.432242e+000
1024439	9.911066e-001	-3.535240e+000
1027182	9.920796e-001	-3.555884e+000
1029925	9.920870e-001	-3.496389e+000
1032668	9.903744e-001	-3.586335e+000
1035411	9.909866e-001	-3.553397e+000
1038155	9.917348e-001	-3.558833e+000
1040898	9.918618e-001	-3.614614e+000
1043641	9.901046e-001	-3.525126e+000
1046384	9.904825e-001	-3.595348e+000
1049127	9.906589e-001	-3.617089e+000
1051870	9.898687e-001	-3.680203e+000
1054613	9.917503e-001	-3.606319e+000
1057357	9.920569e-001	-3.723821e+000
1060100	9.913866e-001	-3.784634e+000
1062843	9.915401e-001	-3.596890e+000
1065586	9.880066e-001	-3.687550e+000
1068329	9.907719e-001	-3.669766e+000
1071072	9.896585e-001	-3.698332e+000
1073815	9.902104e-001	-3.699193e+000
1076559	9.910260e-001	-3.742197e+000
1079302	9.915404e-001	-3.792456e+000
1082045	9.912846e-001	-3.734650e+000
1084788	9.901857e-001	-3.721431e+000
1087531	9.900786e-001	-3.770814e+000
1090274	9.886820e-001	-3.732106e+000
1093017	9.892734e-001	-3.782373e+000
1095761	9.892024e-001	-3.748010e+000
1098504	9.899190e-001	-3.806219e+000
1101247	9.892595e-001	-3.801725e+000
1103990	9.904953e-001	-3.869042e+000
1106733	9.912186e-001	-3.771017e+000
1109476	9.900618e-001	-3.685395e+000
1112219	9.894111e-001	-3.902254e+000
1114963	9.897985e-001	-3.781903e+000
1117706	9.915593e-001	-3.864336e+000
1120449	9.901518e-001	-3.798571e+000
1123192	9.898404e-001	-3.924644e+000
1125935	9.891752e-001	-3.854592e+000
1128678	9.902466e-001	-3.893568e+000
1131421	9.913738e-001	-3.915328e+000
1134165	9.895951e-001	-3.987658e+000
1136908	9.920468e-001	-3.871052e+000
1139651	9.889870e-001	-3.889406e+000
1142394	9.892152e-001	-3.935503e+000
1145137	9.903702e-001	-3.939219e+000
1147880	9.905093e-001	-3.956425e+000
1150623	9.919449e-001	-3.973316e+000
1153367	9.902703e-001	-3.940911e+000
1156110	9.908265e-001	-3.946536e+000
1158853	9.904061e-001	-3.927863e+000
1161596	9.913998e-001	-3.964761e+000
1164339	9.916707e-001	-4.043083e+000
1167082	9.923550e-001	-4.080732e+000
1169825	9.915294e-001	-4.122974e+000
1172569	9.906787e-001	-4.210287e+000
1175312	9.930196e-001	-4.138237e+000
1178055	9.909270e-001	-4.023145e+000
1180798	9.916849e-001	-4.118293e+000
1183541	9.907400e-001	-4.142943e+000
1186284	9.912328e-001	-4.163883e+000
1189027	9.919208e-001	-4.236079e+000
1191771	9.922383e-001	-4.216384e+000
1194514	9.908360e-001	-4.350605e+000
1197257	9.904190e-001	-4.235178e+000
1200000	9.902662e-001	-4.294302e+000
